(1724769160.606413) can0 38A#12021000
(1724769160.606497) can0 388#010203
(1724769160.626626) can0 38A#22022000
(1724769160.626679) can0 388#020200
(1724769160.637232) can0 470#002A00FF02
(1724769160.646164) can0 4A0#0000000000000000
(1724769160.646270) can0 5A0#FA0100000000002B
(1724769160.646562) can0 1A0#00010000FEFE0080
(1724769160.646891) can0 38A#32023000
(1724769160.647079) can0 388#030201
(1724769160.666159) can0 4A0#0000000000000000
(1724769160.666263) can0 5A0#FA01002D0E01002B
(1724769160.666577) can0 1A0#00010000FEFE0081
(1724769160.666621) can0 38A#42024000
(1724769160.666922) can0 388#040206
(1724769160.686203) can0 4A0#0000000000000000
(1724769160.686302) can0 5A0#FA0100011601002B
(1724769160.686618) can0 1A0#00010000FEFE0082
(1724769160.686698) can0 38A#52025000
(1724769160.686991) can0 388#050207
(1724769160.687269) can0 470#002A00FF02
(1724769160.687526) can0 570#8720FF00
(1724769160.687762) can0 5D0#800240A03041
(1724769160.688085) can0 5D8#550C000310000000
(1724769160.706356) can0 4A0#0000000000000000
(1724769160.706429) can0 5A0#FA0100DD1D01002B
(1724769160.706740) can0 1A0#00010000FEFE0083
(1724769160.706918) can0 38A#62026000
(1724769160.707201) can0 388#060204
(1724769160.716896) can0 5E0#00FFFF0000008000
(1724769160.726113) can0 4A0#0000000000000000
(1724769160.726294) can0 5A0#FA01009B2501002B
(1724769160.726475) can0 1A0#00010000FEFE0084
(1724769160.727167) can0 38A#72027000
(1724769160.727233) can0 388#070205
(1724769160.736846) can0 470#002A00FF02
(1724769160.737014) can0 5E0#00FFFF0000008000
(1724769160.743404) can0 320#0200000100000000
(1724769160.743575) can0 420#829595FF00008000
(1724769160.746130) can0 4A0#0000000000000000
(1724769160.746257) can0 5A0#FA01006A2D01002B
(1724769160.746525) can0 1A0#00010000FEFE0085
(1724769160.746854) can0 38A#82028000
(1724769160.746987) can0 388#08020A
(1724769160.756798) can0 5E0#00FFFF0000008000
(1724769160.763036) can0 320#0200000100000000
(1724769160.766236) can0 4A0#0000000000000000
(1724769160.766258) can0 5A0#FA0100423502002B
(1724769160.766521) can0 1A0#00010000FEFE0086
(1724769160.767198) can0 38A#92029000
(1724769160.767223) can0 388#09020B
(1724769160.777039) can0 5E0#00FFFF0000008000
(1724769160.783112) can0 320#0200000100000000
(1724769160.786116) can0 4A0#0000000000000000
(1724769160.786241) can0 5A0#FA0100093D02002B
(1724769160.786430) can0 1A0#00010000FEFE0087
(1724769160.787099) can0 38A#A202A000
(1724769160.787212) can0 388#0A0208
(1724769160.787425) can0 470#002A00FF02
(1724769160.787687) can0 570#8720FF00
(1724769160.787935) can0 5D0#800240A03041
(1724769160.788262) can0 5D8#550C000310000000
(1724769160.797128) can0 5E0#00FFFF0000008000
(1724769160.803247) can0 320#0200000100000000
(1724769160.806104) can0 4A0#0000000000000000
(1724769160.806190) can0 5A0#FA0100CF4402002B
(1724769160.806400) can0 1A0#00010000FEFE0088
(1724769160.806921) can0 38A#B202B000
(1724769160.807013) can0 388#0B0209
(1724769160.817099) can0 5E0#00FFFFFF00008000
(1724769160.823060) can0 320#0200000100000000
(1724769160.826065) can0 4A0#0000000000000000
(1724769160.826219) can0 5A0#FA0100A34C02002B
(1724769160.826470) can0 1A0#00010000FEFE0089
(1724769160.827109) can0 38A#C202C000
(1724769160.827233) can0 388#0C020E
(1724769160.833281) can0 520#01010003055E4B03
(1724769160.837227) can0 470#002A00FF02
(1724769160.837356) can0 5E0#00FFFFFF00008000
(1724769160.843109) can0 320#0200000100000000
(1724769160.846030) can0 4A0#0000000000000000
(1724769160.846108) can0 5A0#FA01006D5402002B
(1724769160.846379) can0 1A0#00010000FEFE008A
(1724769160.847193) can0 38A#D202D000
(1724769160.847341) can0 388#0D020F
(1724769160.857154) can0 5E0#00FFFFFF00008000
(1724769160.863225) can0 320#0200000100000000
(1724769160.866220) can0 4A0#0000000000000000
(1724769160.866269) can0 5A0#FA01004E5C02002B
(1724769160.866578) can0 1A0#00010000FEFE008B
(1724769160.867226) can0 38A#E202E000
(1724769160.867340) can0 388#0E020C
(1724769160.867392) can0 050#00091811
(1724769160.877675) can0 5E0#00FFFFFF00008000
(1724769160.883248) can0 320#0200000100000000
(1724769160.886254) can0 4A0#0000000000000000
(1724769160.886337) can0 5A0#FA0100216402002B
(1724769160.886586) can0 1A0#00010000FEFE008C
(1724769160.887409) can0 38A#F202F000
(1724769160.887507) can0 388#0F020D
(1724769160.887550) can0 050#00092821
(1724769160.887842) can0 470#002A00FF02
(1724769160.888072) can0 570#8720FF00
(1724769160.888374) can0 5D0#800240A03041
(1724769160.888585) can0 5D8#550C000310000000
(1724769160.897495) can0 5E0#00FFFFFF00008000
(1724769160.903041) can0 320#0200000100000000
(1724769160.906135) can0 4A0#0000000000000000
(1724769160.906216) can0 5A0#FA0100E56B02002B
(1724769160.906497) can0 1A0#00010000FEFE008D
(1724769160.907188) can0 38A#02020000
(1724769160.907282) can0 388#100212
(1724769160.907498) can0 050#00093831
(1724769160.917220) can0 5E0#00FFFFFF00008000
(1724769160.923233) can0 320#0200000100000000
(1724769160.926241) can0 4A0#0000000000000000
(1724769160.926395) can0 5A0#FA0100C47302002B
(1724769160.926559) can0 1A0#00010000FEFE008E
(1724769160.927162) can0 38A#12021000
(1724769160.927368) can0 388#110213
(1724769160.927438) can0 050#00094841
(1724769160.937109) can0 470#002A00FF02
(1724769160.937399) can0 5E0#00FFFFFF00008000
(1724769160.943079) can0 320#0200000100000000
(1724769160.943168) can0 420#829594FF00008000
(1724769160.946257) can0 4A0#0000000000000000
(1724769160.946323) can0 5A0#FA0100967B02002B
(1724769160.946726) can0 1A0#00010000FEFE008F
(1724769160.947328) can0 38A#22022000
(1724769160.947383) can0 388#120210
(1724769160.947717) can0 050#00095851
(1724769160.957215) can0 5E0#00FFFFFF00008000
(1724769160.963004) can0 320#0200000100000000
(1724769160.966283) can0 4A0#0000000000000000
(1724769160.966433) can0 5A0#FA0100688302002B
(1724769160.966714) can0 1A0#00010000FEFE0080
(1724769160.967397) can0 38A#32023000
(1724769160.967440) can0 388#130211
(1724769160.967689) can0 050#00096861
(1724769160.977081) can0 5E0#00FFFFFF00008000
(1724769160.983674) can0 320#0200000100000000
(1724769160.986064) can0 4A0#0000000000000000
(1724769160.986254) can0 5A0#FA0100268B02002B
(1724769160.986473) can0 1A0#00010000FEFE0081
(1724769160.987256) can0 38A#42024000
(1724769160.987306) can0 388#140216
(1724769160.987608) can0 050#00097871
(1724769160.987757) can0 470#002A00FF02
(1724769160.988015) can0 570#8720FF00
(1724769160.988280) can0 5D0#800240A03041
(1724769160.988609) can0 5D8#550C000310000000
(1724769160.997128) can0 5E0#00FFFFFF00008000
(1724769161.003148) can0 320#0200000100000000
(1724769161.006301) can0 4A0#0000000000000000
(1724769161.006349) can0 5A0#FA0100059302002B
(1724769161.006734) can0 1A0#00010000FEFE0082
(1724769161.007552) can0 38A#52025000
(1724769161.007581) can0 388#150217
(1724769161.007740) can0 050#00098881
(1724769161.017465) can0 5E0#00FFFFFF00008000
(1724769161.023055) can0 320#0200000100000000
(1724769161.026293) can0 4A0#0000000000000000
(1724769161.026356) can0 5A0#FA0100D39A02002B
(1724769161.026698) can0 1A0#00010000FEFE0083
(1724769161.027315) can0 38A#62026000
(1724769161.027381) can0 388#160214
(1724769161.027637) can0 050#00099891
(1724769161.033296) can0 520#40420003055E4B03
(1724769161.037439) can0 470#002A00FF02
(1724769161.037547) can0 5E0#00FFFFFF00008000
(1724769161.043320) can0 320#0200000100000000
(1724769161.046239) can0 4A0#0000000000000000
(1724769161.046328) can0 5A0#FA0100A2A203002B
(1724769161.046640) can0 1A0#00010000FEFE0084
(1724769161.047202) can0 38A#72027000
(1724769161.047361) can0 388#170215
(1724769161.047680) can0 050#0009A8A1
(1724769161.057172) can0 5E0#00FFFFFF00008000
(1724769161.063025) can0 320#0200000100000000
(1724769161.066158) can0 4A0#0000000000000000
(1724769161.066296) can0 5A0#FA01006AAA03002B
(1724769161.066559) can0 1A0#00010000FEFE0085
(1724769161.067506) can0 38A#82028000
(1724769161.067599) can0 388#18021A
(1724769161.068197) can0 050#0009B8B1
(1724769161.077299) can0 5E0#00FFFFFF00008000
(1724769161.083302) can0 320#0200000100000000
(1724769161.086216) can0 4A0#0000000000000000
(1724769161.086326) can0 5A0#FA010040B204002B
(1724769161.086561) can0 1A0#00010000FEFE0086
(1724769161.087855) can0 050#0009C8C1
(1724769161.087951) can0 38A#92029000
(1724769161.088073) can0 388#19021B
(1724769161.088340) can0 470#002A00FF02
(1724769161.088601) can0 570#8720FF00
(1724769161.088868) can0 5D0#800240A03041
(1724769161.089192) can0 5D8#550C000310000000
(1724769161.097337) can0 5E0#00FFFFFF00008000
(1724769161.103255) can0 320#0200000100000000
(1724769161.106180) can0 4A0#0000000000000000
(1724769161.106319) can0 5A0#FA01000DBA04002B
(1724769161.106532) can0 1A0#00010000FEFE0087
(1724769161.107776) can0 38A#A202A000
(1724769161.107915) can0 050#0009D8D1
(1724769161.107991) can0 388#1A0218
(1724769161.117407) can0 5E0#00FFFFFF00008000
(1724769161.123092) can0 320#0200000100000000
(1724769161.126316) can0 4A0#0000000000000000
(1724769161.126399) can0 5A0#FA0100E6C104002B
(1724769161.126776) can0 1A0#00010000FEFE0088
(1724769161.127398) can0 38A#B202B000
(1724769161.127452) can0 388#1B0219
(1724769161.127820) can0 050#0009E8E1
(1724769161.137273) can0 470#002A00FF02
(1724769161.137488) can0 5E0#00FFFFFF00008000
(1724769161.143143) can0 320#0200000100000000
(1724769161.143249) can0 420#829594FF00008000
(1724769161.146136) can0 4A0#0000000000000000
(1724769161.146276) can0 5A0#FA0100A9C904002B
(1724769161.146466) can0 1A0#00010000FEFE0009
(1724769161.147489) can0 38A#C202C000
(1724769161.147572) can0 388#1C021E
(1724769161.147789) can0 050#0009F8F1
(1724769161.157406) can0 5E0#00FFFFFF00008000
(1724769161.163339) can0 320#0200000100000000
(1724769161.166181) can0 4A0#0000000000000000
(1724769161.166304) can0 5A0#FA01007AD104002B
(1724769161.166650) can0 1A0#00010000FEFE000A
(1724769161.167441) can0 38A#D202D000
(1724769161.167551) can0 388#1D021F
(1724769161.168019) can0 050#00090801
(1724769161.177524) can0 5E0#00FFFFFF00008000
(1724769161.183351) can0 320#0200000100000000
(1724769161.186339) can0 4A0#0000000000000000
(1724769161.186417) can0 5A0#FA010055D904002B
(1724769161.186820) can0 1A0#00010000FEFE000B
(1724769161.187444) can0 38A#E202E000
(1724769161.187585) can0 388#1E021C
(1724769161.187869) can0 470#002A00FF02
(1724769161.187918) can0 050#00091811
(1724769161.188140) can0 570#8720FF00
(1724769161.188435) can0 5D0#800240A03041
(1724769161.188697) can0 5D8#550C000310000000
(1724769161.197269) can0 5E0#00FFFFFF00008000
(1724769161.203073) can0 320#0200000100000000
(1724769161.206224) can0 4A0#0000000000000000
(1724769161.206280) can0 5A0#FA01001AE104002B
(1724769161.206631) can0 1A0#00010000FEFE000C
(1724769161.207484) can0 38A#F202F000
(1724769161.207532) can0 388#1F021D
(1724769161.207911) can0 050#00092821
(1724769161.217515) can0 5E0#00FFFFFF00008000
(1724769161.223213) can0 320#0200000100000000
(1724769161.226194) can0 4A0#0000000000000000
(1724769161.226377) can0 5A0#FA0100F0E804002B
(1724769161.226647) can0 1A0#00010000FEFE000D
(1724769161.227601) can0 38A#02020000
(1724769161.227641) can0 388#200222
(1724769161.227905) can0 050#00093831
(1724769161.233333) can0 520#FB860003055E4B03
(1724769161.237397) can0 470#002A00FF02
(1724769161.237681) can0 5E0#00FFFFFF00008000
(1724769161.243378) can0 320#0200000100000000
(1724769161.246262) can0 4A0#0000000000000000
(1724769161.246354) can0 5A0#FA0100C4F004002B
(1724769161.246695) can0 1A0#00010000FEFE000E
(1724769161.247770) can0 38A#12021000
(1724769161.247807) can0 050#00094841
(1724769161.248032) can0 388#210223
(1724769161.257298) can0 5E0#00FFFFFF00008000
(1724769161.263342) can0 320#0200000100000000
(1724769161.266174) can0 4A0#0000000000000000
(1724769161.266308) can0 5A0#FA01008CF804002B
(1724769161.266660) can0 1A0#00010000FEFE000F
(1724769161.267412) can0 38A#22022000
(1724769161.267511) can0 388#220220
(1724769161.268002) can0 050#00095851
(1724769161.277544) can0 5E0#00FFFFFF00008000
(1724769161.283557) can0 320#0200000100000000
(1724769161.286263) can0 4A0#0000000000000000
(1724769161.286351) can0 5A0#FA01005E0004002B
(1724769161.286772) can0 1A0#00010000FEFE0000
(1724769161.287768) can0 38A#32023000
(1724769161.287907) can0 388#230221
(1724769161.288115) can0 050#00096861
(1724769161.288196) can0 470#002A00FF02
(1724769161.288515) can0 570#8720FF00
(1724769161.288813) can0 5D0#800240A03041
(1724769161.289035) can0 5D8#550C000310000000
(1724769161.298009) can0 5E0#00FFFFFF00008000
(1724769161.303216) can0 320#0200000100000000
(1724769161.306299) can0 4A0#0000000000000000
(1724769161.306390) can0 5A0#FA0100340804002B
(1724769161.306697) can0 1A0#00010000FEFE0001
(1724769161.307686) can0 38A#42024000
(1724769161.307728) can0 388#240226
(1724769161.308228) can0 050#00097871
(1724769161.318018) can0 5E0#00FFFFFF00008000
(1724769161.323087) can0 320#0200000100000000
(1724769161.326162) can0 4A0#0000000000000000
(1724769161.326269) can0 5A0#FA0100F80F04002B
(1724769161.326505) can0 1A0#00010000FEFE0002
(1724769161.327623) can0 38A#52025000
(1724769161.327742) can0 388#250227
(1724769161.328100) can0 050#00098881
(1724769161.337550) can0 470#002A00FF02
(1724769161.337806) can0 5E0#00FFFFFF00008000
(1724769161.343297) can0 320#0200000100000000
(1724769161.343449) can0 420#829594FF00008000
(1724769161.346293) can0 4A0#0000000000000000
(1724769161.346380) can0 5A0#FA0100CF1704002B
(1724769161.346603) can0 1A0#00010000FEFE0003
(1724769161.347578) can0 38A#62026000
(1724769161.347702) can0 388#260224
(1724769161.347846) can0 050#00099891
(1724769161.357440) can0 5E0#00FFFFFF00008000
(1724769161.363084) can0 320#0200000100000000
(1724769161.366279) can0 4A0#0000000000000000
(1724769161.366359) can0 5A0#FA01009E1F04002B
(1724769161.366568) can0 1A0#00010000FEFE0004
(1724769161.367767) can0 38A#72027000
(1724769161.367836) can0 388#270225
(1724769161.367895) can0 050#0009A8A1
(1724769161.377599) can0 5E0#00FFFFFF00008000
(1724769161.383354) can0 320#0200000100000000
(1724769161.386402) can0 4A0#0000000000000000
(1724769161.386500) can0 5A0#FA0100782704002B
(1724769161.386686) can0 1A0#00010000FEFE0005
(1724769161.387933) can0 38A#82028000
(1724769161.387988) can0 050#0009B8B1
(1724769161.388056) can0 388#28022A
(1724769161.388528) can0 470#002A00FF02
(1724769161.388589) can0 570#8720FF00
(1724769161.388969) can0 5D0#800240A03041
(1724769161.389255) can0 5D8#550C000310000000
(1724769161.397585) can0 5E0#00FFFFFF00008000
(1724769161.403329) can0 320#0200000100000000
(1724769161.406180) can0 4A0#0000000000000000
(1724769161.406283) can0 5A0#FA0100392F04002B
(1724769161.406659) can0 1A0#00010000FEFE0006
(1724769161.407734) can0 38A#92029000
(1724769161.407780) can0 388#29022B
(1724769161.408048) can0 050#0009C8C1
(1724769161.417665) can0 5E0#00FFFFFF00008000
(1724769161.423112) can0 320#0200000100000000
(1724769161.426206) can0 4A0#0000000000000000
(1724769161.426280) can0 5A0#FA01000D3704002B
(1724769161.426612) can0 1A0#00010000FEFE0007
(1724769161.427893) can0 38A#A202A000
(1724769161.427923) can0 388#2A0228
(1724769161.428136) can0 050#0009D8D1
(1724769161.433566) can0 520#1DC40003055E4B03
(1724769161.437791) can0 470#002A00FF02
(1724769161.438029) can0 5E0#00FFFFFF00008000
(1724769161.443122) can0 320#0200000100000000
(1724769161.446307) can0 4A0#0000000000000000
(1724769161.446466) can0 5A0#FA0100E53E04002B
(1724769161.446657) can0 1A0#00010000FEFE0008
(1724769161.447831) can0 38A#B202B000
(1724769161.447924) can0 388#2B0229
(1724769161.447972) can0 050#0009E8E1
(1724769161.457856) can0 5E0#00FFFFFF00008000
(1724769161.463264) can0 320#0200000100000000
(1724769161.466250) can0 4A0#0000000000000000
(1724769161.466371) can0 5A0#FA0100AF4604002B
(1724769161.466660) can0 1A0#00010000FEFE0009
(1724769161.467605) can0 38A#C202C000
(1724769161.467767) can0 388#2C022E
(1724769161.468164) can0 050#0009F8F1
(1724769161.477479) can0 5E0#00FFFFFF00008000
(1724769161.483343) can0 320#0200000100000000
(1724769161.486253) can0 4A0#0000000000000000
(1724769161.486360) can0 5A0#FA0100814E04002B
(1724769161.486680) can0 1A0#00010000FEFE000A
(1724769161.487860) can0 38A#D202D000
(1724769161.487976) can0 388#2D022F
(1724769161.488284) can0 470#002A00FF02
(1724769161.488344) can0 050#00090801
(1724769161.488597) can0 570#8720FF00
(1724769161.488815) can0 5D0#800240A03041
(1724769161.489090) can0 5D8#550C000310000000
(1724769161.497733) can0 5E0#00FFFFFF00008000
(1724769161.503476) can0 320#0200000100000000
(1724769161.506367) can0 4A0#0000000000000000
(1724769161.506412) can0 5A0#FA0100565604002B
(1724769161.506814) can0 1A0#00010000FEFE000B
(1724769161.508320) can0 050#00091811
(1724769161.508377) can0 38A#E202E000
(1724769161.508517) can0 388#2E022C
(1724769161.518004) can0 5E0#00FFFFFF00008000
(1724769161.523445) can0 320#0200000100000000
(1724769161.526207) can0 4A0#0000000000000000
(1724769161.526336) can0 5A0#FA01001B5E04002B
(1724769161.526574) can0 1A0#00010000FEFE000C
(1724769161.528214) can0 050#00092821
(1724769161.528362) can0 38A#F202F000
(1724769161.528436) can0 388#2F022D
(1724769161.537716) can0 470#002A00FF02
(1724769161.537866) can0 5E0#00FFFFFF00008000
(1724769161.543189) can0 320#0200000100000000
(1724769161.543281) can0 420#829594FF00008000
(1724769161.546242) can0 4A0#0000000000000000
(1724769161.546412) can0 5A0#FA0100EE6504002B
(1724769161.546576) can0 1A0#00010000FEFE000D
(1724769161.547889) can0 38A#02020000
(1724769161.547987) can0 388#300232
(1724769161.548087) can0 050#00093831
(1724769161.557717) can0 5E0#00FFFFFF00008000
(1724769161.563318) can0 320#0200000100000000
(1724769161.566222) can0 4A0#0000000000000000
(1724769161.566341) can0 5A0#FA0100BC6D04002B
(1724769161.566594) can0 1A0#00010000FEFE000E
(1724769161.567958) can0 38A#12021000
(1724769161.568050) can0 388#310233
(1724769161.568126) can0 050#00094841
(1724769161.577859) can0 5E0#00FFFFFF00008000
(1724769161.583503) can0 320#0200000100000000
(1724769161.586506) can0 4A0#0000000000000000
(1724769161.586605) can0 5A0#FA01009E7504002B
(1724769161.586789) can0 1A0#00010000FEFE000F
(1724769161.588011) can0 38A#22022000
(1724769161.588059) can0 388#320230
(1724769161.588264) can0 050#00095851
(1724769161.588468) can0 470#002A00FF02
(1724769161.588651) can0 570#8720FF00
(1724769161.589005) can0 5D0#800240A03041
(1724769161.589247) can0 5D8#550C000310000000
(1724769161.598044) can0 5E0#00FFFFFF00008000
(1724769161.603136) can0 320#0200000100000000
(1724769161.606259) can0 4A0#0000000000000000
(1724769161.606370) can0 5A0#FA0100607D04002B
(1724769161.606630) can0 1A0#00010000FEFE0000
(1724769161.608022) can0 38A#32023000
(1724769161.608137) can0 388#330231
(1724769161.608217) can0 050#00096861
(1724769161.617965) can0 5E0#00FFFFFF00008000
(1724769161.623136) can0 320#0200000100000000
(1724769161.626275) can0 4A0#0000000000000000
(1724769161.626430) can0 5A0#FA01002E8504002B
(1724769161.626576) can0 1A0#00010000FEFE0001
(1724769161.627919) can0 38A#42024000
(1724769161.628037) can0 388#340236
(1724769161.628234) can0 050#00097871
(1724769161.633747) can0 520#01010003055E4B03
(1724769161.638089) can0 470#002A00FF02
(1724769161.638280) can0 5E0#00FFFFFF00008000
(1724769161.643380) can0 320#0200000100000000
(1724769161.646421) can0 4A0#0000000000000000
(1724769161.646477) can0 5A0#FA0100098D04002B
(1724769161.646784) can0 1A0#00010000FEFE0002
(1724769161.648324) can0 38A#52025000
(1724769161.648458) can0 050#00098881
(1724769161.648490) can0 388#350237
(1724769161.658016) can0 5E0#00FFFFFF00008000
(1724769161.663143) can0 320#0200000100000000
(1724769161.666220) can0 4A0#0000000000000000
(1724769161.666324) can0 5A0#FA0100C99404002B
(1724769161.666559) can0 1A0#00010000FEFE0003
(1724769161.668261) can0 38A#62026000
(1724769161.668361) can0 388#360234
(1724769161.668491) can0 050#00099891
(1724769161.677840) can0 5E0#00FFFFFF00008000
(1724769161.683440) can0 320#0200000100000000
(1724769161.686224) can0 4A0#0000000000000000
(1724769161.686326) can0 5A0#FA01009B9C04002B
(1724769161.686715) can0 1A0#00010000FEFE0004
(1724769161.688059) can0 38A#72027000
(1724769161.688184) can0 388#370235
(1724769161.688402) can0 050#0009A8A1
(1724769161.688577) can0 470#002A00FF02
(1724769161.688791) can0 570#8720FF00
(1724769161.689104) can0 5D0#800240A03041
(1724769161.689368) can0 5D8#550C000310000000
(1724769161.698111) can0 5E0#00FFFFFF00008000
(1724769161.703318) can0 320#0200000100000000
(1724769161.706405) can0 4A0#0000000000000000
(1724769161.706501) can0 5A0#FA010077A404002B
(1724769161.706811) can0 1A0#00010000FEFE0005
(1724769161.708181) can0 38A#82028000
(1724769161.708213) can0 388#38023A
(1724769161.708378) can0 050#0009B8B1
(1724769161.718617) can0 5E0#00FFFFFF00008000
(1724769161.723117) can0 320#0200000100000000
(1724769161.726195) can0 4A0#0000000000000000
(1724769161.726341) can0 5A0#FA01003BAC04002B
(1724769161.726638) can0 1A0#00010000FEFE0006
(1724769161.728254) can0 38A#92029000
(1724769161.728280) can0 050#0009C8C1
(1724769161.728440) can0 388#39023B
(1724769161.738416) can0 470#002A00FF02
(1724769161.738697) can0 5E0#00FFFFFF00008000
(1724769161.743146) can0 320#0200000100000000
(1724769161.743369) can0 420#829594FF00008000
(1724769161.746280) can0 4A0#0000000000000000
(1724769161.746456) can0 5A0#FA010010B404002B
(1724769161.746729) can0 1A0#00010000FEFE0007
(1724769161.748140) can0 38A#A202A000
(1724769161.748213) can0 388#3A0238
(1724769161.748436) can0 050#0009D8D1
(1724769161.758112) can0 5E0#00FFFFFF00008000
(1724769161.763580) can0 320#0200000100000000
(1724769161.766240) can0 4A0#0000000000000000
(1724769161.766309) can0 5A0#FA0100D7BB04002B
(1724769161.766506) can0 1A0#00010000FEFE0008
(1724769161.768165) can0 38A#B202B000
(1724769161.768268) can0 050#0009E8E1
(1724769161.768421) can0 388#3B0239
(1724769161.778157) can0 5E0#00FFFFFF00008000
(1724769161.783583) can0 320#0200000100000000
(1724769161.786334) can0 4A0#0000000000000000
(1724769161.786436) can0 5A0#FA0100B0C304002B
(1724769161.786639) can0 1A0#00010000FEFE0009
(1724769161.788368) can0 38A#C202C000
(1724769161.788439) can0 050#0009F8F1
(1724769161.788533) can0 388#3C023E
(1724769161.788781) can0 470#002A00FF02
(1724769161.789064) can0 570#8720FF00
(1724769161.789390) can0 5D0#800240A03041
(1724769161.789537) can0 5D8#550C000310000000
(1724769161.798187) can0 5E0#00FFFFFF00008000
(1724769161.803125) can0 320#0200000100000000
(1724769161.806311) can0 4A0#0000000000000000
(1724769161.806426) can0 5A0#FA010082CB04002B
(1724769161.806611) can0 1A0#00010000FEFE000A
(1724769161.808498) can0 38A#D202D000
(1724769161.808531) can0 050#00090801
(1724769161.808608) can0 388#3D023F
(1724769161.818162) can0 5E0#00FFFFFF00008000
(1724769161.823383) can0 320#0200000100000000
(1724769161.826241) can0 4A0#0000000000000000
(1724769161.826311) can0 5A0#FA010047D304002B
(1724769161.826539) can0 1A0#00010000FEFE000B
(1724769161.828259) can0 38A#E202E000
(1724769161.828314) can0 388#3E023C
(1724769161.828382) can0 050#00091811
(1724769161.833446) can0 520#40420003055E4B03
(1724769161.838097) can0 470#002A00FF02
(1724769161.838324) can0 5E0#00FFFFFF00008000
(1724769161.843158) can0 320#0200000100000000
(1724769161.846312) can0 4A0#0000000000000000
(1724769161.846409) can0 5A0#FA01001DDB04002B
(1724769161.846618) can0 1A0#00010000FEFE000C
(1724769161.848446) can0 38A#F202F000
(1724769161.848474) can0 050#00092821
(1724769161.848567) can0 388#3F023D
(1724769161.858388) can0 5E0#00FFFFFF00008000
(1724769161.863281) can0 320#0200000100000000
(1724769161.866268) can0 4A0#0000000000000000
(1724769161.866410) can0 5A0#FA0100F0E204002B
(1724769161.866647) can0 1A0#00010000FEFE000D
(1724769161.868318) can0 38A#02020000
(1724769161.868385) can0 388#400242
(1724769161.868462) can0 050#00093831
(1724769161.878436) can0 5E0#00FFFFFF00008000
(1724769161.883607) can0 320#0200000100000000
(1724769161.886448) can0 4A0#0000000000000000
(1724769161.886600) can0 5A0#FA0100CCEA04002B
(1724769161.886867) can0 1A0#00010000FEFE000E
(1724769161.888312) can0 38A#12021000
(1724769161.888375) can0 388#410243
(1724769161.888700) can0 050#00094841
(1724769161.888782) can0 470#002A00FF02
(1724769161.889141) can0 570#8720FF00
(1724769161.889449) can0 5D0#800240A03041
(1724769161.889706) can0 5D8#550C000310000000
(1724769161.898180) can0 5E0#00FFFFFF00008000
(1724769161.903278) can0 320#0200000100000000
(1724769161.906273) can0 4A0#0000000000000000
(1724769161.906408) can0 5A0#FA01008DF204002B
(1724769161.906669) can0 1A0#00010000FEFE000F
(1724769161.908502) can0 38A#22022000
(1724769161.908566) can0 050#00095851
(1724769161.908645) can0 388#420240
(1724769161.918390) can0 5E0#00FFFFFF00008000
(1724769161.923143) can0 320#0200000100000000
(1724769161.926268) can0 4A0#0000000000000000
(1724769161.926361) can0 5A0#FA01005CFA04002B
(1724769161.926637) can0 1A0#00010000FEFE0000
(1724769161.928579) can0 050#00096861
(1724769161.928921) can0 38A#32023000
(1724769161.929035) can0 388#430241
(1724769161.938389) can0 470#002A00FF02
(1724769161.938703) can0 5E0#00FFFFFF00008000
(1724769161.943405) can0 320#0200000100000000
(1724769161.943545) can0 420#829594FF00008000
(1724769161.946381) can0 4A0#0000000000000000
(1724769161.946465) can0 5A0#FA0100350204002B
(1724769161.946784) can0 1A0#00010000FEFE0001
(1724769161.948602) can0 050#00097871
(1724769161.948710) can0 38A#42024000
(1724769161.949014) can0 388#440246
(1724769161.958211) can0 5E0#00FFFFFF00008000
(1724769161.963113) can0 320#0200000100000000
(1724769161.966288) can0 4A0#0000000000000000
(1724769161.966360) can0 5A0#FA0100000A04002B
(1724769161.966724) can0 1A0#00010000FEFE0002
(1724769161.968427) can0 38A#52025000
(1724769161.968498) can0 388#450247
(1724769161.968693) can0 050#00098881
(1724769161.978236) can0 5E0#00FFFFFF00008000
(1724769161.983351) can0 320#0200000100000000
(1724769161.986361) can0 4A0#0000000000000000
(1724769161.986405) can0 5A0#FA0100D51104002B
(1724769161.986762) can0 1A0#00010000FEFE0003
(1724769161.988466) can0 38A#62026000
(1724769161.988625) can0 388#460244
(1724769161.988789) can0 050#00099891
(1724769161.988932) can0 470#002A00FF02
(1724769161.989202) can0 570#8720FF00
(1724769161.989492) can0 5D0#800240A03041
(1724769161.989813) can0 5D8#550C000310000000
(1724769161.998385) can0 5E0#00FFFFFF00008000
(1724769162.003310) can0 320#0200000100000000
(1724769162.006584) can0 4A0#0000000000000000
(1724769162.006610) can0 5A0#FA0100AD1904002B
(1724769162.006783) can0 1A0#00010000FEFE0004
(1724769162.008567) can0 38A#72027000
(1724769162.008587) can0 050#0009A8A1
(1724769162.008701) can0 388#470245
(1724769162.018583) can0 5E0#00FFFFFF00008000
(1724769162.023422) can0 320#0200000100000000
(1724769162.026277) can0 4A0#0000000000000000
(1724769162.026351) can0 5A0#FA01006C2104002B
(1724769162.026698) can0 1A0#00010000FEFE0005
(1724769162.028451) can0 38A#82028000
(1724769162.028500) can0 388#48024A
(1724769162.028726) can0 050#0009B8B1
(1724769162.033659) can0 520#FB860003055E4B03
(1724769162.038324) can0 470#002A00FF02
(1724769162.038596) can0 5E0#00FFFFFF00008000
(1724769162.043365) can0 320#0200000100000000
(1724769162.046388) can0 4A0#0000000000000000
(1724769162.046468) can0 5A0#FA0100422904002B
(1724769162.046730) can0 1A0#00010000FEFE0006
(1724769162.048557) can0 38A#92029000
(1724769162.048612) can0 050#0009C8C1
(1724769162.048707) can0 388#49024B
(1724769162.058592) can0 5E0#00FFFFFF00008000
(1724769162.063386) can0 320#0200000100000000
(1724769162.066421) can0 4A0#0000000000000000
(1724769162.066478) can0 5A0#FA0100163104002B
(1724769162.066782) can0 1A0#00010000FEFE0007
(1724769162.068691) can0 050#0009D8D1
(1724769162.068813) can0 38A#A202A000
(1724769162.068910) can0 388#4A0248
(1724769162.078462) can0 5E0#00FFFFFF00008000
(1724769162.083462) can0 320#0200000100000000
(1724769162.086252) can0 4A0#0000000000000000
(1724769162.086296) can0 5A0#FA0100D53804002B
(1724769162.086542) can0 1A0#00010000FEFE0008
(1724769162.088905) can0 050#0009E8E1
(1724769162.088987) can0 38A#B202B000
(1724769162.089164) can0 388#4B0249
(1724769162.089411) can0 470#002A00FF02
(1724769162.089512) can0 570#8720FF00
(1724769162.089956) can0 5D0#800240A03041
(1724769162.090135) can0 5D8#550C000310000000
(1724769162.098372) can0 5E0#00FFFFFF00008000
(1724769162.103208) can0 320#0200000100000000
(1724769162.106471) can0 4A0#0000000000000000
(1724769162.106599) can0 5A0#FA0100B94004002B
(1724769162.106800) can0 1A0#00010000FEFE0009
(1724769162.108557) can0 38A#C202C000
(1724769162.108640) can0 388#4C024E
(1724769162.108751) can0 050#0009F8F1
(1724769162.118670) can0 5E0#00FFFFFF00008000
(1724769162.123390) can0 320#0200000100000000
(1724769162.126592) can0 4A0#0000000000000000
(1724769162.126628) can0 5A0#FA01008F4804102B
(1724769162.126972) can0 1A0#00010000FEFE000A
(1724769162.128771) can0 38A#D202D000
(1724769162.128828) can0 388#4D024F
(1724769162.128938) can0 050#00090801
(1724769162.139012) can0 470#002A00FF02
(1724769162.139255) can0 5E0#00FFFFFF00008000
(1724769162.143171) can0 320#0200000100000000
(1724769162.143306) can0 420#829594FF00008000
(1724769162.146466) can0 4A0#0000000000000000
(1724769162.146582) can0 5A0#FA01005A5004102B
(1724769162.146852) can0 1A0#00010000FEFE000B
(1724769162.148829) can0 38A#E202E000
(1724769162.148910) can0 050#00091811
(1724769162.148965) can0 388#4E024C
(1724769162.159012) can0 5E0#00FFFFFF00008000
(1724769162.163276) can0 320#0200000100000000
(1724769162.166393) can0 4A0#0000000000000000
(1724769162.166548) can0 5A0#FA0100285804102B
(1724769162.166823) can0 1A0#00010000FEFE000C
(1724769162.168754) can0 38A#F202F000
(1724769162.168809) can0 050#00092821
(1724769162.168875) can0 388#4F024D
(1724769162.178611) can0 5E0#00FFFFFF00008000
(1724769162.183664) can0 320#0200000100000000
(1724769162.186329) can0 4A0#0000000000000000
(1724769162.186433) can0 5A0#FA0100F05F04102B
(1724769162.186741) can0 1A0#00010000FEFE000D
(1724769162.188747) can0 38A#02020000
(1724769162.188840) can0 050#00093831
(1724769162.188893) can0 388#500252
(1724769162.189287) can0 470#002A00FF02
(1724769162.189386) can0 570#8720FF00
(1724769162.189820) can0 5D0#800240A03041
(1724769162.190076) can0 5D8#550C000310000000
(1724769162.198564) can0 5E0#00FFFFFF00008000
(1724769162.203238) can0 320#0200000100000000
(1724769162.206193) can0 4A0#0000000000000000
(1724769162.206303) can0 5A0#FA0100B56704102B
(1724769162.206632) can0 1A0#00010000FEFE000E
(1724769162.208713) can0 38A#12021000
(1724769162.208742) can0 050#00094841
(1724769162.208950) can0 388#510253
(1724769162.218606) can0 5E0#00FFFFFF00008000
(1724769162.223158) can0 320#0200000100000000
(1724769162.226290) can0 4A0#0000000000000000
(1724769162.226467) can0 5A0#FA01008F6F04102B
(1724769162.226726) can0 1A0#00010000FEFE000F
(1724769162.228843) can0 050#00095851
(1724769162.228886) can0 38A#22022000
(1724769162.229143) can0 388#520250
(1724769162.233432) can0 520#1DC40003055E4B03
(1724769162.238577) can0 470#002A00FF02
(1724769162.238776) can0 5E0#00FFFFFF00008000
(1724769162.243384) can0 320#0200000100000000
(1724769162.246479) can0 4A0#0000000000000000
(1724769162.246525) can0 5A0#FA0100687704102B
(1724769162.246836) can0 1A0#00010000FEFE0000
(1724769162.248891) can0 38A#32023000
(1724769162.248901) can0 050#00096861
(1724769162.248925) can0 388#530251
(1724769162.258704) can0 5E0#00FFFFFF00008000
(1724769162.263188) can0 320#0200000100000000
(1724769162.266279) can0 4A0#0000000000000000
(1724769162.266324) can0 5A0#FA0100287F04102B
(1724769162.266619) can0 1A0#00010000FEFE0001
(1724769162.268890) can0 38A#42024000
(1724769162.268959) can0 050#00097871
(1724769162.268981) can0 388#540256
(1724769162.278970) can0 5E0#00FFFFFF00008000
(1724769162.283745) can0 320#0200000100000000
(1724769162.286392) can0 4A0#0000000000000000
(1724769162.286473) can0 5A0#FA0100028704102B
(1724769162.286786) can0 1A0#00010000FEFE0002
(1724769162.288890) can0 38A#52025000
(1724769162.288972) can0 388#550257
(1724769162.289158) can0 050#00098881
(1724769162.289235) can0 470#002A00FF02
(1724769162.289646) can0 570#8720FF00
(1724769162.289759) can0 5D0#800240A03041
(1724769162.290194) can0 5D8#550C000310000000
(1724769162.298887) can0 5E0#00FFFFFF00008000
(1724769162.303505) can0 320#0200000100000000
(1724769162.306461) can0 4A0#0000000000000000
(1724769162.306607) can0 5A0#FA0100D98E04102B
(1724769162.306872) can0 1A0#00010000FEFE0003
(1724769162.308728) can0 38A#62026000
(1724769162.308809) can0 388#560254
(1724769162.308892) can0 050#00099891
(1724769162.318669) can0 5E0#00FFFFFF00008000
(1724769162.323204) can0 320#0200000100000000
(1724769162.323314) can0 4A0#000000000000CCFF
(1724769162.323563) can0 5A0#FA0100749504102B
(1724769162.323848) can0 1A0#00010000FEFE0004
(1724769162.328726) can0 38A#72027000
(1724769162.328845) can0 388#570255
(1724769162.328931) can0 050#0009A8A1
(1724769162.338877) can0 470#002A00FF02
(1724769162.339063) can0 5E0#00FFFFFF00008000
(1724769162.343266) can0 320#0200000100000000
(1724769162.343357) can0 4A0#000000000000CCFF
(1724769162.343690) can0 420#829594FF00008000
(1724769162.343920) can0 5A0#FA0100569D04102B
(1724769162.344147) can0 1A0#00010000FEFE0005
(1724769162.348961) can0 050#0009B8B1
(1724769162.349068) can0 38A#82028000
(1724769162.349420) can0 388#58025A
(1724769162.359016) can0 5E0#00FFFFFF00008000
(1724769162.363358) can0 4A0#000000000000CCFF
(1724769162.363460) can0 320#0200000100000000
(1724769162.363762) can0 5A0#FA01000EA504102B
(1724769162.364028) can0 1A0#00010000FEFE0006
(1724769162.369013) can0 050#0009C8C1
(1724769162.369195) can0 38A#92029000
(1724769162.369424) can0 388#59025B
(1724769162.378881) can0 5E0#00FFFFFF00008000
(1724769162.383225) can0 4A0#000000000000CCFF
(1724769162.383293) can0 5A0#FA0100D4AC04102B
(1724769162.383567) can0 1A0#00010000FEFE0007
(1724769162.383853) can0 320#0200000100000000
(1724769162.388836) can0 38A#A202A000
(1724769162.388942) can0 050#0009D8D1
(1724769162.389034) can0 388#5A0258
(1724769162.389454) can0 470#002A00FF02
(1724769162.389566) can0 570#8720FF00
(1724769162.389854) can0 5D0#800240A03041
(1724769162.390134) can0 5D8#550C000310000000
(1724769162.398774) can0 5E0#00FFFFFF00008000
(1724769162.403235) can0 320#0200000100000000
(1724769162.403327) can0 4A0#000000000000CCFF
(1724769162.403586) can0 5A0#FA0100ACB404102B
(1724769162.403842) can0 1A0#00010000FEFE0008
(1724769162.408797) can0 38A#B202B000
(1724769162.408851) can0 388#5B0259
(1724769162.409097) can0 050#0009E8E1
(1724769162.418969) can0 5E0#00FFFFFF00008000
(1724769162.423375) can0 320#0200000100000000
(1724769162.423488) can0 4A0#000000000000CCFF
(1724769162.423774) can0 5A0#FA01008FBC04102B
(1724769162.424060) can0 1A0#00010000FEFE0009
(1724769162.428785) can0 38A#C202C000
(1724769162.428913) can0 388#5C025E
(1724769162.428982) can0 050#0009F8F1
(1724769162.433667) can0 520#01010003055E4B03
(1724769162.439154) can0 470#002A00FF02
(1724769162.439429) can0 5E0#00FFFFFF00008000
(1724769162.443260) can0 320#0200000100000000
(1724769162.443306) can0 4A0#000000000000CCFF
(1724769162.443607) can0 5A0#FA010060C404102B
(1724769162.443888) can0 1A0#00010000FEFE000A
(1724769162.448853) can0 38A#D202D000
(1724769162.448904) can0 388#5D025F
(1724769162.449077) can0 050#00090801
(1724769162.458959) can0 5E0#00FFFFFF00008000
(1724769162.463309) can0 320#0200000100000000
(1724769162.463381) can0 4A0#000000000000CCFF
(1724769162.463733) can0 5A0#FA010036CC04102B
(1724769162.463936) can0 1A0#00010000FEFE000B
(1724769162.468752) can0 38A#E202E000
(1724769162.468927) can0 388#5E025C
(1724769162.469075) can0 050#00091811
(1724769162.479174) can0 5E0#00FFFFFF00008000
(1724769162.483438) can0 4A0#000000000000CCFF
(1724769162.483626) can0 320#0200000100000000
(1724769162.483889) can0 5A0#FA010003D404102B
(1724769162.484120) can0 1A0#00010000FEFE000C
(1724769162.489070) can0 38A#F202F000
(1724769162.489298) can0 050#00092821
(1724769162.489370) can0 388#5F025D
(1724769162.489726) can0 470#002A00FF02
(1724769162.489887) can0 570#8720FF00
(1724769162.490173) can0 5D0#800240A03041
(1724769162.490400) can0 5D8#550C000310000000
(1724769162.499020) can0 5E0#00FFFFFF00008000
(1724769162.503178) can0 4A0#000000000000CCFF
(1724769162.503362) can0 320#0200000100000000
(1724769162.503627) can0 5A0#FA0100B8DB04102B
(1724769162.503853) can0 1A0#00010000FEFE000D
(1724769162.509132) can0 38A#02020000
(1724769162.509166) can0 050#00093831
(1724769162.509188) can0 388#600262
(1724769162.518782) can0 5E0#00FFFFFF00008000
(1724769162.523300) can0 320#0200000100000000
(1724769162.523373) can0 4A0#000000000000CCFF
(1724769162.523695) can0 5A0#FA0100A4E304102B
(1724769162.523915) can0 1A0#00010000FEFE000E
(1724769162.528884) can0 38A#12021000
(1724769162.528959) can0 388#610263
(1724769162.529070) can0 050#00094841
(1724769162.539182) can0 470#002A00FF02
(1724769162.539390) can0 5E0#00FFFFFF00008000
(1724769162.543490) can0 4A0#000000000000CCFF
(1724769162.543612) can0 5A0#FA010065EB04102B
(1724769162.543883) can0 1A0#00010000FEFE000F
(1724769162.544114) can0 320#0200000100000000
(1724769162.544382) can0 420#829594FF00008000
(1724769162.549026) can0 38A#22022000
(1724769162.549116) can0 050#00095851
(1724769162.549163) can0 388#620260
(1724769162.559634) can0 5E0#00FFFFFF00008000
(1724769162.563341) can0 320#0200000100000000
(1724769162.563434) can0 4A0#000000000000CCFF
(1724769162.563753) can0 5A0#FA01004CF304102B
(1724769162.563981) can0 1A0#00010000FEFE0000
(1724769162.569079) can0 38A#32023000
(1724769162.569154) can0 050#00096861
(1724769162.569362) can0 388#630261
(1724769162.579634) can0 5E0#00FFFFFF00008000
(1724769162.583478) can0 320#0200000100000000
(1724769162.583590) can0 4A0#000000000000CCFF
(1724769162.583914) can0 5A0#00000019FB04102B
(1724769162.584162) can0 1A0#00010000FEFE0001
(1724769162.589107) can0 38A#42024000
(1724769162.589163) can0 050#00097871
(1724769162.589212) can0 388#640266
(1724769162.589583) can0 470#002A00FF02
(1724769162.589833) can0 570#8720FF00
(1724769162.590033) can0 5D0#800240A03041
(1724769162.590337) can0 5D8#550C000310000000
(1724769162.599089) can0 5E0#00FFFFFF00008000
(1724769162.603242) can0 4A0#000000000000CCFF
(1724769162.603349) can0 320#0200000100000000
(1724769162.603672) can0 5A0#000000CA0204102B
(1724769162.603887) can0 1A0#00010000FEFE0002
(1724769162.608970) can0 38A#52025000
(1724769162.609086) can0 388#650267
(1724769162.609511) can0 050#00098881
(1724769162.619163) can0 5E0#00FFFFFF00008000
(1724769162.623199) can0 320#0200000100000000
(1724769162.623309) can0 4A0#000000000000CCFF
(1724769162.623617) can0 5A0#000000A40A04102B
(1724769162.623894) can0 1A0#00010000FEFE0003
(1724769162.629120) can0 38A#62026000
(1724769162.629214) can0 050#00099891
(1724769162.629285) can0 388#660264
(1724769162.633661) can0 520#40420003055E4B03
(1724769162.639219) can0 470#002A00FF02
(1724769162.639358) can0 5E0#00FFFFFF00008000
(1724769162.643243) can0 320#0200000100000000
(1724769162.643348) can0 4A0#000000000000CCFF
(1724769162.643623) can0 5A0#000000691204102B
(1724769162.643887) can0 1A0#00010000FEFE0004
(1724769162.649297) can0 38A#72027000
(1724769162.649328) can0 050#0009A8A1
(1724769162.649452) can0 388#670265
(1724769162.659160) can0 5E0#00FFFFFF00008000
(1724769162.663448) can0 320#0200000100000000
(1724769162.663494) can0 4A0#000000000000CCFF
(1724769162.663802) can0 5A0#000000501A04102B
(1724769162.664087) can0 1A0#00010000FEFE0005
(1724769162.669108) can0 38A#82028000
(1724769162.669189) can0 388#68026A
(1724769162.669406) can0 050#0009B8B1
(1724769162.679154) can0 5E0#00FFFFFF00008000
(1724769162.683475) can0 320#0200000100000000
(1724769162.683541) can0 4A0#000000000000CCFF
(1724769162.683812) can0 5A0#000000252204102B
(1724769162.684076) can0 1A0#00010000FEFE0006
(1724769162.689298) can0 38A#92029000
(1724769162.689379) can0 050#0009C8C1
(1724769162.689588) can0 388#69026B
(1724769162.689814) can0 470#002A00FF02
(1724769162.690034) can0 570#8720FF00
(1724769162.690308) can0 5D0#800240A03041
(1724769162.690574) can0 5D8#550C000310000000
(1724769162.699451) can0 5E0#00FFFFFF00008000
(1724769162.703221) can0 320#0200000100000000
(1724769162.703354) can0 4A0#000000000000CCFF
(1724769162.703652) can0 5A0#000000E22904102B
(1724769162.703884) can0 1A0#00010000FEFE0007
(1724769162.709131) can0 38A#A202A000
(1724769162.709178) can0 050#0009D8D1
(1724769162.709378) can0 388#6A0268
(1724769162.719435) can0 5E0#00FFFFFF00008000
(1724769162.723440) can0 320#0200000100000000
(1724769162.723477) can0 4A0#000000000000CCFF
(1724769162.723799) can0 5A0#000000C33104102B
(1724769162.724079) can0 1A0#00010000FEFE0008
(1724769162.728986) can0 38A#B202B000
(1724769162.729022) can0 388#6B0269
(1724769162.729313) can0 050#0009E8E1
(1724769162.739157) can0 470#002A00FF02
(1724769162.739385) can0 5E0#00FFFFFF00008000
(1724769162.743250) can0 320#0200000100000000
(1724769162.743416) can0 4A0#000000000000CCFF
(1724769162.743602) can0 420#829594FF00008000
(1724769162.743834) can0 5A0#0000007A3904102B
(1724769162.744165) can0 1A0#00010000FEFE0009
(1724769162.749317) can0 38A#C202C000
(1724769162.749322) can0 050#0009F8F1
(1724769162.749374) can0 388#6C026E
(1724769162.759399) can0 5E0#00FFFFFF00008000
(1724769162.763492) can0 320#0200000100000000
(1724769162.763532) can0 4A0#000000000000CCFF
(1724769162.763735) can0 5A0#0000004B4104102B
(1724769162.763996) can0 1A0#00010000FEFE000A
(1724769162.769840) can0 38A#D202D000
(1724769162.769928) can0 050#00090801
(1724769162.769993) can0 388#6D026F
(1724769162.779458) can0 5E0#00FFFFFF00008000
(1724769162.783225) can0 4A0#000000000000CCFF
(1724769162.783339) can0 5A0#000000134904102B
(1724769162.783622) can0 1A0#00010000FEFE000B
(1724769162.783872) can0 320#0200000100000000
(1724769162.789411) can0 050#00091811
(1724769162.789706) can0 38A#E202E000
(1724769162.789935) can0 388#6E026C
(1724769162.790125) can0 470#002A00FF02
(1724769162.790396) can0 570#8720FF00
(1724769162.790632) can0 5D0#800240A03041
(1724769162.790941) can0 5D8#550C000310000000
(1724769162.799322) can0 5E0#00FFFFFF00008000
(1724769162.803402) can0 4A0#000000000000CCFF
(1724769162.803469) can0 320#0200000100000000
(1724769162.803843) can0 5A0#000000EC5004102B
(1724769162.803995) can0 1A0#00010000FEFE000C
(1724769162.809290) can0 38A#F202F000
(1724769162.809369) can0 388#6F026D
(1724769162.809534) can0 050#00092821
(1724769162.819364) can0 5E0#00FFFFFF00008000
(1724769162.823386) can0 320#0200000100000000
(1724769162.823492) can0 4A0#000000000000CCFF
(1724769162.823811) can0 5A0#000000D55804102B
(1724769162.824080) can0 1A0#00010000FEFE000D
(1724769162.829304) can0 38A#02020000
(1724769162.829397) can0 388#700272
(1724769162.829470) can0 050#00093831
(1724769162.833596) can0 520#FB860003055E4B03
(1724769162.839521) can0 470#002A00FF02
(1724769162.839787) can0 5E0#00FFFFFF00008000
(1724769162.843480) can0 320#0200000100000000
(1724769162.843592) can0 4A0#000000000000CCFF
(1724769162.843880) can0 5A0#000000A16004102B
(1724769162.844136) can0 1A0#00010000FEFE000E
(1724769162.849409) can0 38A#12021000
(1724769162.849417) can0 050#00094841
(1724769162.849490) can0 388#710273
(1724769162.859619) can0 5E0#00FFFFFF00008000
(1724769162.863246) can0 320#0200000100000000
(1724769162.863406) can0 4A0#000000000000CCFF
(1724769162.863706) can0 5A0#000000766804102B
(1724769162.863990) can0 1A0#00010000FEFE000F
(1724769162.869250) can0 38A#22022000
(1724769162.869356) can0 050#00095851
(1724769162.869476) can0 388#720270
(1724769162.879302) can0 5E0#00FFFFFF00008000
(1724769162.883427) can0 4A0#000000000000CCFF
(1724769162.883569) can0 320#0200000100000000
(1724769162.883824) can0 5A0#0000002F7004102B
(1724769162.884092) can0 1A0#00010000FEFE0000
(1724769162.889339) can0 38A#32023000
(1724769162.889374) can0 388#730271
(1724769162.889593) can0 050#00096861
(1724769162.889806) can0 470#002A00FF02
(1724769162.890029) can0 570#8720FF00
(1724769162.890254) can0 5D0#800240A03041
(1724769162.890591) can0 5D8#550C000310000000
(1724769162.899582) can0 5E0#00FFFFFF00008000
(1724769162.903217) can0 4A0#000000000000CCFF
(1724769162.903316) can0 320#0200000100000000
(1724769162.903612) can0 5A0#000000F57704102B
(1724769162.903911) can0 1A0#00010000FEFE0001
(1724769162.909487) can0 38A#42024000
(1724769162.909586) can0 050#00097871
(1724769162.909651) can0 388#740276
(1724769162.919413) can0 5E0#00FFFFFF00008000
(1724769162.923271) can0 320#0200000100000000
(1724769162.923319) can0 4A0#000000000000CCFF
(1724769162.923677) can0 5A0#000000CB7F04102B
(1724769162.923910) can0 1A0#00010000FEFE0002
(1724769162.929519) can0 38A#52025000
(1724769162.929600) can0 050#00098881
(1724769162.929658) can0 388#750277
(1724769162.939371) can0 470#002A00FF02
(1724769162.939508) can0 5E0#00FFFFFF00008000
(1724769162.943257) can0 320#0200000100000000
(1724769162.943361) can0 4A0#000000000000CCFF
(1724769162.943692) can0 420#829594FF00008000
(1724769162.943910) can0 5A0#0000009E8704102B
(1724769162.944174) can0 1A0#00010000FEFE0003
(1724769162.949253) can0 38A#62026000
(1724769162.949358) can0 388#760274
(1724769162.949633) can0 050#00099891
(1724769162.959461) can0 5E0#00FFFFFF00008000
(1724769162.963453) can0 320#0200000100000000
(1724769162.963616) can0 4A0#000000000000CCFF
(1724769162.963875) can0 5A0#000000858F04102B
(1724769162.964006) can0 1A0#00010000FEFE0004
(1724769162.969415) can0 38A#72027000
(1724769162.969562) can0 388#770275
(1724769162.969595) can0 050#0009A8A1
(1724769162.979972) can0 5E0#00FFFFFF00008000
(1724769162.983521) can0 320#0200000100000000
(1724769162.983649) can0 4A0#000000000000CCFF
(1724769162.983925) can0 5A0#000000579704102B
(1724769162.984154) can0 1A0#00010000FEFE0005
(1724769162.989580) can0 38A#82028000
(1724769162.989598) can0 050#0009B8B1
(1724769162.989763) can0 388#78027A
(1724769162.990090) can0 470#002A00FF02
(1724769162.990233) can0 570#8720FF00
(1724769162.990511) can0 5D0#800240A03041
(1724769162.990836) can0 5D8#550C000310000000
(1724769162.999981) can0 5E0#00FFFFFF00008000
(1724769163.003225) can0 320#0200000100000000
(1724769163.003535) can0 4A0#000000000000CCFF
(1724769163.003777) can0 5A0#0000002A9F04102B
(1724769163.003967) can0 1A0#00010000FEFE0006
(1724769163.009432) can0 38A#92029000
(1724769163.009475) can0 388#79027B
(1724769163.009845) can0 050#0009C8C1
(1724769163.019595) can0 5E0#00FFFFFF00008000
(1724769163.023492) can0 320#0200000100000000
(1724769163.023614) can0 4A0#000000000000CCFF
(1724769163.023852) can0 5A0#000000E2A604102B
(1724769163.024107) can0 1A0#00010000FEFE0007
(1724769163.029411) can0 38A#A202A000
(1724769163.029466) can0 388#7A0278
(1724769163.029704) can0 050#0009D8D1
(1724769163.033549) can0 520#1DC40003055E4B03
(1724769163.039555) can0 470#002A00FF02
(1724769163.039808) can0 5E0#00FFFFFF00008000
(1724769163.043275) can0 320#0200000100000000
(1724769163.043409) can0 4A0#000000000000CCFF
(1724769163.043722) can0 5A0#000000B3AE04102B
(1724769163.043917) can0 1A0#00010000FEFE0008
(1724769163.049492) can0 38A#B202B000
(1724769163.049596) can0 050#0009E8E1
(1724769163.049662) can0 388#7B0279
(1724769163.059586) can0 5E0#00FFFFFF00008000
(1724769163.063217) can0 4A0#000000000000CCFF
(1724769163.063319) can0 5A0#00000072B604102B
(1724769163.063637) can0 1A0#00010000FEFE0009
(1724769163.063902) can0 320#0200000100000000
(1724769163.069605) can0 38A#C202C000
(1724769163.069710) can0 050#0009F8F1
(1724769163.069761) can0 388#7C027E
(1724769163.079487) can0 5E0#00FFFFFF00008000
(1724769163.083525) can0 4A0#000000000000CCFF
(1724769163.083658) can0 5A0#00000063BE04102B
(1724769163.083959) can0 1A0#00010000FEFE000A
(1724769163.084186) can0 320#0200000100000000
(1724769163.089488) can0 38A#D202D000
(1724769163.089627) can0 388#7D027F
(1724769163.089813) can0 050#00090801
(1724769163.089897) can0 470#002A00FF02
(1724769163.090160) can0 570#8720FF00
(1724769163.090571) can0 5D0#800240A03041
(1724769163.090821) can0 5D8#550C000310000000
(1724769163.099541) can0 5E0#00FFFFFF00008000
(1724769163.103369) can0 320#0200000100000000
(1724769163.103450) can0 4A0#000000000000CCFF
(1724769163.103815) can0 5A0#00000039C604102B
(1724769163.104054) can0 1A0#00010000FEFE000B
(1724769163.109657) can0 38A#E202E000
(1724769163.109709) can0 050#00091811
(1724769163.109751) can0 388#7E027C
(1724769163.119853) can0 5E0#00FFFFFF00008000
(1724769163.123321) can0 320#0200000100000000
(1724769163.123370) can0 4A0#000000000000CCFF
(1724769163.123742) can0 5A0#000000F2CD04102B
(1724769163.123832) can0 1A0#00010000FEFE000C
(1724769163.129520) can0 38A#F202F000
(1724769163.129575) can0 388#7F027D
(1724769163.129842) can0 050#00092821
(1724769163.139831) can0 470#002A00FF02
(1724769163.139962) can0 5E0#00FFFFFF00008000
(1724769163.143489) can0 320#0200000100000000
(1724769163.143593) can0 4A0#000000000000CCFF
(1724769163.143918) can0 420#829594FF00008000
(1724769163.144158) can0 5A0#000000DCD504102B
(1724769163.144526) can0 1A0#00010000FEFE000D
(1724769163.149410) can0 38A#02020000
(1724769163.149464) can0 388#800282
(1724769163.149762) can0 050#00093831
(1724769163.159489) can0 5E0#00FFFFFF00008000
(1724769163.163258) can0 320#0200000100000000
(1724769163.163364) can0 4A0#000000000000CCFF
(1724769163.163753) can0 5A0#00000092DD04102B
(1724769163.163865) can0 1A0#00010000FEFE000E
(1724769163.169622) can0 38A#12021000
(1724769163.169706) can0 388#810283
(1724769163.170055) can0 050#00094841
(1724769163.179719) can0 5E0#00FFFFFF00008000
(1724769163.183486) can0 4A0#000000000000CCFF
(1724769163.183603) can0 320#0200000100000000
(1724769163.183986) can0 5A0#00000060E504102B
(1724769163.184085) can0 1A0#00010000FEFE000F
(1724769163.189818) can0 050#00095851
(1724769163.190077) can0 38A#22022000
(1724769163.190290) can0 388#820280
(1724769163.190554) can0 470#002A00FF02
(1724769163.190643) can0 570#8720FF00
(1724769163.191136) can0 5D0#800240A03041
(1724769163.191446) can0 5D8#550C000310000000
(1724769163.199824) can0 5E0#00FFFFFF00008000
(1724769163.203344) can0 4A0#000000000000CCFF
(1724769163.203380) can0 320#0200000100000000
(1724769163.203805) can0 5A0#00000029ED04102B
(1724769163.203945) can0 1A0#00010000FEFE0000
(1724769163.209839) can0 050#00096861
(1724769163.210017) can0 38A#32023000
(1724769163.210233) can0 388#830281
(1724769163.219682) can0 5E0#00FFFFFF00008000
(1724769163.223221) can0 320#0200000100000000
(1724769163.223367) can0 4A0#000000000000CCFF
(1724769163.223679) can0 5A0#000000FBF404102B
(1724769163.223920) can0 1A0#00010000FEFE0001
(1724769163.229573) can0 38A#42024000
(1724769163.229755) can0 388#840286
(1724769163.229760) can0 050#00097871
(1724769163.233775) can0 520#01010003055E4B03
(1724769163.239543) can0 470#002A00FF02
(1724769163.239818) can0 5E0#00FFFFFF00008000
(1724769163.243267) can0 320#0200000100000000
(1724769163.243495) can0 4A0#000000000000CCFF
(1724769163.243702) can0 5A0#000000E5FC04102B
(1724769163.243985) can0 1A0#00010000FEFE0002
(1724769163.249629) can0 38A#52025000
(1724769163.249682) can0 388#850287
(1724769163.249842) can0 050#00098881
(1724769163.259873) can0 5E0#00FFFFFF00008000
(1724769163.263561) can0 4A0#000000000000CCFF
(1724769163.263614) can0 320#0200000100000000
(1724769163.263831) can0 5A0#000000A20404102B
(1724769163.264181) can0 1A0#00010000FEFE0003
(1724769163.269618) can0 38A#62026000
(1724769163.269686) can0 388#860284
(1724769163.269830) can0 050#00099891
(1724769163.279971) can0 5E0#00FFFFFF00008000
(1724769163.283605) can0 320#0200000100000000
(1724769163.283688) can0 4A0#000000000000CCFF
(1724769163.284003) can0 5A0#000000840C04102B
(1724769163.284193) can0 1A0#00010000FEFE0004
(1724769163.289693) can0 38A#72027000
(1724769163.289775) can0 388#870285
(1724769163.289965) can0 050#0009A8A1
(1724769163.290193) can0 470#002A00FF02
(1724769163.290433) can0 570#8720FF00
(1724769163.290668) can0 5D0#800240A03041
(1724769163.290971) can0 5D8#550C000310000000
(1724769163.299763) can0 5E0#00FFFFFF00008000
(1724769163.303310) can0 320#0200000100000000
(1724769163.303369) can0 4A0#000000000000CCFF
(1724769163.303708) can0 5A0#000000401404102B
(1724769163.303948) can0 1A0#00010000FEFE0005
(1724769163.309627) can0 38A#82028000
(1724769163.309682) can0 388#88028A
(1724769163.310064) can0 050#0009B8B1
(1724769163.320023) can0 5E0#00FFFFFF00008000
(1724769163.323281) can0 4A0#000000000000CCFF
(1724769163.323327) can0 5A0#000000011C04102B
(1724769163.323650) can0 1A0#00010000FEFE0006
(1724769163.323912) can0 320#0200000100000000
(1724769163.329805) can0 38A#92029000
(1724769163.329939) can0 050#0009C8C1
(1724769163.329983) can0 388#89028B
(1724769163.339764) can0 470#002A00FF02
(1724769163.340007) can0 5E0#00FFFFFF00008000
(1724769163.343420) can0 4A0#000000000000CCFF
(1724769163.343520) can0 320#0200000100000000
(1724769163.343819) can0 5A0#000000DC2304102B
(1724769163.344061) can0 1A0#00010000FEFE0007
(1724769163.344298) can0 420#829594FF00008000
(1724769163.349878) can0 38A#A202A000
(1724769163.349933) can0 050#0009D8D1
(1724769163.349979) can0 388#8A0288
(1724769163.359579) can0 5E0#00FFFFFF00008000
(1724769163.363395) can0 320#0200000100000000
(1724769163.363507) can0 4A0#000000000000CCFF
(1724769163.363798) can0 5A0#000000AD2B04102B
(1724769163.364095) can0 1A0#00010000FEFE0008
(1724769163.369593) can0 38A#B202B000
(1724769163.369678) can0 388#8B0289
(1724769163.369919) can0 050#0009E8E1
(1724769163.379860) can0 5E0#00FFFFFF00008000
(1724769163.383655) can0 4A0#000000000000CCFF
(1724769163.383710) can0 320#0200000100000000
(1724769163.384017) can0 5A0#000000963304102B
(1724769163.384293) can0 1A0#00010000FEFE0009
(1724769163.389857) can0 38A#C202C000
(1724769163.389980) can0 050#0009F8F1
(1724769163.390003) can0 388#8C028E
(1724769163.390364) can0 470#002A00FF02
(1724769163.390598) can0 570#8720FF00
(1724769163.390843) can0 5D0#800240A03041
(1724769163.391153) can0 5D8#550C000310000000
(1724769163.400312) can0 5E0#00FFFFFF00008000
(1724769163.403435) can0 320#0200000100000000
(1724769163.403540) can0 4A0#000000000000CCFF
(1724769163.403836) can0 5A0#0000005E3B04102B
(1724769163.404120) can0 1A0#00010000FEFE000A
(1724769163.409796) can0 38A#D202D000
(1724769163.409899) can0 388#8D028F
(1724769163.410107) can0 050#00090801
(1724769163.420271) can0 5E0#00FFFFFF00008000
(1724769163.423264) can0 320#0200000100000000
(1724769163.423366) can0 4A0#000000000000CCFF
(1724769163.423768) can0 5A0#0000002F4304102B
(1724769163.423881) can0 1A0#00010000FEFE000B
(1724769163.429752) can0 38A#E202E000
(1724769163.429839) can0 388#8E028C
(1724769163.429984) can0 050#00091811
(1724769163.433583) can0 520#40420003055E4B03
(1724769163.439924) can0 470#002A00FF02
(1724769163.440054) can0 5E0#00FFFFFF00008000
(1724769163.443553) can0 320#0200000100000000
(1724769163.443677) can0 4A0#000000000000CCFF
(1724769163.443843) can0 5A0#000000044B04102B
(1724769163.444265) can0 1A0#00010000FEFE000C
(1724769163.449734) can0 38A#F202F000
(1724769163.449798) can0 388#8F028D
(1724769163.449950) can0 050#00092821
(1724769163.459891) can0 5E0#00FFFFFF00008000
(1724769163.463240) can0 4A0#000000000000CCFF
(1724769163.463313) can0 320#0200000100000000
(1724769163.463706) can0 5A0#000000B45204102B
(1724769163.463874) can0 1A0#00010000FEFE000D
(1724769163.469798) can0 38A#02020000
(1724769163.469825) can0 050#00093831
(1724769163.469964) can0 388#900292
(1724769163.479829) can0 5E0#00FFFFFF00008000
(1724769163.483296) can0 4A0#000000000000CCFF
(1724769163.483379) can0 5A0#000000895A04102B
(1724769163.483733) can0 1A0#00010000FEFE000E
(1724769163.483923) can0 320#0200000100000000
(1724769163.489976) can0 38A#12021000
(1724769163.490017) can0 388#910293
(1724769163.490345) can0 050#00094841
(1724769163.490441) can0 470#002A00FF02
(1724769163.490696) can0 570#8720FF00
(1724769163.491018) can0 5D0#800240A03041
(1724769163.491311) can0 5D8#550C000310000000
(1724769163.499905) can0 5E0#00FFFFFF00008000
(1724769163.503459) can0 320#0200000100000000
(1724769163.503632) can0 4A0#000000000000CCFF
(1724769163.503992) can0 5A0#000000706204102B
(1724769163.504154) can0 1A0#00010000FEFE000F
(1724769163.509804) can0 38A#22022000
(1724769163.509842) can0 388#920290
(1724769163.509996) can0 050#00095851
(1724769163.519896) can0 5E0#00FFFFFF00008000
(1724769163.523301) can0 320#0200000100000000
(1724769163.523559) can0 4A0#000000000000CCFF
(1724769163.523817) can0 5A0#0000004B6A04102B
(1724769163.524039) can0 1A0#00010000FEFE0000
(1724769163.529983) can0 38A#32023000
(1724769163.530051) can0 050#00096861
(1724769163.530161) can0 388#930291
(1724769163.540162) can0 470#002A00FF02
(1724769163.540282) can0 5E0#00FFFFFF00008000
(1724769163.543402) can0 320#0200000100000000
(1724769163.543505) can0 4A0#000000000000CCFF
(1724769163.543740) can0 420#829594FF00008000
(1724769163.544019) can0 5A0#000000127204102B
(1724769163.544270) can0 1A0#00010000FEFE0001
(1724769163.549869) can0 38A#42024000
(1724769163.549977) can0 388#940296
(1724769163.550075) can0 050#00097871
(1724769163.560140) can0 5E0#00FFFFFF00008000
(1724769163.563544) can0 320#0200000100000000
(1724769163.563645) can0 4A0#000000000000CCFF
(1724769163.563907) can0 5A0#000000EA7904102B
(1724769163.564198) can0 1A0#00010000FEFE0002
(1724769163.569725) can0 38A#52025000
(1724769163.569876) can0 388#950297
(1724769163.570452) can0 050#00098881
(1724769163.579942) can0 5E0#00FFFFFF00008000
(1724769163.583495) can0 4A0#000000000000CCFF
(1724769163.583614) can0 5A0#000000A08104102B
(1724769163.583866) can0 1A0#00010000FEFE0003
(1724769163.584154) can0 320#0200000100000000
(1724769163.589985) can0 38A#62026000
(1724769163.590106) can0 050#00099891
(1724769163.590218) can0 388#960294
(1724769163.590453) can0 470#002A00FF02
(1724769163.590771) can0 570#8720FF00
(1724769163.591023) can0 5D0#800240A03041
(1724769163.591310) can0 5D8#550C000310000000
(1724769163.599973) can0 5E0#00FFFFFF00008000
(1724769163.603430) can0 320#0200000100000000
(1724769163.603499) can0 4A0#000000000000CCFF
(1724769163.603851) can0 5A0#000000718904102B
(1724769163.604060) can0 1A0#00010000FEFE0004
(1724769163.610225) can0 050#0009A8A1
(1724769163.610669) can0 38A#72027000
(1724769163.610724) can0 388#970295
(1724769163.620213) can0 5E0#00FFFFFF00008000
(1724769163.623498) can0 4A0#000000000000CCFF
(1724769163.623643) can0 320#0200000100000000
(1724769163.623835) can0 5A0#0000003E9104102B
(1724769163.624156) can0 1A0#00010000FEFE0005
(1724769163.630374) can0 38A#82028000
(1724769163.630529) can0 050#0009B8B1
(1724769163.630584) can0 388#98029A
(1724769163.633611) can0 520#FB860003055E4B03
(1724769163.640117) can0 470#002A00FF02
(1724769163.640246) can0 5E0#00FFFFFF00008000
(1724769163.643404) can0 320#0200000100000000
(1724769163.643488) can0 4A0#000000000000CCFF
(1724769163.643807) can0 5A0#000000109904102B
(1724769163.643942) can0 1A0#00010000FEFE0006
(1724769163.650027) can0 38A#92029000
(1724769163.650129) can0 388#99029B
(1724769163.650169) can0 050#0009C8C1
(1724769163.660052) can0 5E0#00FFFFFF00008000
(1724769163.663486) can0 320#0200000100000000
(1724769163.663543) can0 4A0#000000000000CCFF
(1724769163.663844) can0 5A0#000000FCA004102B
(1724769163.664119) can0 1A0#00010000FEFE0007
(1724769163.670038) can0 38A#A202A000
(1724769163.670094) can0 388#9A0298
(1724769163.670155) can0 050#0009D8D1
(1724769163.680211) can0 5E0#00FFFFFF00008000
(1724769163.683590) can0 4A0#000000000000CCFF
(1724769163.683696) can0 320#0200000100000000
(1724769163.684030) can0 5A0#000000C1A804102B
(1724769163.684274) can0 1A0#00010000FEFE0008
(1724769163.690120) can0 38A#B202B000
(1724769163.690201) can0 388#9B0299
(1724769163.690228) can0 050#0009E8E1
(1724769163.690569) can0 470#002A00FF02
(1724769163.690655) can0 570#8720FF00
(1724769163.691144) can0 5D0#800240A03041
(1724769163.691378) can0 5D8#550C000310000000
(1724769163.700338) can0 5E0#00FFFFFF00008000
(1724769163.703473) can0 320#0200000100000000
(1724769163.703522) can0 4A0#000000000000CCFF
(1724769163.703833) can0 5A0#00000096B004102B
(1724769163.704121) can0 1A0#00010000FEFE0009
(1724769163.709928) can0 38A#C202C000
(1724769163.709945) can0 388#9C029E
(1724769163.710208) can0 050#0009F8F1
(1724769163.720011) can0 5E0#00FFFFFF00008000
(1724769163.723276) can0 320#0200000100000000
(1724769163.723436) can0 4A0#000000000000CCFF
(1724769163.723716) can0 5A0#00000055B804102B
(1724769163.723917) can0 1A0#00010000FEFE000A
(1724769163.729966) can0 38A#D202D000
(1724769163.729982) can0 388#9D029F
(1724769163.730301) can0 050#00090801
(1724769163.740236) can0 470#002A00FF02
(1724769163.740479) can0 5E0#00FFFFFF00008000
(1724769163.743242) can0 4A0#000000000000CCFF
(1724769163.743373) can0 5A0#00000011C004102B
(1724769163.743640) can0 1A0#00010000FEFE000B
(1724769163.743891) can0 320#0200000100000000
(1724769163.744189) can0 420#829594FF00008000
(1724769163.750261) can0 38A#E202E000
(1724769163.750285) can0 050#00091811
(1724769163.750437) can0 388#9E029C
(1724769163.760219) can0 5E0#00FFFFFF00008000
(1724769163.763405) can0 4A0#000000000000CCFF
(1724769163.763499) can0 320#0200000100000000
(1724769163.763722) can0 5A0#000000E6C704102B
(1724769163.764003) can0 1A0#00010000FEFE000C
(1724769163.770269) can0 38A#F202F000
(1724769163.770351) can0 388#9F029D
(1724769163.770584) can0 050#00092821
(1724769163.780117) can0 5E0#00FFFFFF00008000
(1724769163.783354) can0 4A0#000000000000CCFF
(1724769163.783463) can0 5A0#000000B9CF04102B
(1724769163.783745) can0 1A0#00010000FEFE000D
(1724769163.784006) can0 320#0200000100000000
(1724769163.790048) can0 38A#02020000
(1724769163.790166) can0 388#A002A2
(1724769163.790466) can0 470#002A00FF02
(1724769163.790500) can0 050#00093831
(1724769163.790778) can0 570#8720FF00
(1724769163.791001) can0 5D0#800240A03041
(1724769163.791325) can0 5D8#550C000310000000
(1724769163.800324) can0 5E0#00FFFFFF00008000
(1724769163.803569) can0 320#0200000100000000
(1724769163.803671) can0 4A0#000000000000CCFF
(1724769163.803982) can0 5A0#000000A5D704102B
(1724769163.804233) can0 1A0#00010000FEFE000E
(1724769163.810241) can0 38A#12021000
(1724769163.810294) can0 388#A102A3
(1724769163.810572) can0 050#00094841
(1724769163.820801) can0 5E0#00FFFFFF00008000
(1724769163.823320) can0 320#0200000100000000
(1724769163.823432) can0 4A0#000000000000CCFF
(1724769163.823809) can0 5A0#00000070DF04102B
(1724769163.824002) can0 1A0#00010000FEFE000F
(1724769163.830272) can0 38A#22022000
(1724769163.830407) can0 050#00095851
(1724769163.830446) can0 388#A202A0
(1724769163.833883) can0 520#1DC40003055E4B03
(1724769163.840762) can0 470#002A00FF02
(1724769163.840896) can0 5E0#00FFFFFF00008000
(1724769163.843615) can0 4A0#000000000000CCFF
(1724769163.843738) can0 320#0200000100000000
(1724769163.844016) can0 5A0#00000041E704102B
(1724769163.844292) can0 1A0#00010000FEFE0000
(1724769163.850235) can0 38A#32023000
(1724769163.850274) can0 050#00096861
(1724769163.850382) can0 388#A302A1
(1724769163.860405) can0 5E0#00FFFFFF00008000
(1724769163.863609) can0 4A0#000000000000CCFF
(1724769163.863671) can0 320#0200000100000000
(1724769163.864012) can0 5A0#00000010EF04102B
(1724769163.864250) can0 1A0#00010000FEFE0001
(1724769163.870218) can0 38A#42024000
(1724769163.870299) can0 388#A402A6
(1724769163.870374) can0 050#00097871
(1724769163.880327) can0 5E0#00FFFFFF00008000
(1724769163.883331) can0 4A0#000000000000CCFF
(1724769163.883413) can0 5A0#000000C1F604102B
(1724769163.883724) can0 1A0#00010000FEFE0002
(1724769163.883952) can0 320#0200000100000000
(1724769163.890434) can0 38A#52025000
(1724769163.890488) can0 388#A502A7
(1724769163.890624) can0 050#00098881
(1724769163.890833) can0 470#002A00FF02
(1724769163.891110) can0 570#8720FF00
(1724769163.891337) can0 5D0#800240A03041
(1724769163.891680) can0 5D8#550C000310000000
(1724769163.900369) can0 5E0#00FFFFFF00008000
(1724769163.903377) can0 320#0200000100000000
(1724769163.903501) can0 4A0#000000000000CCFF
(1724769163.903766) can0 5A0#0000009AFE04102B
(1724769163.903998) can0 1A0#00010000FEFE0003
(1724769163.910435) can0 38A#62026000
(1724769163.910508) can0 050#00099891
(1724769163.910627) can0 388#A602A4
(1724769163.920283) can0 5E0#00FFFFFF00008000
(1724769163.923280) can0 4A0#000000000000CCFF
(1724769163.923417) can0 5A0#000000620604102B
(1724769163.923699) can0 1A0#00010000FEFE0004
(1724769163.923925) can0 320#0200000100000000
(1724769163.930263) can0 38A#72027000
(1724769163.930366) can0 388#A702A5
(1724769163.930466) can0 050#0009A8A1
(1724769163.940366) can0 470#002A00FF02
(1724769163.940530) can0 5E0#00FFFFFF00008000
(1724769163.943233) can0 4A0#000000000000CCFF
(1724769163.943409) can0 320#0200000100000000
(1724769163.943793) can0 5A0#000000330E04102B
(1724769163.943892) can0 1A0#00010000FEFE0005
(1724769163.944206) can0 420#829594FF00008000
(1724769163.950418) can0 38A#82028000
(1724769163.950514) can0 050#0009B8B1
(1724769163.950625) can0 388#A802AA
(1724769163.960649) can0 5E0#00FFFFFF00008000
(1724769163.963472) can0 320#0200000100000000
(1724769163.963557) can0 4A0#000000000000CCFF
(1724769163.963913) can0 5A0#0000000B1604102B
(1724769163.964167) can0 1A0#00010000FEFE0006
(1724769163.970285) can0 38A#92029000
(1724769163.970391) can0 388#A902AB
(1724769163.970865) can0 050#0009C8C1
(1724769163.980594) can0 5E0#00FFFFFF00008000
(1724769163.983291) can0 4A0#000000000000CCFF
(1724769163.983422) can0 5A0#000000D41D04102B
(1724769163.983747) can0 1A0#00010000FEFE0007
(1724769163.983907) can0 320#0200000100000000
(1724769163.990223) can0 38A#A202A000
(1724769163.990334) can0 388#AA02A8
(1724769163.990438) can0 050#0009D8D1
(1724769163.990781) can0 470#002A00FF02
(1724769163.990951) can0 570#8720FF00
(1724769163.991263) can0 5D0#800240A03041
(1724769163.991560) can0 5D8#550C000310000000
(1724769164.000337) can0 5E0#00FFFFFF00008000
(1724769164.003611) can0 320#0200000100000000
(1724769164.003635) can0 4A0#000000000000CCFF
(1724769164.003914) can0 5A0#000000AD2504102B
(1724769164.004038) can0 1A0#00010000FEFE0008
(1724769164.010467) can0 38A#B202B000
(1724769164.010492) can0 050#0009E8E1
(1724769164.010539) can0 388#AB02A9
(1724769164.020530) can0 5E0#00FFFFFF00008000
(1724769164.023418) can0 320#0200000100000000
(1724769164.023496) can0 4A0#000000000000CCFF
(1724769164.023843) can0 5A0#000000822D04102B
(1724769164.023975) can0 1A0#00010000FEFE0009
(1724769164.030665) can0 050#0009F8F1
(1724769164.030903) can0 38A#C202C000
(1724769164.030940) can0 388#AC02AE
(1724769164.033723) can0 520#01010003055E4B03
(1724769164.040676) can0 470#002A00FF02
(1724769164.040914) can0 5E0#00FFFFFF00008000
(1724769164.043668) can0 320#0200000100000000
(1724769164.043752) can0 4A0#000000000000CCFF
(1724769164.044104) can0 5A0#0000006F3504102B
(1724769164.044185) can0 1A0#00010000FEFE000A
(1724769164.050620) can0 050#00090801
(1724769164.050890) can0 38A#D202D000
(1724769164.051053) can0 388#AD02AF
(1724769164.060564) can0 5E0#00FFFFFF00008000
(1724769164.063397) can0 320#0200000100000000
(1724769164.063473) can0 4A0#000000000000CCFF
(1724769164.063860) can0 5A0#0000001B3D04102B
(1724769164.063950) can0 1A0#00010000FEFE000B
(1724769164.070440) can0 38A#E202E000
(1724769164.070593) can0 050#00091811
(1724769164.070624) can0 388#AE02AC
(1724769164.080467) can0 5E0#00FFFFFF00008000
(1724769164.083606) can0 4A0#000000000000CCFF
(1724769164.083714) can0 320#0200000100000000
(1724769164.084067) can0 5A0#000000004504102B
(1724769164.084199) can0 1A0#00010000FEFE000C
(1724769164.090509) can0 38A#F202F000
(1724769164.090624) can0 050#00092821
(1724769164.090841) can0 388#AF02AD
(1724769164.091057) can0 470#002A00FF02
(1724769164.091250) can0 570#8720FF00
(1724769164.091604) can0 5D0#800240A03041
(1724769164.091757) can0 5D8#550C000310000000
(1724769164.100679) can0 5E0#00FFFFFF00008000
(1724769164.103611) can0 4A0#000000000000CCFF
(1724769164.103670) can0 5A0#000000C54C04102B
(1724769164.104033) can0 1A0#00010000FEFE000D
(1724769164.104187) can0 320#0200000100000000
(1724769164.110508) can0 38A#02020000
(1724769164.110656) can0 388#B002B2
(1724769164.110688) can0 050#00093831
(1724769164.120813) can0 5E0#00FFFFFF00008000
(1724769164.123514) can0 320#0200000100000000
(1724769164.123633) can0 4A0#000000000000CCFF
(1724769164.124007) can0 5A0#000000945404102B
(1724769164.124081) can0 1A0#00010000FEFE000E
(1724769164.130426) can0 38A#12021000
(1724769164.130547) can0 388#B102B3
(1724769164.130804) can0 050#00094841
(1724769164.140549) can0 470#002A00FF02
(1724769164.140782) can0 5E0#00FFFFFF00008000
(1724769164.143352) can0 320#0200000100000000
(1724769164.143507) can0 4A0#000000000000CCFF
(1724769164.143840) can0 420#829594FF00008000
(1724769164.143938) can0 5A0#000000655C04102B
(1724769164.144325) can0 1A0#00010000FEFE000F
(1724769164.150461) can0 38A#22022000
(1724769164.150532) can0 050#00095851
(1724769164.150693) can0 388#B202B0
(1724769164.160830) can0 5E0#00FFFFFF00008000
(1724769164.163541) can0 4A0#000000000000CCFF
(1724769164.163609) can0 320#0200000100000000
(1724769164.163958) can0 5A0#000000306404102B
(1724769164.164144) can0 1A0#00010000FEFE0000
(1724769164.170646) can0 38A#32023000
(1724769164.170744) can0 050#00096861
(1724769164.170812) can0 388#B302B1
(1724769164.180651) can0 5E0#00FFFFFF00008000
(1724769164.183622) can0 4A0#000000000000CCFF
(1724769164.183683) can0 320#0200000100000000
(1724769164.184026) can0 5A0#0000000E6C04102B
(1724769164.184164) can0 1A0#00010000FEFE0001
(1724769164.190722) can0 050#00097871
(1724769164.190854) can0 38A#42024000
(1724769164.190957) can0 388#B402B6
(1724769164.191254) can0 470#002A00FF02
(1724769164.191420) can0 570#8720FF00
(1724769164.191829) can0 5D0#800240A03041
(1724769164.192001) can0 5D8#550C000310000000
(1724769164.200497) can0 5E0#00FFFFFF00008000
(1724769164.203341) can0 320#0200000100000000
(1724769164.203482) can0 4A0#000000000000CCFF
(1724769164.203738) can0 5A0#000000CE7304102B
(1724769164.204039) can0 1A0#00010000FEFE0002
(1724769164.210421) can0 38A#52025000
(1724769164.210522) can0 388#B502B7
(1724769164.211049) can0 050#00098881
(1724769164.220712) can0 5E0#00FFFFFF00008000
(1724769164.223572) can0 320#0200000100000000
(1724769164.223760) can0 4A0#000000000000CCFF
(1724769164.224032) can0 5A0#000000B27B04102B
(1724769164.224236) can0 1A0#00010000FEFE0003
(1724769164.230601) can0 38A#62026000
(1724769164.230617) can0 050#00099891
(1724769164.230800) can0 388#B602B4
(1724769164.233911) can0 520#40420003055E4B03
(1724769164.241167) can0 470#002A00FF02
(1724769164.241439) can0 5E0#00FFFFFF00008000
(1724769164.243355) can0 320#0200000100000000
(1724769164.243510) can0 4A0#000000000000CCFF
(1724769164.243798) can0 5A0#000000728304102B
(1724769164.243994) can0 1A0#00010000FEFE0004
(1724769164.250709) can0 38A#72027000
(1724769164.250776) can0 050#0009A8A1
(1724769164.250944) can0 388#B702B5
(1724769164.261251) can0 5E0#00FFFFFF00008000
(1724769164.263445) can0 4A0#000000000000CCFF
(1724769164.263497) can0 320#0200000100000000
(1724769164.263827) can0 5A0#000000378B04102B
(1724769164.264032) can0 1A0#00010000FEFE0005
(1724769164.270679) can0 38A#82028000
(1724769164.270748) can0 050#0009B8B1
(1724769164.270802) can0 388#B802BA
(1724769164.280708) can0 5E0#00FFFFFF00008000
(1724769164.283379) can0 4A0#000000000000CCFF
(1724769164.283485) can0 5A0#000000099304102B
(1724769164.283763) can0 1A0#00010000FEFE0006
(1724769164.284032) can0 320#0200000100000000
(1724769164.290720) can0 38A#92029000
(1724769164.290787) can0 388#B902BB
(1724769164.290905) can0 050#0009C8C1
(1724769164.291183) can0 470#002A00FF02
(1724769164.291345) can0 570#8720FF00
(1724769164.291728) can0 5D0#800240A03041
(1724769164.291894) can0 5D8#550C000310000000
(1724769164.300859) can0 5E0#00FFFFFF00008000
(1724769164.303308) can0 4A0#000000000000CCFF
(1724769164.303371) can0 320#0200000100000000
(1724769164.303703) can0 5A0#000000CE9A04102B
(1724769164.303953) can0 1A0#00010000FEFE0007
(1724769164.310770) can0 38A#A202A000
(1724769164.310849) can0 050#0009D8D1
(1724769164.310880) can0 388#BA02B8
(1724769164.320773) can0 5E0#00FFFFFF00008000
(1724769164.323430) can0 320#0200000100000000
(1724769164.323508) can0 4A0#000000000000CCFF
(1724769164.323842) can0 5A0#000000AEA204102B
(1724769164.323945) can0 1A0#00010000FEFE0008
(1724769164.330869) can0 050#0009E8E1
(1724769164.330992) can0 38A#B202B000
(1724769164.331168) can0 388#BB02B9
(1724769164.340857) can0 470#002A00FF02
(1724769164.340971) can0 5E0#00FFFFFF00008000
(1724769164.343442) can0 4A0#000000000000CCFF
(1724769164.343521) can0 320#0200000100000000
(1724769164.343852) can0 5A0#0000007AAA04102B
(1724769164.343994) can0 1A0#00010000FEFE0009
(1724769164.344334) can0 420#829594FF00008000
(1724769164.350703) can0 38A#C202C000
(1724769164.350862) can0 050#0009F8F1
(1724769164.350932) can0 388#BC02BE
(1724769164.360813) can0 5E0#00FFFFFF00008000
(1724769164.363582) can0 4A0#000000000000CCFF
(1724769164.363698) can0 320#0200000100000000
(1724769164.364052) can0 5A0#00000052B204102B
(1724769164.364150) can0 1A0#00010000FEFE000A
(1724769164.370897) can0 38A#D202D000
(1724769164.370996) can0 388#BD02BF
(1724769164.371090) can0 050#00090801
(1724769164.381082) can0 5E0#00FFFFFF00008000
(1724769164.383554) can0 4A0#000000000000CCFF
(1724769164.383661) can0 320#0200000100000000
(1724769164.383852) can0 5A0#00000020BA04102B
(1724769164.384265) can0 1A0#00010000FEFE000B
(1724769164.390846) can0 050#00091811
(1724769164.390906) can0 38A#E202E000
(1724769164.391083) can0 388#BE02BC
(1724769164.391543) can0 470#002A00FF02
(1724769164.391606) can0 570#8720FF00
(1724769164.391842) can0 5D0#800240A03041
(1724769164.392247) can0 5D8#550C000310000000
(1724769164.401178) can0 5E0#00FFFFFF00008000
(1724769164.403379) can0 4A0#000000000000CCFF
(1724769164.403534) can0 320#0200000100000000
(1724769164.403785) can0 5A0#000000E8C104102B
(1724769164.404062) can0 1A0#00010000FEFE000C
(1724769164.410784) can0 38A#F202F000
(1724769164.410852) can0 388#BF02BD
(1724769164.410959) can0 050#00092821
(1724769164.420953) can0 5E0#00FFFFFF00008000
(1724769164.423445) can0 320#0200000100000000
(1724769164.423514) can0 4A0#000000000000CCFF
(1724769164.423774) can0 5A0#000000D5C904102B
(1724769164.424142) can0 1A0#00010000FEFE000D
(1724769164.430985) can0 050#00093831
(1724769164.431088) can0 38A#02020000
(1724769164.431182) can0 388#C002C2
(1724769164.433947) can0 520#FB860003055E4B03
(1724769164.441112) can0 470#002A00FF02
(1724769164.441354) can0 5E0#00FFFFFF00008000
(1724769164.443408) can0 320#0200000100000000
(1724769164.443510) can0 4A0#000000000000CCFF
(1724769164.443875) can0 5A0#0000008BD104102B
(1724769164.443980) can0 1A0#00010000FEFE000E
(1724769164.451173) can0 050#00094841
(1724769164.451590) can0 38A#12021000
(1724769164.451674) can0 388#C102C3
(1724769164.461126) can0 5E0#00FFFFFF00008000
(1724769164.463486) can0 4A0#000000000000CCFF
(1724769164.463566) can0 320#0200000100000000
(1724769164.463925) can0 5A0#0000005BD904102B
(1724769164.464130) can0 1A0#00010000FEFE000F
(1724769164.470941) can0 050#00095851
(1724769164.471482) can0 38A#22022000
(1724769164.471531) can0 388#C202C0
(1724769164.481080) can0 5E0#00FFFFFF00008000
(1724769164.483646) can0 320#0200000100000000
(1724769164.483780) can0 4A0#000000000000CCFF
(1724769164.484059) can0 5A0#00000047E104102B
(1724769164.484346) can0 1A0#00010000FEFE0000
(1724769164.491034) can0 050#00096861
(1724769164.491077) can0 38A#32023000
(1724769164.491473) can0 388#C302C1
(1724769164.491547) can0 470#002A00FF02
(1724769164.491844) can0 570#8720FF00
(1724769164.492130) can0 5D0#800240A03041
(1724769164.492446) can0 5D8#550C000310000000
(1724769164.501214) can0 5E0#00FFFFFF00008000
(1724769164.503486) can0 320#0200000100000000
(1724769164.503539) can0 4A0#000000000000CCFF
(1724769164.503831) can0 5A0#000000F9E804102B
(1724769164.503976) can0 1A0#00010000FEFE0001
(1724769164.511029) can0 38A#42024000
(1724769164.511096) can0 050#00097871
(1724769164.511272) can0 388#C402C6
(1724769164.521235) can0 5E0#00FFFFFF00008000
(1724769164.523598) can0 4A0#000000000000CCFF
(1724769164.523652) can0 320#0200000100000000
(1724769164.524005) can0 5A0#000000D0F004102B
(1724769164.524184) can0 1A0#00010000FEFE0002
(1724769164.531054) can0 38A#52025000
(1724769164.531136) can0 050#00098881
(1724769164.531350) can0 388#C502C7
(1724769164.541349) can0 470#002A00FF02
(1724769164.541516) can0 5E0#00FFFFFF00008000
(1724769164.543550) can0 320#0200000100000000
(1724769164.543606) can0 4A0#000000000000CCFF
(1724769164.543848) can0 420#829594FF00008000
(1724769164.544075) can0 5A0#000000B2F804102B
(1724769164.544355) can0 1A0#00010000FEFE0003
(1724769164.551023) can0 38A#62026000
(1724769164.551150) can0 050#00099891
(1724769164.551206) can0 388#C602C4
(1724769164.561052) can0 5E0#00FFFFFF00008000
(1724769164.563506) can0 320#0200000100000000
(1724769164.563614) can0 4A0#000000000000CCFF
(1724769164.563979) can0 5A0#000000730004102B
(1724769164.564068) can0 1A0#00010000FEFE0004
(1724769164.571061) can0 38A#72027000
(1724769164.571113) can0 050#0009A8A1
(1724769164.571164) can0 388#C702C5
(1724769164.581361) can0 5E0#00FFFFFF00008000
(1724769164.583518) can0 4A0#000000000000CCFF
(1724769164.583647) can0 5A0#0000003D0804102B
(1724769164.583990) can0 1A0#00010000FEFE0005
(1724769164.584171) can0 320#0200000100000000
(1724769164.591294) can0 050#0009B8B1
(1724769164.591396) can0 38A#82028000
(1724769164.591641) can0 388#C802CA
(1724769164.591881) can0 470#002A00FF02
(1724769164.592122) can0 570#8720FF00
(1724769164.592339) can0 5D0#800240A03041
(1724769164.592673) can0 5D8#550C000310000000
(1724769164.601161) can0 5E0#00FFFFFF00008000
(1724769164.603567) can0 320#0200000100000000
(1724769164.603627) can0 4A0#000000000000CCFF
(1724769164.604004) can0 5A0#000000101004102B
(1724769164.604125) can0 1A0#00010000FEFE0006
(1724769164.611318) can0 38A#92029000
(1724769164.611520) can0 050#0009C8C1
(1724769164.611585) can0 388#C902CB
(1724769164.621121) can0 5E0#00FFFFFF00008000
(1724769164.623348) can0 4A0#000000000000CCFF
(1724769164.623484) can0 5A0#000000D21704102B
(1724769164.623845) can0 1A0#00010000FEFE0007
(1724769164.623937) can0 320#0200000100000000
(1724769164.631016) can0 38A#A202A000
(1724769164.631138) can0 050#0009D8D1
(1724769164.631184) can0 388#CA02C8
(1724769164.633680) can0 520#1DC40003055E4B03
(1724769164.641358) can0 470#002A00FF02
(1724769164.641599) can0 5E0#00FFFFFF00008000
(1724769164.643731) can0 4A0#000000000000CCFF
(1724769164.643786) can0 320#0200000100000000
(1724769164.644139) can0 5A0#000000C21F04102B
(1724769164.644288) can0 1A0#00010000FEFE0008
(1724769164.651172) can0 050#0009E8E1
(1724769164.651242) can0 38A#B202B000
(1724769164.651537) can0 388#CB02C9
(1724769164.661812) can0 5E0#00FFFFFF00008000
(1724769164.663382) can0 320#0200000100000000
(1724769164.663525) can0 4A0#000000000000CCFF
(1724769164.663827) can0 5A0#000000842704102B
(1724769164.663975) can0 1A0#00010000FEFE0009
(1724769164.671157) can0 050#0009F8F1
(1724769164.671277) can0 38A#C202C000
(1724769164.671493) can0 388#CC02CE
(1724769164.681743) can0 5E0#00FFFFFF00008000
(1724769164.683535) can0 4A0#000000000000CCFF
(1724769164.683656) can0 320#0200000100000000
(1724769164.684017) can0 5A0#0000004C2F04102B
(1724769164.684114) can0 1A0#00010000FEFE000A
(1724769164.691363) can0 38A#D202D000
(1724769164.691456) can0 050#00090801
(1724769164.691516) can0 388#CD02CF
(1724769164.691940) can0 470#002A00FF02
(1724769164.692031) can0 570#8720FF00
(1724769164.692437) can0 5D0#800240A03041
(1724769164.692653) can0 5D8#550C000310000000
(1724769164.701437) can0 5E0#00FFFFFF00008000
(1724769164.703624) can0 4A0#000000000000CCFF
(1724769164.703731) can0 320#0200000100000000
(1724769164.704137) can0 5A0#000000253704102B
(1724769164.704218) can0 1A0#00010000FEFE000B
(1724769164.711185) can0 050#00091811
(1724769164.711240) can0 38A#E202E000
(1724769164.711553) can0 388#CE02CC
(1724769164.721400) can0 5E0#00FFFFFF00008000
(1724769164.723427) can0 320#0200000100000000
(1724769164.723567) can0 4A0#000000000000CCFF
(1724769164.723846) can0 5A0#000000EC3E04102B
(1724769164.724039) can0 1A0#00010000FEFE000C
(1724769164.731226) can0 050#00092821
(1724769164.731454) can0 38A#F202F000
(1724769164.731599) can0 388#CF02CD
(1724769164.741497) can0 470#002A00FF02
(1724769164.741790) can0 5E0#00FFFFFF00008000
(1724769164.743403) can0 320#0200000100000000
(1724769164.743583) can0 4A0#000000000000CCFF
(1724769164.743842) can0 420#829594FF00008000
(1724769164.744032) can0 5A0#000000BD4604102B
(1724769164.744279) can0 1A0#00010000FEFE000D
(1724769164.751304) can0 050#00093831
(1724769164.751616) can0 38A#02020000
(1724769164.751797) can0 388#D002D2
(1724769164.761534) can0 5E0#00FFFFFF00008000
(1724769164.763645) can0 4A0#000000000000CCFF
(1724769164.763662) can0 320#0200000100000000
(1724769164.764006) can0 5A0#0000008E4E04102B
(1724769164.764207) can0 1A0#00010000FEFE000E
(1724769164.771375) can0 38A#12021000
(1724769164.771416) can0 050#00094841
(1724769164.771647) can0 388#D102D3
(1724769164.781576) can0 5E0#00FFFFFF00008000
(1724769164.783421) can0 4A0#000000000000CCFF
(1724769164.783491) can0 5A0#000000565604102B
(1724769164.783944) can0 1A0#00010000FEFE000F
(1724769164.784027) can0 320#0200000100000000
(1724769164.791303) can0 050#00095851
(1724769164.791653) can0 38A#22022000
(1724769164.791855) can0 388#D202D0
(1724769164.792104) can0 470#002A00FF02
(1724769164.792183) can0 570#8720FF00
(1724769164.792607) can0 5D0#800240A03041
(1724769164.792880) can0 5D8#550C000310000000
(1724769164.801876) can0 5E0#00FFFFFF00008000
(1724769164.803459) can0 320#0200000100000000
(1724769164.803532) can0 4A0#000000000000CCFF
(1724769164.803964) can0 5A0#000000435E04102B
(1724769164.804053) can0 1A0#00010000FEFE0000
(1724769164.811360) can0 050#00096861
(1724769164.811413) can0 38A#32023000
(1724769164.811671) can0 388#D302D1
(1724769164.821823) can0 5E0#00FFFFFF00008000
(1724769164.823417) can0 4A0#000000000000CCFF
(1724769164.823512) can0 5A0#000000F46504102B
(1724769164.823884) can0 1A0#00010000FEFE0001
(1724769164.823976) can0 320#0200000100000000
(1724769164.831352) can0 050#00097871
(1724769164.831466) can0 38A#42024000
(1724769164.831699) can0 388#D402D6
(1724769164.833773) can0 520#01010003055E4B03
(1724769164.841509) can0 470#002A00FF02
(1724769164.841750) can0 5E0#00FFFFFF00008000
(1724769164.843439) can0 320#0200000100000000
(1724769164.843571) can0 4A0#000000000000CCFF
(1724769164.843819) can0 5A0#000000D56D04102B
(1724769164.844150) can0 1A0#00010000FEFE0002
(1724769164.851346) can0 050#00098881
(1724769164.851467) can0 38A#52025000
(1724769164.851659) can0 388#D502D7
(1724769164.861758) can0 5E0#00FFFFFF00008000
(1724769164.863475) can0 320#0200000100000000
(1724769164.863624) can0 4A0#000000000000CCFF
(1724769164.864037) can0 5A0#000000AF7504102B
(1724769164.864168) can0 1A0#00010000FEFE0003
(1724769164.871439) can0 050#00099891
(1724769164.872096) can0 38A#62026000
(1724769164.872224) can0 388#D602D4
(1724769164.881809) can0 5E0#00FFFFFF00008000
(1724769164.883439) can0 4A0#000000000000CCFF
(1724769164.883536) can0 5A0#000000647D04102B
(1724769164.883760) can0 1A0#00010000FEFE0004
(1724769164.884343) can0 320#0200000100000000
(1724769164.891478) can0 050#0009A8A1
(1724769164.892202) can0 38A#72027000
(1724769164.892303) can0 388#D702D5
(1724769164.892581) can0 470#002A00FF02
(1724769164.892818) can0 570#8720FF00
(1724769164.893016) can0 5D0#800240A03041
(1724769164.893423) can0 5D8#550C000310000000
(1724769164.901738) can0 5E0#00FFFFFF00008000
(1724769164.903632) can0 4A0#000000000000CCFF
(1724769164.903730) can0 320#0200000100000000
(1724769164.903966) can0 5A0#000000418504102B
(1724769164.904321) can0 1A0#00010000FEFE0005
(1724769164.911560) can0 050#0009B8B1
(1724769164.911588) can0 38A#82028000
(1724769164.911739) can0 388#D802DA
(1724769164.921623) can0 5E0#00FFFFFF00008000
(1724769164.923481) can0 320#0200000100000000
(1724769164.923539) can0 4A0#000000000000CCFF
(1724769164.923762) can0 5A0#000000148D04102B
(1724769164.924141) can0 1A0#00010000FEFE0006
(1724769164.931527) can0 050#0009C8C1
(1724769164.931601) can0 38A#92029000
(1724769164.931748) can0 388#D902DB
(1724769164.941806) can0 470#002A00FF02
(1724769164.941993) can0 5E0#00FFFFFF00008000
(1724769164.943594) can0 4A0#000000000000CCFF
(1724769164.943678) can0 320#0200000100000000
(1724769164.944071) can0 5A0#000000E09404102B
(1724769164.944182) can0 1A0#00010000FEFE0007
(1724769164.944599) can0 420#829594FF00008000
(1724769164.951636) can0 050#0009D8D1
(1724769164.951719) can0 38A#A202A000
(1724769164.951931) can0 388#DA02D8
(1724769164.961881) can0 5E0#00FFFFFF00008000
(1724769164.963398) can0 320#0200000100000000
(1724769164.963589) can0 4A0#000000000000CCFF
(1724769164.963832) can0 5A0#000000AA9C04102B
(1724769164.964106) can0 1A0#00010000FEFE0008
(1724769164.971430) can0 050#0009E8E1
(1724769164.971490) can0 38A#B202B000
(1724769164.971733) can0 388#DB02D9
(1724769164.981728) can0 5E0#00FFFFFF00008000
(1724769164.983584) can0 4A0#000000000000CCFF
(1724769164.983765) can0 320#0200000100000000
(1724769164.984047) can0 5A0#00000082A404102B
(1724769164.984247) can0 1A0#00010000FEFE0009
(1724769164.991497) can0 050#0009F8F1
(1724769164.991571) can0 38A#C202C000
(1724769164.991790) can0 388#DC02DE
(1724769164.992059) can0 470#002A00FF02
(1724769164.992325) can0 570#8720FF00
(1724769164.992595) can0 5D0#800240A03041
(1724769164.992808) can0 5D8#550C000310000000
(1724769165.001998) can0 5E0#00FFFFFF00008000
(1724769165.003734) can0 4A0#000000000000CCFF
(1724769165.003745) can0 320#0200000100000000
(1724769165.004038) can0 5A0#00000051AC04102B
(1724769165.004301) can0 1A0#00010000FEFE000A
(1724769165.011769) can0 050#00090801
(1724769165.011801) can0 38A#D202D000
(1724769165.012059) can0 388#DD02DF
(1724769165.021801) can0 5E0#00FFFFFF00008000
(1724769165.023447) can0 320#0200000100000000
(1724769165.023531) can0 4A0#000000000000CCFF
(1724769165.023955) can0 5A0#0000001BB404102B
(1724769165.023999) can0 1A0#00010000FEFE000B
(1724769165.031546) can0 050#00091811
(1724769165.031824) can0 38A#E202E000
(1724769165.032082) can0 388#DE02DC
(1724769165.034117) can0 520#40420003055E4B03
(1724769165.041653) can0 470#002A00FF02
(1724769165.041908) can0 5E0#00FFFFFF00008000
(1724769165.043528) can0 320#0200000100000000
(1724769165.043586) can0 4A0#000000000000CCFF
(1724769165.043972) can0 5A0#000000EEBB04102B
(1724769165.044078) can0 1A0#00010000FEFE000C
(1724769165.051567) can0 050#00092821
(1724769165.051596) can0 38A#F202F000
(1724769165.051708) can0 388#DF02DD
(1724769165.061932) can0 5E0#00FFFFFF00008000
(1724769165.063547) can0 4A0#000000000000CCFF
(1724769165.063676) can0 320#0200000100000000
(1724769165.063958) can0 5A0#000000BBC304102B
(1724769165.064261) can0 1A0#00010000FEFE000D
(1724769165.071529) can0 050#00093831
(1724769165.071628) can0 38A#02020000
(1724769165.072000) can0 388#E002E2
(1724769165.082363) can0 5E0#00FFFFFF00008000
(1724769165.083600) can0 4A0#000000000000CCFF
(1724769165.083727) can0 320#0200000100000000
(1724769165.084068) can0 5A0#0000008FCB04102B
(1724769165.084176) can0 1A0#00010000FEFE000E
(1724769165.091778) can0 050#00094841
(1724769165.091858) can0 38A#12021000
(1724769165.092075) can0 388#E102E3
(1724769165.092358) can0 470#002A00FF02
(1724769165.092584) can0 570#8720FF00
(1724769165.092823) can0 5D0#800240A03041
(1724769165.093104) can0 5D8#550C000310000000
(1724769165.102328) can0 5E0#00FFFFFF00008000
(1724769165.103464) can0 4A0#000000000000CCFF
(1724769165.103600) can0 320#0200000100000000
(1724769165.103867) can0 5A0#00000056D304102B
(1724769165.104084) can0 1A0#00010000FEFE000F
(1724769165.111573) can0 050#00095851
(1724769165.111659) can0 38A#22022000
(1724769165.112010) can0 388#E202E0
(1724769165.121811) can0 5E0#00FFFFFF00008000
(1724769165.123644) can0 4A0#000000000000CCFF
(1724769165.123704) can0 320#0200000100000000
(1724769165.124115) can0 5A0#0000002FDB04102B
(1724769165.124206) can0 1A0#00010000FEFE0000
(1724769165.131654) can0 050#00096861
(1724769165.131735) can0 38A#32023000
(1724769165.131853) can0 388#E302E1
(1724769165.141907) can0 470#002A00FF02
(1724769165.142227) can0 5E0#00FFFFFF00008000
(1724769165.143451) can0 4A0#000000000000CCFF
(1724769165.143507) can0 5A0#000000F2E204102B
(1724769165.143935) can0 1A0#00010000FEFE0001
(1724769165.143992) can0 320#0200000100000000
(1724769165.144437) can0 420#829594FF00008000
(1724769165.151699) can0 050#00097871
(1724769165.151757) can0 38A#42024000
(1724769165.152066) can0 388#E402E6
(1724769165.161878) can0 5E0#00FFFFFF00008000
(1724769165.163647) can0 4A0#000000000000CCFF
(1724769165.163693) can0 320#0200000100000000
(1724769165.164141) can0 5A0#000000CFEA04102B
(1724769165.164223) can0 1A0#00010000FEFE0002
(1724769165.171960) can0 050#00098881
(1724769165.172013) can0 38A#52025000
(1724769165.172252) can0 388#E502E7
(1724769165.181879) can0 5E0#00FFFFFF00008000
(1724769165.183606) can0 4A0#000000000000CCFF
(1724769165.183681) can0 5A0#000000A0F204102B
(1724769165.184087) can0 1A0#00010000FEFE0003
(1724769165.184302) can0 320#0200000100000000
(1724769165.191704) can0 050#00099891
(1724769165.191785) can0 38A#62026000
(1724769165.191898) can0 388#E602E4
(1724769165.192306) can0 470#002A00FF02
(1724769165.192441) can0 570#8720FF00
(1724769165.192751) can0 5D0#800240A03041
(1724769165.193059) can0 5D8#550C000310000000
(1724769165.201947) can0 5E0#00FFFFFF00008000
(1724769165.203417) can0 4A0#000000000000CCFF
(1724769165.203566) can0 320#0200000100000000
(1724769165.203758) can0 5A0#00000060FA04102B
(1724769165.204154) can0 1A0#00010000FEFE0004
(1724769165.212300) can0 050#0009A8A1
(1724769165.212331) can0 38A#72027000
(1724769165.212337) can0 388#E702E5
(1724769165.222090) can0 5E0#00FFFFFF00008000
(1724769165.223408) can0 320#0200000100000000
(1724769165.223557) can0 4A0#000000000000CCFF
(1724769165.223864) can0 5A0#000000400204102B
(1724769165.224160) can0 1A0#00010000FEFE0005
(1724769165.231672) can0 050#0009B8B1
(1724769165.231859) can0 38A#82028000
(1724769165.231900) can0 388#E802EA
(1724769165.233731) can0 520#FB860003055E4B03
(1724769165.242098) can0 470#002A00FF02
(1724769165.242376) can0 5E0#00FFFFFF00008000
(1724769165.243441) can0 4A0#000000000000CCFF
(1724769165.243573) can0 5A0#000000060A04102B
(1724769165.243807) can0 1A0#00010000FEFE0006
(1724769165.244098) can0 320#0200000100000000
(1724769165.251692) can0 050#0009C8C1
(1724769165.251734) can0 38A#92029000
(1724769165.252029) can0 388#E902EB
(1724769165.261860) can0 5E0#00FFFFFF00008000
(1724769165.263557) can0 320#0200000100000000
(1724769165.263616) can0 4A0#000000000000CCFF
(1724769165.263878) can0 5A0#000000DB1104102B
(1724769165.264122) can0 1A0#00010000FEFE0007
(1724769165.271896) can0 050#0009D8D1
(1724769165.271937) can0 38A#A202A000
(1724769165.272197) can0 388#EA02E8
(1724769165.281928) can0 5E0#00FFFFFF00008000
(1724769165.283514) can0 4A0#000000000000CCFF
(1724769165.283583) can0 5A0#000000A91904102B
(1724769165.283816) can0 1A0#00010000FEFE0008
(1724769165.284202) can0 320#0200000100000000
(1724769165.291876) can0 050#0009E8E1
(1724769165.292659) can0 38A#B202B000
(1724769165.292756) can0 388#EB02E9
(1724769165.292943) can0 470#002A00FF02
(1724769165.293272) can0 570#8720FF00
(1724769165.293452) can0 5D0#800240A03041
(1724769165.293904) can0 5D8#550C000310000000
(1724769165.302193) can0 5E0#00FFFFFF00008000
(1724769165.303429) can0 4A0#000000000000CCFF
(1724769165.303531) can0 5A0#000000702104102B
(1724769165.303815) can0 1A0#00010000FEFE0009
(1724769165.303969) can0 320#0200000100000000
(1724769165.311828) can0 050#0009F8F1
(1724769165.312467) can0 38A#C202C000
(1724769165.312536) can0 388#EC02EE
(1724769165.321998) can0 5E0#00FFFFFF00008000
(1724769165.323530) can0 4A0#000000000000CCFF
(1724769165.323603) can0 320#0200000100000000
(1724769165.323858) can0 5A0#000000472904102B
(1724769165.324099) can0 1A0#00010000FEFE000A
(1724769165.331884) can0 050#00090801
(1724769165.331955) can0 38A#D202D000
(1724769165.332070) can0 388#ED02EF
(1724769165.342040) can0 470#002A00FF02
(1724769165.342310) can0 5E0#00FFFFFF00008000
(1724769165.343401) can0 4A0#000000000000CCFF
(1724769165.343541) can0 320#0200000100000000
(1724769165.343764) can0 5A0#0000000E3104102B
(1724769165.344052) can0 1A0#00010000FEFE000B
(1724769165.344281) can0 420#829594FF00008000
(1724769165.351822) can0 050#00091811
(1724769165.351915) can0 38A#E202E000
(1724769165.352155) can0 388#EE02EC
(1724769165.362208) can0 5E0#00FFFFFF00008000
(1724769165.363539) can0 4A0#000000000000CCFF
(1724769165.363585) can0 320#0200000100000000
(1724769165.363907) can0 5A0#000000E93804102B
(1724769165.364125) can0 1A0#00010000FEFE000C
(1724769165.371859) can0 050#00092821
(1724769165.371979) can0 38A#F202F000
(1724769165.372152) can0 388#EF02ED
(1724769165.382306) can0 5E0#00FFFFFF00008000
(1724769165.383474) can0 4A0#000000000000CCFF
(1724769165.383551) can0 5A0#000000B34004102B
(1724769165.383818) can0 1A0#00010000FEFE000D
(1724769165.384085) can0 320#0200000100000000
(1724769165.391870) can0 050#00093831
(1724769165.391956) can0 38A#02020000
(1724769165.392184) can0 388#F002F2
(1724769165.392488) can0 470#002A00FF02
(1724769165.392690) can0 570#8720FF00
(1724769165.392890) can0 5D0#800240A03041
(1724769165.393292) can0 5D8#550C000310000000
(1724769165.402012) can0 5E0#00FFFFFF00008000
(1724769165.403422) can0 4A0#000000000000CCFF
(1724769165.403461) can0 5A0#000000814804102B
(1724769165.403861) can0 1A0#00010000FEFE000E
(1724769165.404026) can0 320#0200000100000000
(1724769165.412000) can0 38A#12021000
(1724769165.412054) can0 388#F102F3
(1724769165.412273) can0 050#00094841
(1724769165.422317) can0 5E0#00FFFFFF00008000
(1724769165.423581) can0 4A0#000000000000CCFF
(1724769165.423662) can0 5A0#0000005A5004102B
(1724769165.423904) can0 1A0#00010000FEFE000F
(1724769165.424134) can0 320#0200000100000000
(1724769165.432023) can0 050#00095851
(1724769165.432088) can0 38A#22022000
(1724769165.432413) can0 388#F202F0
(1724769165.433843) can0 520#1DC40003055E4B03
(1724769165.442246) can0 470#002A00FF02
(1724769165.442384) can0 5E0#00FFFFFF00008000
(1724769165.443401) can0 4A0#000000000000CCFF
(1724769165.443552) can0 320#0200000100000000
(1724769165.443926) can0 5A0#000000225804102B
(1724769165.444029) can0 1A0#00010000FEFE0000
(1724769165.451868) can0 050#00096861
(1724769165.452272) can0 38A#32023000
(1724769165.452376) can0 388#F302F1
(1724769165.462063) can0 5E0#00FFFFFF00008000
(1724769165.463538) can0 4A0#000000000000CCFF
(1724769165.463599) can0 320#0200000100000000
(1724769165.463926) can0 5A0#000000FA5F04102B
(1724769165.464115) can0 1A0#00010000FEFE0001
(1724769165.471870) can0 050#00097871
(1724769165.471910) can0 38A#42024000
(1724769165.472187) can0 388#F402F6
(1724769165.482204) can0 5E0#00FFFFFF00008000
(1724769165.483389) can0 4A0#000000000000CCFF
(1724769165.483439) can0 5A0#000000C26704102B
(1724769165.483875) can0 1A0#00010000FEFE0002
(1724769165.484039) can0 320#0200000100000000
(1724769165.492113) can0 050#00098881
(1724769165.492184) can0 38A#52025000
(1724769165.492544) can0 388#F502F7
(1724769165.492803) can0 470#002A00FF02
(1724769165.492938) can0 570#8720FF00
(1724769165.493240) can0 5D0#800240A03041
(1724769165.493536) can0 5D8#550C000310000000
(1724769165.502734) can0 5E0#00FFFFFF00008000
(1724769165.503551) can0 4A0#000000000000CCFF
(1724769165.503576) can0 320#0200000100000000
(1724769165.503914) can0 5A0#000000936F04102B
(1724769165.504080) can0 1A0#00010000FEFE0003
(1724769165.511935) can0 050#00099891
(1724769165.512275) can0 38A#62026000
(1724769165.512434) can0 388#F602F4
(1724769165.522689) can0 5E0#00FFFFFF00008000
(1724769165.523472) can0 320#0200000100000000
(1724769165.523609) can0 4A0#000000000000CCFF
(1724769165.524021) can0 5A0#0000006B7704102B
(1724769165.524126) can0 1A0#00010000FEFE0004
(1724769165.532014) can0 050#0009A8A1
(1724769165.532121) can0 38A#72027000
(1724769165.532216) can0 388#F702F5
(1724769165.542322) can0 470#002A00FF02
(1724769165.542463) can0 5E0#00FFFFFF00008000
(1724769165.543413) can0 4A0#000000000000CCFF
(1724769165.543568) can0 5A0#000000317F04102B
(1724769165.543722) can0 1A0#00010000FEFE0005
(1724769165.544059) can0 320#0200000100000000
(1724769165.544408) can0 420#829594FF00008000
(1724769165.552077) can0 050#0009B8B1
(1724769165.552177) can0 38A#82028000
(1724769165.552273) can0 388#F802FA
(1724769165.562298) can0 5E0#00FFFFFF00008000
(1724769165.563523) can0 320#0200000100000000
(1724769165.563608) can0 4A0#000000000000CCFF
(1724769165.563797) can0 5A0#000000098704102B
(1724769165.564217) can0 1A0#00010000FEFE0006
(1724769165.572292) can0 38A#92029000
(1724769165.572360) can0 388#F902FB
(1724769165.572529) can0 050#0009C8C1
(1724769165.582389) can0 5E0#00FFFFFF00008000
(1724769165.583640) can0 4A0#000000000000CCFF
(1724769165.583797) can0 320#0200000100000000
(1724769165.583956) can0 5A0#000000DE8E04102B
(1724769165.584304) can0 1A0#00010000FEFE0007
(1724769165.592043) can0 050#0009D8D1
(1724769165.592460) can0 38A#A202A000
(1724769165.592579) can0 388#FA02F8
(1724769165.592878) can0 470#002A00FF02
(1724769165.593027) can0 570#8720FF00
(1724769165.593452) can0 5D0#800240A03041
(1724769165.593582) can0 5D8#550C000310000000
(1724769165.602255) can0 5E0#00FFFFFF00008000
(1724769165.603632) can0 4A0#000000000000CCFF
(1724769165.603721) can0 320#0200000100000000
(1724769165.604032) can0 5A0#000000AE9604102B
(1724769165.604265) can0 1A0#00010000FEFE0008
(1724769165.612129) can0 050#0009E8E1
(1724769165.612253) can0 38A#B202B000
(1724769165.612415) can0 388#FB02F9
(1724769165.622294) can0 5E0#00FFFFFF00008000
(1724769165.623479) can0 4A0#000000000000CCFF
(1724769165.623549) can0 320#0200000100000000
(1724769165.623901) can0 5A0#000000759E04102B
(1724769165.624134) can0 1A0#00010000FEFE0009
(1724769165.632149) can0 050#0009F8F1
(1724769165.632235) can0 38A#C202C000
(1724769165.632534) can0 388#FC02FE
(1724769165.634059) can0 520#01010003055E4B03
(1724769165.642699) can0 470#002A00FF02
(1724769165.642789) can0 5E0#00FFFFFF00008000
(1724769165.643611) can0 320#0200000100000000
(1724769165.643743) can0 4A0#000000000000CCFF
(1724769165.643897) can0 5A0#0000004FA604102B
(1724769165.644217) can0 1A0#00010000FEFE000A
(1724769165.652150) can0 050#00090801
(1724769165.652180) can0 38A#D202D000
(1724769165.652316) can0 388#FD02FF
(1724769165.662580) can0 5E0#00FFFFFF00008000
(1724769165.663421) can0 4A0#000000000000CCFF
(1724769165.663526) can0 5A0#00000010AE04102B
(1724769165.663860) can0 1A0#00010000FEFE000B
(1724769165.664067) can0 320#0200000100000000
(1724769165.672161) can0 050#00091811
(1724769165.672216) can0 38A#E202E000
(1724769165.672440) can0 388#FE02FC
(1724769165.682254) can0 5E0#00FFFFFF00008000
(1724769165.683703) can0 4A0#000000000000CCFF
(1724769165.683764) can0 320#0200000100000000
(1724769165.684079) can0 5A0#000000F0B504102B
(1724769165.684363) can0 1A0#00010000FEFE000C
(1724769165.692195) can0 050#00092821
(1724769165.692317) can0 38A#F202F000
(1724769165.692667) can0 388#FF02FD
(1724769165.692748) can0 470#002A00FF02
(1724769165.693076) can0 570#8720FF00
(1724769165.693359) can0 5D0#800240A03041
(1724769165.693687) can0 5D8#550C000310000000
(1724769165.702487) can0 5E0#00FFFFFF00008000
(1724769165.703539) can0 320#0200000100000000
(1724769165.703601) can0 4A0#000000000000CCFF
(1724769165.703947) can0 5A0#000000C0BD04102B
(1724769165.704170) can0 1A0#00010000FEFE000D
(1724769165.712175) can0 050#00093831
(1724769165.712845) can0 38A#02020000
(1724769165.712906) can0 388#000202
(1724769165.722589) can0 5E0#00FFFFFF00008000
(1724769165.723362) can0 4A0#000000000000CCFF
(1724769165.723520) can0 5A0#0000007CC504102B
(1724769165.723819) can0 1A0#00010000FEFE000E
(1724769165.724012) can0 320#0200000100000000
(1724769165.732162) can0 050#00094841
(1724769165.732912) can0 38A#12021000
(1724769165.733089) can0 388#010203
(1724769165.742560) can0 470#002A00FF02
(1724769165.742733) can0 5E0#00FFFFFF00008000
(1724769165.743495) can0 320#0200000100000000
(1724769165.743662) can0 4A0#000000000000CCFF
(1724769165.743962) can0 420#829594FF00008000
(1724769165.744168) can0 5A0#0000005DCD04102B
(1724769165.744496) can0 1A0#00010000FEFE000F
(1724769165.752243) can0 050#00095851
(1724769165.752278) can0 38A#22022000
(1724769165.752531) can0 388#020200
(1724769165.762444) can0 5E0#00FFFFFF00008000
(1724769165.763485) can0 4A0#000000000000CCFF
(1724769165.763546) can0 320#0200000100000000
(1724769165.763884) can0 5A0#00000024D504102B
(1724769165.764123) can0 1A0#00010000FEFE0000
