(1757317471.969606) can0 7E8#06410C00000D00AA
(1757317471.969877) can0 7E9#06410C00000D00AA
(1757317471.984380) can0 7DF#03010C0D00000000
(1757317471.989935) can0 7E8#06410C00000D00AA
(1757317471.990453) can0 7E9#06410C00000D00AA
(1757317472.004411) can0 7DF#03010C0D00000000
(1757317472.009767) can0 7E8#06410C00000D00AA
(1757317472.010014) can0 7E9#06410C00000D00AA
(1757317472.024919) can0 7DF#03010C0D00000000
(1757317472.029553) can0 7E8#06410C00000D00AA
(1757317472.029871) can0 7E9#06410C00000D00AA
(1757317472.044592) can0 7DF#03010C0D00000000
(1757317472.049968) can0 7E8#06410C00000D00AA
(1757317472.050412) can0 7E9#06410C00000D00AA
(1757317472.065357) can0 7DF#03010C0D00000000
(1757317472.069640) can0 7E8#06410C00000D00AA
(1757317472.070047) can0 7E9#06410C00000D00AA
(1757317472.084915) can0 7DF#03010C0D00000000
(1757317472.089923) can0 7E8#06410C00000D00AA
(1757317472.089952) can0 7E9#06410C00000D00AA
(1757317472.104462) can0 7DF#03010C0D00000000
(1757317472.109803) can0 7E8#06410C00000D00AA
(1757317472.109991) can0 7E9#06410C00000D00AA
(1757317472.125058) can0 7DF#03010C0D00000000
(1757317472.129832) can0 7E8#06410C00000D00AA
(1757317472.129862) can0 7E9#06410C00000D00AA
(1757317472.144624) can0 7DF#03010C0D00000000
(1757317472.149841) can0 7E8#06410C00000D00AA
(1757317472.150376) can0 7E9#06410C00000D00AA
(1757317472.164856) can0 7DF#03010C0D00000000
(1757317472.169637) can0 7E8#06410C00000D00AA
(1757317472.169862) can0 7E9#06410C00000D00AA
(1757317472.184687) can0 7DF#03010C0D00000000
(1757317472.190054) can0 7E8#06410C00000D00AA
(1757317472.190332) can0 7E9#06410C00000D00AA
(1757317472.205447) can0 7DF#03010C0D00000000
(1757317472.209676) can0 7E8#06410C00000D00AA
(1757317472.210194) can0 7E9#06410C00000D00AA
(1757317472.225330) can0 7DF#03010C0D00000000
(1757317472.229624) can0 7E8#06410C00000D00AA
(1757317472.229844) can0 7E9#06410C00000D00AA
(1757317472.244365) can0 7DF#03010C0D00000000
(1757317472.249893) can0 7E8#06410C00000D00AA
(1757317472.250345) can0 7E9#06410C00000D00AA
(1757317472.265448) can0 7DF#03010C0D00000000
(1757317472.269609) can0 7E8#06410C00000D00AA
(1757317472.269848) can0 7E9#06410C00000D00AA
(1757317472.285443) can0 7DF#03010C0D00000000
(1757317472.290213) can0 7E8#06410C00000D00AA
(1757317472.290424) can0 7E9#06410C00000D00AA
(1757317472.305451) can0 7DF#03010C0D00000000
(1757317472.309750) can0 7E8#06410C00000D00AA
(1757317472.310202) can0 7E9#06410C00000D00AA
(1757317472.324887) can0 7DF#03010C0D00000000
(1757317472.329666) can0 7E8#06410C00000D00AA
(1757317472.329738) can0 7E9#06410C00000D00AA
(1757317472.341479) can0 17F00010#2010000000000000
(1757317472.344169) can0 7DF#03010C0D00000000
(1757317472.350032) can0 7E8#06410C00000D00AA
(1757317472.350378) can0 7E9#06410C00000D00AA
(1757317472.365265) can0 7DF#03010C0D00000000
(1757317472.369653) can0 7E8#06410C00000D00AA
(1757317472.369756) can0 7E9#06410C00000D00AA
(1757317472.384355) can0 7DF#03010C0D00000000
(1757317472.390515) can0 7E8#06410C00000D00AA
(1757317472.390547) can0 7E9#06410C00000D00AA
(1757317472.405250) can0 7DF#03010C0D00000000
(1757317472.409901) can0 7E8#06410C00000D00AA
(1757317472.410036) can0 7E9#06410C00000D00AA
(1757317472.424995) can0 7DF#03010C0D00000000
(1757317472.429937) can0 7E8#06410C00000D00AA
(1757317472.430225) can0 7E9#06410C00000D00AA
(1757317472.444676) can0 7DF#03010C0D00000000
(1757317472.450026) can0 7E8#06410C00000D00AA
(1757317472.450530) can0 7E9#06410C00000D00AA
(1757317472.464988) can0 7DF#03010C0D00000000
(1757317472.470082) can0 7E8#06410C00000D00AA
(1757317472.470273) can0 7E9#06410C00000D00AA
(1757317472.485174) can0 7DF#03010C0D00000000
(1757317472.490296) can0 7E8#06410C00000D00AA
(1757317472.490377) can0 7E9#06410C00000D00AA
(1757317472.505441) can0 7DF#03010C0D00000000
(1757317472.510437) can0 7E8#06410C00000D00AA
(1757317472.510512) can0 7E9#06410C00000D00AA
(1757317472.524407) can0 7DF#03010C0D00000000
(1757317472.529725) can0 7E8#06410C00000D00AA
(1757317472.529978) can0 7E9#06410C00000D00AA
(1757317472.545472) can0 7DF#03010C0D00000000
(1757317472.550018) can0 7E8#06410C00000D00AA
(1757317472.550444) can0 7E9#06410C00000D00AA
(1757317472.564482) can0 7DF#03010C0D00000000
(1757317472.569571) can0 7E9#06410C00000D00AA
(1757317472.569813) can0 7E8#06410C00000D00AA
(1757317472.583848) can0 7DF#03010C0D00000000
(1757317472.590159) can0 7E8#06410C00000D00AA
(1757317472.590306) can0 7E9#06410C00000D00AA
(1757317472.604056) can0 7DF#03010C0D00000000
(1757317472.609797) can0 7E8#06410C00000D00AA
(1757317472.610261) can0 7E9#06410C00000D00AA
(1757317472.625361) can0 7DF#03010C0D00000000
(1757317472.629926) can0 7E8#06410C00000D00AA
(1757317472.630132) can0 7E9#06410C00000D00AA
(1757317472.645440) can0 7DF#03010C0D00000000
(1757317472.650308) can0 7E8#06410C00000D00AA
(1757317472.650968) can0 7E9#06410C00000D00AA
(1757317472.664334) can0 7DF#03010C0D00000000
(1757317472.669766) can0 7E8#06410C00000D00AA
(1757317472.669998) can0 7E9#06410C00000D00AA
(1757317472.684936) can0 7DF#03010C0D00000000
(1757317472.690312) can0 7E8#06410C00000D00AA
(1757317472.690740) can0 7E9#06410C00000D00AA
(1757317472.704433) can0 7DF#03010C0D00000000
(1757317472.710151) can0 7E8#06410C00000D00AA
(1757317472.710354) can0 7E9#06410C00000D00AA
(1757317472.725427) can0 7DF#03010C0D00000000
(1757317472.729825) can0 7E8#06410C00000D00AA
(1757317472.730299) can0 7E9#06410C00000D00AA
(1757317472.744943) can0 7DF#03010C0D00000000
(1757317472.749992) can0 7E8#06410C00000D00AA
(1757317472.750423) can0 7E9#06410C00000D00AA
(1757317472.765310) can0 7DF#03010C0D00000000
(1757317472.769924) can0 7E8#06410C00000D00AA
(1757317472.770227) can0 7E9#06410C00000D00AA
(1757317472.785489) can0 7DF#03010C0D00000000
(1757317472.790387) can0 7E8#06410C00000D00AA
(1757317472.790887) can0 7E9#06410C00000D00AA
(1757317472.803854) can0 7DF#03010C0D00000000
(1757317472.810129) can0 7E8#06410C00000D00AA
(1757317472.810312) can0 7E9#06410C00000D00AA
(1757317472.825438) can0 7DF#03010C0D00000000
(1757317472.830219) can0 7E8#06410C00000D00AA
(1757317472.830931) can0 7E9#06410C00000D00AA
(1757317472.841180) can0 17F00010#2010000000000000
(1757317472.844215) can0 7DF#03010C0D00000000
(1757317472.851262) can0 7E8#06410C00000D00AA
(1757317472.851464) can0 7E9#06410C00000D00AA
(1757317472.865346) can0 7DF#03010C0D00000000
(1757317472.869718) can0 7E8#06410C00000D00AA
(1757317472.870263) can0 7E9#06410C00000D00AA
(1757317472.884520) can0 7DF#03010C0D00000000
(1757317472.890907) can0 7E8#06410C00000D00AA
(1757317472.891366) can0 7E9#06410C00000D00AA
(1757317472.905458) can0 7DF#03010C0D00000000
(1757317472.910399) can0 7E8#06410C00000D00AA
(1757317472.910841) can0 7E9#06410C00000D00AA
(1757317472.925436) can0 7DF#03010C0D00000000
(1757317472.930871) can0 7E8#06410C00000D00AA
(1757317472.931125) can0 7E9#06410C00000D00AA
(1757317472.943854) can0 7DF#03010C0D00000000
(1757317472.950994) can0 7E8#06410C00000D00AA
(1757317472.951238) can0 7E9#06410C00000D00AA
(1757317472.965131) can0 7DF#03010C0D00000000
(1757317472.969604) can0 7E8#06410C00000D00AA
(1757317472.970105) can0 7E9#06410C00000D00AA
(1757317472.985493) can0 7DF#03010C0D00000000
(1757317472.989750) can0 7E8#06410C00000D00AA
(1757317472.990726) can0 7E9#06410C00000D00AA
(1757317473.005520) can0 7DF#03010C0D00000000
(1757317473.010006) can0 7E8#06410C00000D00AA
(1757317473.010473) can0 7E9#06410C00000D00AA
(1757317473.024597) can0 7DF#03010C0D00000000
(1757317473.029866) can0 7E8#06410C00000D00AA
(1757317473.030138) can0 7E9#06410C00000D00AA
(1757317473.045492) can0 7DF#03010C0D00000000
(1757317473.050721) can0 7E8#06410C00000D00AA
(1757317473.050751) can0 7E9#06410C00000D00AA
(1757317473.064772) can0 7DF#03010C0D00000000
(1757317473.069736) can0 7E8#06410C00000D00AA
(1757317473.069950) can0 7E9#06410C00000D00AA
(1757317473.084365) can0 7DF#03010C0D00000000
(1757317473.089774) can0 7E8#06410C00000D00AA
(1757317473.090007) can0 7E9#06410C00000D00AA
(1757317473.105138) can0 7DF#03010C0D00000000
(1757317473.109893) can0 7E8#06410C00000D00AA
(1757317473.110317) can0 7E9#06410C00000D00AA
(1757317473.124717) can0 7DF#03010C0D00000000
(1757317473.129809) can0 7E8#06410C00000D00AA
(1757317473.129966) can0 7E9#06410C00000D00AA
(1757317473.145376) can0 7DF#03010C0D00000000
(1757317473.150156) can0 7E8#06410C00000D00AA
(1757317473.150594) can0 7E9#06410C00000D00AA
(1757317473.164359) can0 7DF#03010C0D00000000
(1757317473.169691) can0 7E9#06410C00000D00AA
(1757317473.169959) can0 7E8#06410C00000D00AA
(1757317473.185390) can0 7DF#03010C0D00000000
(1757317473.189721) can0 7E9#06410C00000D00AA
(1757317473.189823) can0 7E8#06410C00000D00AA
(1757317473.205429) can0 7DF#03010C0D00000000
(1757317473.209664) can0 7E9#06410C00000D00AA
(1757317473.209860) can0 7E8#06410C00000D00AA
(1757317473.224416) can0 7DF#03010C0D00000000
(1757317473.229667) can0 7E9#06410C00000D00AA
(1757317473.229898) can0 7E8#06410C00000D00AA
(1757317473.245368) can0 7DF#03010C0D00000000
(1757317473.250005) can0 7E8#06410C00000D00AA
(1757317473.250191) can0 7E9#06410C00000D00AA
(1757317473.265418) can0 7DF#03010C0D00000000
(1757317473.269718) can0 7E8#06410C00000D00AA
(1757317473.269908) can0 7E9#06410C00000D00AA
(1757317473.285386) can0 7DF#03010C0D00000000
(1757317473.289733) can0 7E9#06410C00000D00AA
(1757317473.289936) can0 7E8#06410C00000D00AA
(1757317473.304680) can0 7DF#03010C0D00000000
(1757317473.309697) can0 7E8#06410C00000D00AA
(1757317473.309910) can0 7E9#06410C00000D00AA
(1757317473.324864) can0 7DF#03010C0D00000000
(1757317473.329662) can0 7E9#06410C00000D00AA
(1757317473.329891) can0 7E8#06410C00000D00AA
(1757317473.341487) can0 17F00010#2010000000000000
(1757317473.345249) can0 7DF#03010C0D00000000
(1757317473.350302) can0 7E8#06410C00000D00AA
(1757317473.351054) can0 7E9#06410C00000D00AA
(1757317473.364374) can0 7DF#03010C0D00000000
(1757317473.369785) can0 7E8#06410C00000D00AA
(1757317473.370078) can0 7E9#06410C00000D00AA
(1757317473.385392) can0 7DF#03010C0D00000000
(1757317473.389971) can0 7E8#06410C00000D00AA
(1757317473.391479) can0 7E9#06410C00000D00AA
(1757317473.405480) can0 7DF#03010C0D00000000
(1757317473.409869) can0 7E8#06410C00000D00AA
(1757317473.410113) can0 7E9#06410C00000D00AA
(1757317473.425403) can0 7DF#03010C0D00000000
(1757317473.429740) can0 7E8#06410C00000D00AA
(1757317473.430022) can0 7E9#06410C00000D00AA
(1757317473.444967) can0 7DF#03010C0D00000000
(1757317473.449951) can0 7E8#06410C00000D00AA
(1757317473.450083) can0 7E9#06410C00000D00AA
(1757317473.465432) can0 7DF#03010C0D00000000
(1757317473.469951) can0 7E8#06410C00000D00AA
(1757317473.470203) can0 7E9#06410C00000D00AA
(1757317473.484988) can0 7DF#03010C0D00000000
(1757317473.489722) can0 7E9#06410C00000D00AA
(1757317473.490218) can0 7E8#06410C00000D00AA
(1757317473.504460) can0 7DF#03010C0D00000000
(1757317473.509594) can0 7E9#06410C00000D00AA
(1757317473.510180) can0 7E8#06410C00000D00AA
(1757317473.525856) can0 7DF#03010C0D00000000
(1757317473.529713) can0 7E9#06410C00000D00AA
(1757317473.529965) can0 7E8#06410C00000D00AA
(1757317473.545690) can0 7DF#03010C0D00000000
(1757317473.549763) can0 7E8#06410C00000D00AA
(1757317473.549968) can0 7E9#06410C00000D00AA
(1757317473.565455) can0 7DF#03010C0D00000000
(1757317473.569670) can0 7E9#06410C00000D00AA
(1757317473.570206) can0 7E8#06410C00000D00AA
(1757317473.584329) can0 7DF#03010C0D00000000
(1757317473.589555) can0 7E9#06410C00000D00AA
(1757317473.590124) can0 7E8#06410C00000D00AA
(1757317473.605582) can0 7DF#03010C0D00000000
(1757317473.609633) can0 7E9#06410C00000D00AA
(1757317473.609913) can0 7E8#06410C00000D00AA
(1757317473.624947) can0 7DF#03010C0D00000000
(1757317473.629788) can0 7E9#06410C00000D00AA
(1757317473.630173) can0 7E8#06410C00000D00AA
(1757317473.644359) can0 7DF#03010C0D00000000
(1757317473.649760) can0 7E9#06410C00000D00AA
(1757317473.649810) can0 7E8#06410C00000D00AA
(1757317473.664601) can0 7DF#03010C0D00000000
(1757317473.669621) can0 7E9#06410C01D80D00AA
(1757317473.669941) can0 7E8#06410C00000D00AA
(1757317473.685481) can0 7DF#03010C0D00000000
(1757317473.689721) can0 7E9#06410C01FC0D00AA
(1757317473.690007) can0 7E8#06410C00000D00AA
(1757317473.705427) can0 7DF#03010C0D00000000
(1757317473.709652) can0 7E9#06410C02180D00AA
(1757317473.709936) can0 7E8#06410C00000D00AA
(1757317473.725369) can0 7DF#03010C0D00000000
(1757317473.729719) can0 7E8#06410C00000D00AA
(1757317473.729942) can0 7E9#06410C02440D00AA
(1757317473.745373) can0 7DF#03010C0D00000000
(1757317473.749730) can0 7E8#06410C00000D00AA
(1757317473.749938) can0 7E9#06410C02780D00AA
(1757317473.765681) can0 7DF#03010C0D00000000
(1757317473.769699) can0 7E8#06410C00000D00AA
(1757317473.769963) can0 7E9#06410C02A00D00AA
(1757317473.784469) can0 7DF#03010C0D00000000
(1757317473.789700) can0 7E8#06410C02F20D00AA
(1757317473.790020) can0 7E9#06410C02D80D00AA
(1757317473.805121) can0 7DF#03010C0D00000000
(1757317473.809702) can0 7E8#06410C02F20D00AA
(1757317473.810078) can0 7E9#06410C03380D00AA
(1757317473.825008) can0 7DF#03010C0D00000000
(1757317473.829752) can0 7E8#06410C02F20D00AA
(1757317473.829823) can0 7E9#06410C03680D00AA
(1757317473.841563) can0 17F00010#2010000000000000
(1757317473.844064) can0 7DF#03010C0D00000000
(1757317473.849745) can0 7E8#06410C02F20D00AA
(1757317473.849983) can0 7E9#06410C03940D00AA
(1757317473.864536) can0 7DF#03010C0D00000000
(1757317473.869720) can0 7E8#06410C02F20D00AA
(1757317473.869995) can0 7E9#06410C03E00D00AA
(1757317473.885390) can0 7DF#03010C0D00000000
(1757317473.889670) can0 7E8#06410C02F20D00AA
(1757317473.889962) can0 7E9#06410C040C0D00AA
(1757317473.905088) can0 7DF#03010C0D00000000
(1757317473.909774) can0 7E8#06410C02F20D00AA
(1757317473.909976) can0 7E9#06410C04380D00AA
(1757317473.924366) can0 7DF#03010C0D00000000
(1757317473.929717) can0 7E8#06410C02F20D00AA
(1757317473.929924) can0 7E9#06410C045C0D00AA
(1757317473.944231) can0 7DF#03010C0D00000000
(1757317473.949734) can0 7E8#06410C02F20D00AA
(1757317473.949952) can0 7E9#06410C04840D00AA
(1757317473.963844) can0 7DF#03010C0D00000000
(1757317473.969710) can0 7E8#06410C02F20D00AA
(1757317473.969908) can0 7E9#06410C049C0D00AA
(1757317473.983927) can0 7DF#03010C0D00000000
(1757317473.989600) can0 7E8#06410C049A0D00AA
(1757317473.989839) can0 7E9#06410C04B80D00AA
(1757317474.003926) can0 7DF#03010C0D00000000
(1757317474.009674) can0 7E8#06410C049A0D00AA
(1757317474.009914) can0 7E9#06410C04D80D00AA
(1757317474.025385) can0 7DF#03010C0D00000000
(1757317474.029735) can0 7E8#06410C049A0D00AA
(1757317474.029960) can0 7E9#06410C04E80D00AA
(1757317474.045579) can0 7DF#03010C0D00000000
(1757317474.049796) can0 7E8#06410C049A0D00AA
(1757317474.049854) can0 7E9#06410C05040D00AA
(1757317474.064360) can0 7DF#03010C0D00000000
(1757317474.069701) can0 7E8#06410C049A0D00AA
(1757317474.069986) can0 7E9#06410C056C0D00AA
(1757317474.085414) can0 7DF#03010C0D00000000
(1757317474.089775) can0 7E8#06410C049A0D00AA
(1757317474.089847) can0 7E9#06410C06D00D00AA
(1757317474.105336) can0 7DF#03010C0D00000000
(1757317474.109735) can0 7E8#06410C049A0D00AA
(1757317474.109867) can0 7E9#06410C07880D00AA
(1757317474.125383) can0 7DF#03010C0D00000000
(1757317474.129795) can0 7E8#06410C049A0D00AA
(1757317474.129850) can0 7E9#06410C080C0D00AA
(1757317474.144999) can0 7DF#03010C0D00000000
(1757317474.149799) can0 7E8#06410C049A0D00AA
(1757317474.149941) can0 7E9#06410C08A00D00AA
(1757317474.164985) can0 7DF#03010C0D00000000
(1757317474.169728) can0 7E8#06410C049A0D00AA
(1757317474.169962) can0 7E9#06410C09BC0D00AA
(1757317474.184961) can0 7DF#03010C0D00000000
(1757317474.189737) can0 7E8#06410C09E20D00AA
(1757317474.189949) can0 7E9#06410C0A280D00AA
(1757317474.203880) can0 7DF#03010C0D00000000
(1757317474.209734) can0 7E8#06410C09E20D00AA
(1757317474.209872) can0 7E9#06410C0B340D00AA
(1757317474.224869) can0 7DF#03010C0D00000000
(1757317474.229719) can0 7E8#06410C09E20D00AA
(1757317474.229941) can0 7E9#06410C0C280D00AA
(1757317474.244727) can0 7DF#03010C0D00000000
(1757317474.250199) can0 7E8#06410C09E20D00AA
(1757317474.250228) can0 7E9#06410C0CBC0D00AA
(1757317474.264851) can0 7DF#03010C0D00000000
(1757317474.269717) can0 7E8#06410C09E20D00AA
(1757317474.269973) can0 7E9#06410C0C480D00AA
(1757317474.284924) can0 7DF#03010C0D00000000
(1757317474.289756) can0 7E8#06410C09E20D00AA
(1757317474.289863) can0 7E9#06410C0C7C0D00AA
(1757317474.304816) can0 7DF#03010C0D00000000
(1757317474.309753) can0 7E8#06410C09E20D00AA
(1757317474.309841) can0 7E9#06410C0DC40D00AA
(1757317474.325015) can0 7DF#03010C0D00000000
(1757317474.329741) can0 7E8#06410C09E20D00AA
(1757317474.329989) can0 7E9#06410C0E780D00AA
(1757317474.341346) can0 17F00010#2010000000000000
(1757317474.344594) can0 7DF#03010C0D00000000
(1757317474.349752) can0 7E8#06410C09E20D00AA
(1757317474.349972) can0 7E9#06410C0EDC0D00AA
(1757317474.365030) can0 7DF#03010C0D00000000
(1757317474.369793) can0 7E8#06410C09E20D00AA
(1757317474.369849) can0 7E9#06410C0F200D00AA
(1757317474.385226) can0 7DF#03010C0D00000000
(1757317474.389764) can0 7E8#06410C0F980D00AA
(1757317474.389908) can0 7E9#06410C0FA40D00AA
(1757317474.405521) can0 7DF#03010C0D00000000
(1757317474.409763) can0 7E8#06410C0F980D00AA
(1757317474.410005) can0 7E9#06410C10200D00AA
(1757317474.424718) can0 7DF#03010C0D00000000
(1757317474.429738) can0 7E8#06410C0F980D00AA
(1757317474.429955) can0 7E9#06410C10A00D00AA
(1757317474.444911) can0 7DF#03010C0D00000000
(1757317474.449828) can0 7E8#06410C0F980D00AA
(1757317474.449964) can0 7E9#06410C10F00D00AA
(1757317474.464922) can0 7DF#03010C0D00000000
(1757317474.469750) can0 7E8#06410C0F980D00AA
(1757317474.470013) can0 7E9#06410C11500D00AA
(1757317474.484414) can0 7DF#03010C0D00000000
(1757317474.489779) can0 7E8#06410C0F980D00AA
(1757317474.489977) can0 7E9#06410C11B80D00AA
(1757317474.504875) can0 7DF#03010C0D00000000
(1757317474.509798) can0 7E8#06410C0F980D00AA
(1757317474.509890) can0 7E9#06410C12080D00AA
(1757317474.524989) can0 7DF#03010C0D00000000
(1757317474.529776) can0 7E8#06410C0F980D00AA
(1757317474.529924) can0 7E9#06410C12380D00AA
(1757317474.544947) can0 7DF#03010C0D00000000
(1757317474.549776) can0 7E8#06410C0F980D00AA
(1757317474.549997) can0 7E9#06410C12680D00AA
(1757317474.565468) can0 7DF#03010C0D00000000
(1757317474.569728) can0 7E8#06410C0F980D00AA
(1757317474.569981) can0 7E9#06410C12900D00AA
(1757317474.584877) can0 7DF#03010C0D00000000
(1757317474.589767) can0 7E8#06410C12BA0D00AA
(1757317474.589926) can0 7E9#06410C12B40D00AA
(1757317474.604231) can0 7DF#03010C0D00000000
(1757317474.609774) can0 7E8#06410C12BA0D00AA
(1757317474.609931) can0 7E9#06410C12C00D00AA
(1757317474.623871) can0 7DF#03010C0D00000000
(1757317474.629781) can0 7E8#06410C12BA0D00AA
(1757317474.629979) can0 7E9#06410C12CC0D00AA
(1757317474.643934) can0 7DF#03010C0D00000000
(1757317474.649975) can0 7E8#06410C12BA0D00AA
(1757317474.650021) can0 7E9#06410C12D40D00AA
(1757317474.664893) can0 7DF#03010C0D00000000
(1757317474.669742) can0 7E8#06410C12BA0D00AA
(1757317474.669920) can0 7E9#06410C12E00D00AA
(1757317474.684852) can0 7DF#03010C0D00000000
(1757317474.689763) can0 7E8#06410C12BA0D00AA
(1757317474.690128) can0 7E9#06410C12D40D00AA
(1757317474.704990) can0 7DF#03010C0D00000000
(1757317474.709724) can0 7E8#06410C12BA0D00AA
(1757317474.710004) can0 7E9#06410C12B80D00AA
(1757317474.725011) can0 7DF#03010C0D00000000
(1757317474.729799) can0 7E8#06410C12BA0D00AA
(1757317474.729869) can0 7E9#06410C12A00D00AA
(1757317474.744830) can0 7DF#03010C0D00000000
(1757317474.749830) can0 7E8#06410C12BA0D00AA
(1757317474.749931) can0 7E9#06410C12980D00AA
(1757317474.764357) can0 7DF#03010C0D00000000
(1757317474.769748) can0 7E8#06410C12BA0D00AA
(1757317474.769951) can0 7E9#06410C12740D00AA
(1757317474.785506) can0 7DF#03010C0D00000000
(1757317474.789784) can0 7E8#06410C12400D00AA
(1757317474.789910) can0 7E9#06410C12480D00AA
(1757317474.805368) can0 7DF#03010C0D00000000
(1757317474.809856) can0 7E8#06410C12400D00AA
(1757317474.809965) can0 7E9#06410C12180D00AA
(1757317474.825423) can0 7DF#03010C0D00000000
(1757317474.829791) can0 7E8#06410C12400D00AA
(1757317474.829887) can0 7E9#06410C11E80D00AA
(1757317474.841142) can0 17F00010#2010000000000000
(1757317474.844209) can0 7DF#03010C0D00000000
(1757317474.849786) can0 7E8#06410C12400D00AA
(1757317474.850053) can0 7E9#06410C11CC0D00AA
(1757317474.865458) can0 7DF#03010C0D00000000
(1757317474.869863) can0 7E8#06410C12400D00AA
(1757317474.869916) can0 7E9#06410C11BC0D00AA
(1757317474.885208) can0 7DF#03010C0D00000000
(1757317474.889846) can0 7E8#06410C12400D00AA
(1757317474.890330) can0 7E9#06410C11900D00AA
(1757317474.904412) can0 7DF#03010C0D00000000
(1757317474.909823) can0 7E8#06410C12400D00AA
(1757317474.910337) can0 7E9#06410C11700D00AA
(1757317474.925009) can0 7DF#03010C0D00000000
(1757317474.929795) can0 7E8#06410C12400D00AA
(1757317474.930334) can0 7E9#06410C11600D00AA
(1757317474.944987) can0 7DF#03010C0D00000000
(1757317474.949846) can0 7E8#06410C12400D00AA
(1757317474.950340) can0 7E9#06410C11580D00AA
(1757317474.965248) can0 7DF#03010C0D00000000
(1757317474.969806) can0 7E8#06410C12400D00AA
(1757317474.970339) can0 7E9#06410C11540D00AA
(1757317474.985024) can0 7DF#03010C0D00000000
(1757317474.989756) can0 7E8#06410C11440D00AA
(1757317474.990346) can0 7E9#06410C11400D00AA
(1757317475.005566) can0 7DF#03010C0D00000000
(1757317475.009812) can0 7E8#06410C11440D00AA
(1757317475.010315) can0 7E9#06410C11200D00AA
(1757317475.025517) can0 7DF#03010C0D00000000
(1757317475.029822) can0 7E8#06410C11440D00AA
(1757317475.030377) can0 7E9#06410C10F80D00AA
(1757317475.044357) can0 7DF#03010C0D00000000
(1757317475.049858) can0 7E8#06410C11440D00AA
(1757317475.050304) can0 7E9#06410C10C40D00AA
(1757317475.065486) can0 7DF#03010C0D00000000
(1757317475.070216) can0 7E8#06410C11440D00AA
(1757317475.070296) can0 7E9#06410C10980D00AA
(1757317475.085144) can0 7DF#03010C0D00000000
(1757317475.089851) can0 7E8#06410C11440D00AA
(1757317475.090289) can0 7E9#06410C105C0D00AA
(1757317475.104955) can0 7DF#03010C0D00000000
(1757317475.109794) can0 7E8#06410C11440D00AA
(1757317475.110479) can0 7E9#06410C102C0D00AA
(1757317475.124697) can0 7DF#03010C0D00000000
(1757317475.129823) can0 7E8#06410C11440D00AA
(1757317475.130490) can0 7E9#06410C10040D00AA
(1757317475.144757) can0 7DF#03010C0D00000000
(1757317475.150128) can0 7E8#06410C11440D00AA
(1757317475.150212) can0 7E9#06410C0FE80D00AA
(1757317475.165155) can0 7DF#03010C0D00000000
(1757317475.169846) can0 7E8#06410C11440D00AA
(1757317475.170323) can0 7E9#06410C0FD00D00AA
(1757317475.183864) can0 7DF#03010C0D00000000
(1757317475.189867) can0 7E8#06410C0FBE0D00AA
(1757317475.190314) can0 7E9#06410C0FBC0D00AA
(1757317475.204905) can0 7DF#03010C0D00000000
(1757317475.210056) can0 7E8#06410C0FBE0D00AA
(1757317475.210331) can0 7E9#06410C0FB00D00AA
(1757317475.224595) can0 7DF#03010C0D00000000
(1757317475.229849) can0 7E8#06410C0FBE0D00AA
(1757317475.230381) can0 7E9#06410C0FA40D00AA
(1757317475.244689) can0 7DF#03010C0D00000000
(1757317475.249842) can0 7E8#06410C0FBE0D00AA
(1757317475.250299) can0 7E9#06410C0F8C0D00AA
(1757317475.264614) can0 7DF#03010C0D00000000
(1757317475.269799) can0 7E8#06410C0FBE0D00AA
(1757317475.270342) can0 7E9#06410C0F5C0D00AA
(1757317475.285401) can0 7DF#03010C0D00000000
(1757317475.289771) can0 7E8#06410C0FBE0D00AA
(1757317475.290347) can0 7E9#06410C0F340D00AA
(1757317475.305509) can0 7DF#03010C0D00000000
(1757317475.309783) can0 7E8#06410C0FBE0D00AA
(1757317475.310338) can0 7E9#06410C0F100D00AA
(1757317475.324450) can0 7DF#03010C0D00000000
(1757317475.329827) can0 7E8#06410C0FBE0D00AA
(1757317475.330340) can0 7E9#06410C0EF00D00AA
(1757317475.341335) can0 17F00010#2010000000000000
(1757317475.344408) can0 7DF#03010C0D00000000
(1757317475.349870) can0 7E8#06410C0FBE0D00AA
(1757317475.350316) can0 7E9#06410C0ED80D00AA
(1757317475.365423) can0 7DF#03010C0D00000000
(1757317475.369791) can0 7E8#06410C0FBE0D00AA
(1757317475.370368) can0 7E9#06410C0EC40D00AA
(1757317475.383881) can0 7DF#03010C0D00000000
(1757317475.389784) can0 7E8#06410C0EC20D00AA
(1757317475.390370) can0 7E9#06410C0EB80D00AA
(1757317475.405635) can0 7DF#03010C0D00000000
(1757317475.409803) can0 7E8#06410C0EC20D00AA
(1757317475.410383) can0 7E9#06410C0E880D00AA
(1757317475.424842) can0 7DF#03010C0D00000000
(1757317475.429801) can0 7E8#06410C0EC20D00AA
(1757317475.430388) can0 7E9#06410C0E4C0D00AA
(1757317475.444879) can0 7DF#03010C0D00000000
(1757317475.450255) can0 7E8#06410C0EC20D00AA
(1757317475.450286) can0 7E9#06410C0E280D00AA
(1757317475.464349) can0 7DF#03010C0D00000000
(1757317475.469812) can0 7E8#06410C0EC20D00AA
(1757317475.470363) can0 7E9#06410C0DF40D00AA
(1757317475.485511) can0 7DF#03010C0D00000000
(1757317475.489774) can0 7E8#06410C0EC20D00AA
(1757317475.490390) can0 7E9#06410C0DBC0D00AA
(1757317475.504796) can0 7DF#03010C0D00000000
(1757317475.509854) can0 7E8#06410C0EC20D00AA
(1757317475.510389) can0 7E9#06410C0D9C0D00AA
(1757317475.525001) can0 7DF#03010C0D00000000
(1757317475.529807) can0 7E8#06410C0EC20D00AA
(1757317475.530371) can0 7E9#06410C0D8C0D00AA
(1757317475.544756) can0 7DF#03010C0D00000000
(1757317475.550451) can0 7E8#06410C0EC20D00AA
(1757317475.550697) can0 7E9#06410C0D8C0D00AA
(1757317475.564800) can0 7DF#03010C0D00000000
(1757317475.569729) can0 7E8#06410C0EC20D00AA
(1757317475.570295) can0 7E9#06410C0D880D00AA
(1757317475.585279) can0 7DF#03010C0D00000000
(1757317475.589803) can0 7E8#06410C0D760D00AA
(1757317475.590398) can0 7E9#06410C0D4C0D00AA
(1757317475.604685) can0 7DF#03010C0D00000000
(1757317475.609773) can0 7E8#06410C0D760D00AA
(1757317475.610360) can0 7E9#06410C0D240D00AA
(1757317475.625327) can0 7DF#03010C0D00000000
(1757317475.629820) can0 7E8#06410C0D760D00AA
(1757317475.630390) can0 7E9#06410C0D240D00AA
(1757317475.644979) can0 7DF#03010C0D00000000
(1757317475.649856) can0 7E8#06410C0D760D00AA
(1757317475.650375) can0 7E9#06410C0D040D00AA
(1757317475.664947) can0 7DF#03010C0D00000000
(1757317475.669794) can0 7E8#06410C0D760D00AA
(1757317475.670438) can0 7E9#06410C0CCC0D00AA
(1757317475.684336) can0 7DF#03010C0D00000000
(1757317475.689812) can0 7E8#06410C0D760D00AA
(1757317475.690382) can0 7E9#06410C0CA00D00AA
(1757317475.705377) can0 7DF#03010C0D00000000
(1757317475.709871) can0 7E8#06410C0D760D00AA
(1757317475.710317) can0 7E9#06410C0C700D00AA
(1757317475.725420) can0 7DF#03010C0D00000000
(1757317475.729993) can0 7E8#06410C0D760D00AA
(1757317475.730350) can0 7E9#06410C0C380D00AA
(1757317475.744345) can0 7DF#03010C0D00000000
(1757317475.749816) can0 7E8#06410C0D760D00AA
(1757317475.750363) can0 7E9#06410C0C040D00AA
(1757317475.764851) can0 7DF#03010C0D00000000
(1757317475.769887) can0 7E8#06410C0D760D00AA
(1757317475.770368) can0 7E9#06410C0BE80D00AA
(1757317475.785104) can0 7DF#03010C0D00000000
(1757317475.790049) can0 7E8#06410C0BD60D00AA
(1757317475.790341) can0 7E9#06410C0BD80D00AA
(1757317475.805602) can0 7DF#03010C0D00000000
(1757317475.809815) can0 7E8#06410C0BD60D00AA
(1757317475.810337) can0 7E9#06410C0BE00D00AA
(1757317475.824985) can0 7DF#03010C0D00000000
(1757317475.829901) can0 7E8#06410C0BD60D00AA
(1757317475.830278) can0 7E9#06410C0BE40D00AA
(1757317475.841448) can0 17F00010#2010000000000000
(1757317475.845073) can0 7DF#03010C0D00000000
(1757317475.849918) can0 7E8#06410C0BD60D00AA
(1757317475.850310) can0 7E9#06410C0BB80D00AA
(1757317475.864941) can0 7DF#03010C0D00000000
(1757317475.870027) can0 7E8#06410C0BD60D00AA
(1757317475.870294) can0 7E9#06410C0B840D00AA
(1757317475.884338) can0 7DF#03010C0D00000000
(1757317475.889902) can0 7E8#06410C0BD60D00AA
(1757317475.890288) can0 7E9#06410C0B780D00AA
(1757317475.905081) can0 7DF#03010C0D00000000
(1757317475.909724) can0 7E8#06410C0BD60D00AA
(1757317475.910332) can0 7E9#06410C0B700D00AA
(1757317475.924884) can0 7DF#03010C0D00000000
(1757317475.929953) can0 7E8#06410C0BD60D00AA
(1757317475.930191) can0 7E9#06410C0B580D00AA
(1757317475.944877) can0 7DF#03010C0D00000000
(1757317475.950516) can0 7E8#06410C0BD60D00AA
(1757317475.951024) can0 7E9#06410C0B3C0D00AA
(1757317475.964880) can0 7DF#03010C0D00000000
(1757317475.970212) can0 7E9#06410C0B180D00AA
(1757317475.973867) can0 7E8#06410C0BD60D00AA
(1757317475.984867) can0 7DF#03010C0D00000000
(1757317475.990070) can0 7E8#06410C0B200D00AA
(1757317475.990125) can0 7E9#06410C0AE40D00AA
(1757317476.004810) can0 7DF#03010C0D00000000
(1757317476.009885) can0 7E8#06410C0B200D00AA
(1757317476.010151) can0 7E9#06410C0AC80D00AA
(1757317476.024360) can0 7DF#03010C0D00000000
(1757317476.029869) can0 7E8#06410C0B200D00AA
(1757317476.030206) can0 7E9#06410C0AC40D00AA
(1757317476.045004) can0 7DF#03010C0D00000000
(1757317476.049902) can0 7E8#06410C0B200D00AA
(1757317476.050286) can0 7E9#06410C0AAC0D00AA
(1757317476.064944) can0 7DF#03010C0D00000000
(1757317476.069883) can0 7E8#06410C0B200D00AA
(1757317476.070207) can0 7E9#06410C0A740D00AA
(1757317476.084674) can0 7DF#03010C0D00000000
(1757317476.089865) can0 7E8#06410C0B200D00AA
(1757317476.090184) can0 7E9#06410C0A540D00AA
(1757317476.104764) can0 7DF#03010C0D00000000
(1757317476.109836) can0 7E8#06410C0B200D00AA
(1757317476.110182) can0 7E9#06410C0A640D00AA
(1757317476.124972) can0 7DF#03010C0D00000000
(1757317476.129898) can0 7E8#06410C0B200D00AA
(1757317476.130127) can0 7E9#06410C0A680D00AA
(1757317476.144514) can0 7DF#03010C0D00000000
(1757317476.150054) can0 7E8#06410C0B200D00AA
(1757317476.150280) can0 7E9#06410C0A740D00AA
(1757317476.163964) can0 7DF#03010C0D00000000
(1757317476.169847) can0 7E8#06410C0B200D00AA
(1757317476.170170) can0 7E9#06410C0A840D00AA
(1757317476.185350) can0 7DF#03010C0D00000000
(1757317476.189845) can0 7E8#06410C0AB20D00AA
(1757317476.190109) can0 7E9#06410C0AB40D00AA
(1757317476.205579) can0 7DF#03010C0D00000000
(1757317476.209861) can0 7E8#06410C0AB20D00AA
(1757317476.210137) can0 7E9#06410C0AC40D00AA
(1757317476.225468) can0 7DF#03010C0D00000000
(1757317476.229846) can0 7E8#06410C0AB20D00AA
(1757317476.230114) can0 7E9#06410C0ABC0D00AA
(1757317476.245304) can0 7DF#03010C0D00000000
(1757317476.249915) can0 7E8#06410C0AB20D00AA
(1757317476.250391) can0 7E9#06410C0ACC0D00AA
(1757317476.265442) can0 7DF#03010C0D00000000
(1757317476.269920) can0 7E8#06410C0AB20D00AA
(1757317476.270138) can0 7E9#06410C0AD00D00AA
(1757317476.284984) can0 7DF#03010C0D00000000
(1757317476.289903) can0 7E8#06410C0AB20D00AA
(1757317476.290124) can0 7E9#06410C0ACC0D00AA
(1757317476.304338) can0 7DF#03010C0D00000000
(1757317476.309895) can0 7E8#06410C0AB20D00AA
(1757317476.310120) can0 7E9#06410C0AD40D00AA
(1757317476.325469) can0 7DF#03010C0D00000000
(1757317476.329932) can0 7E8#06410C0AB20D00AA
(1757317476.330191) can0 7E9#06410C0AD80D00AA
(1757317476.341229) can0 17F00010#2010000000000000
(1757317476.344029) can0 7DF#03010C0D00000000
(1757317476.349894) can0 7E8#06410C0AB20D00AA
(1757317476.350127) can0 7E9#06410C0AD40D00AA
(1757317476.365513) can0 7DF#03010C0D00000000
(1757317476.369825) can0 7E8#06410C0AB20D00AA
(1757317476.370094) can0 7E9#06410C0AA80D00AA
(1757317476.384920) can0 7DF#03010C0D00000000
(1757317476.389890) can0 7E8#06410C0A720D00AA
(1757317476.389960) can0 7E9#06410C0A780D00AA
(1757317476.405208) can0 7DF#03010C0D00000000
(1757317476.410233) can0 7E9#06410C0A5C0D00AA
(1757317476.413984) can0 7E8#06410C0A720D00AA
(1757317476.425062) can0 7DF#03010C0D00000000
(1757317476.429903) can0 7E8#06410C0A720D00AA
(1757317476.430304) can0 7E9#06410C0A4C0D00AA
(1757317476.444441) can0 7DF#03010C0D00000000
(1757317476.449941) can0 7E8#06410C0A720D00AA
(1757317476.450056) can0 7E9#06410C0A380D00AA
(1757317476.465329) can0 7DF#03010C0D00000000
(1757317476.469913) can0 7E8#06410C0A720D00AA
(1757317476.470014) can0 7E9#06410C0A200D00AA
(1757317476.485515) can0 7DF#03010C0D00000000
(1757317476.489923) can0 7E8#06410C0A720D00AA
(1757317476.490011) can0 7E9#06410C0A280D00AA
(1757317476.505465) can0 7DF#03010C0D00000000
(1757317476.509853) can0 7E8#06410C0A720D00AA
(1757317476.510010) can0 7E9#06410C0A580D00AA
(1757317476.525322) can0 7DF#03010C0D00000000
(1757317476.529881) can0 7E8#06410C0A720D00AA
(1757317476.529990) can0 7E9#06410C0A600D00AA
(1757317476.545196) can0 7DF#03010C0D00000000
(1757317476.549929) can0 7E8#06410C0A720D00AA
(1757317476.550019) can0 7E9#06410C0B000D00AA
(1757317476.565331) can0 7DF#03010C0D00000000
(1757317476.569895) can0 7E8#06410C0A720D00AA
(1757317476.570148) can0 7E9#06410C0B700D00AA
(1757317476.584333) can0 7DF#03010C0D00000000
(1757317476.589883) can0 7E8#06410C0BD20D00AA
(1757317476.590126) can0 7E9#06410C0C180D00AA
(1757317476.605399) can0 7DF#03010C0D00000000
(1757317476.609930) can0 7E8#06410C0BD20D00AA
(1757317476.610115) can0 7E9#06410C0CE00D00AA
(1757317476.624982) can0 7DF#03010C0D00000000
(1757317476.629948) can0 7E8#06410C0BD20D00AA
(1757317476.630164) can0 7E9#06410C0DC80D00AA
(1757317476.645089) can0 7DF#03010C0D00000000
(1757317476.649885) can0 7E8#06410C0BD20D00AA
(1757317476.650009) can0 7E9#06410C0EE00D00AA
(1757317476.664838) can0 7DF#03010C0D00000000
(1757317476.669896) can0 7E8#06410C0BD20D00AA
(1757317476.670034) can0 7E9#06410C0FD80D00AA
(1757317476.685223) can0 7DF#03010C0D00000000
(1757317476.689928) can0 7E8#06410C0BD20D00AA
(1757317476.689992) can0 7E9#06410C0FBC0D00AA
(1757317476.705198) can0 7DF#03010C0D00000000
(1757317476.709928) can0 7E8#06410C0BD20D00AA
(1757317476.710143) can0 7E9#06410C103C0D00AA
(1757317476.724330) can0 7DF#03010C0D00000000
(1757317476.729911) can0 7E8#06410C0BD20D00AA
(1757317476.730031) can0 7E9#06410C10600D00AA
(1757317476.744013) can0 7DF#03010C0D00000000
(1757317476.749928) can0 7E8#06410C0BD20D00AA
(1757317476.750029) can0 7E9#06410C10940D00AA
(1757317476.764788) can0 7DF#03010C0D00000000
(1757317476.769905) can0 7E8#06410C0BD20D00AA
(1757317476.770106) can0 7E9#06410C10900D00AA
(1757317476.784972) can0 7DF#03010C0D00000000
(1757317476.789830) can0 7E8#06410C10940D00AA
(1757317476.790086) can0 7E9#06410C10880D00AA
(1757317476.804499) can0 7DF#03010C0D00000000
(1757317476.809828) can0 7E9#06410C10A80D00AA
(1757317476.810130) can0 7E8#06410C10940D00AA
(1757317476.825585) can0 7DF#03010C0D00000000
(1757317476.829865) can0 7E8#06410C10940D00AA
(1757317476.830135) can0 7E9#06410C10A40D00AA
(1757317476.841254) can0 17F00010#2010000000000000
(1757317476.844206) can0 7DF#03010C0D00000000
(1757317476.850918) can0 7E8#06410C10940D00AA
(1757317476.851372) can0 7E9#06410C10940D00AA
(1757317476.864434) can0 7DF#03010C0D00000000
(1757317476.869888) can0 7E8#06410C10940D00AA
(1757317476.870272) can0 7E9#06410C10840D00AA
(1757317476.885416) can0 7DF#03010C0D00000000
(1757317476.889852) can0 7E9#06410C10A40D00AA
(1757317476.890097) can0 7E8#06410C10940D00AA
(1757317476.905572) can0 7DF#03010C0D00000000
(1757317476.909833) can0 7E8#06410C10940D00AA
(1757317476.910011) can0 7E9#06410C10AC0D00AA
(1757317476.925448) can0 7DF#03010C0D00000000
(1757317476.929873) can0 7E8#06410C10940D00AA
(1757317476.930080) can0 7E9#06410C10B40D00AA
(1757317476.944847) can0 7DF#03010C0D00000000
(1757317476.949901) can0 7E8#06410C10940D00AA
(1757317476.950036) can0 7E9#06410C10C00D00AA
(1757317476.965455) can0 7DF#03010C0D00000000
(1757317476.969858) can0 7E8#06410C10940D00AA
(1757317476.970117) can0 7E9#06410C10CC0D00AA
(1757317476.985447) can0 7DF#03010C0D00000000
(1757317476.989885) can0 7E8#06410C10D80D00AA
(1757317476.990100) can0 7E9#06410C10D80D00AA
(1757317477.004347) can0 7DF#03010C0D00000000
(1757317477.009857) can0 7E8#06410C10D80D00AA
(1757317477.010092) can0 7E9#06410C10DC0D00AA
(1757317477.025475) can0 7DF#03010C0D00000000
(1757317477.029882) can0 7E8#06410C10D80D00AA
(1757317477.030117) can0 7E9#06410C10DC0D00AA
(1757317477.045135) can0 7DF#03010C0D00000000
(1757317477.049850) can0 7E9#06410C10D40D00AA
(1757317477.050367) can0 7E8#06410C10D80D00AA
(1757317477.065433) can0 7DF#03010C0D00000000
(1757317477.069838) can0 7E8#06410C10D80D00AA
(1757317477.070084) can0 7E9#06410C10C40D00AA
(1757317477.085489) can0 7DF#03010C0D00000000
(1757317477.089908) can0 7E9#06410C10B00D00AA
(1757317477.090027) can0 7E8#06410C10D80D00AA
(1757317477.105555) can0 7DF#03010C0D00000000
(1757317477.110097) can0 7E8#06410C10D80D00AA
(1757317477.110189) can0 7E9#06410C108C0D00AA
(1757317477.125502) can0 7DF#03010C0D00000000
(1757317477.129959) can0 7E8#06410C10D80D00AA
(1757317477.130014) can0 7E9#06410C10640D00AA
(1757317477.144333) can0 7DF#03010C0D00000000
(1757317477.150017) can0 7E8#06410C10D80D00AA
(1757317477.150080) can0 7E9#06410C103C0D00AA
(1757317477.165466) can0 7DF#03010C0D00000000
(1757317477.170043) can0 7E9#06410C10280D00AA
(1757317477.170073) can0 7E8#06410C10D80D00AA
(1757317477.184773) can0 7DF#03010C0D00000000
(1757317477.189941) can0 7E9#06410C10100D00AA
(1757317477.190008) can0 7E8#06410C10120D00AA
(1757317477.204718) can0 7DF#03010C0D00000000
(1757317477.209890) can0 7E9#06410C0FFC0D00AA
(1757317477.210089) can0 7E8#06410C10120D00AA
(1757317477.224688) can0 7DF#03010C0D00000000
(1757317477.230082) can0 7E8#06410C10120D00AA
(1757317477.230133) can0 7E9#06410C0FEC0D01AA
(1757317477.244924) can0 7DF#03010C0D00000000
(1757317477.250249) can0 7E8#06410C10120D01AA
(1757317477.250747) can0 7E9#06410C0FC80D01AA
(1757317477.264899) can0 7DF#03010C0D00000000
(1757317477.269903) can0 7E9#06410C0FAC0D01AA
(1757317477.270036) can0 7E8#06410C10120D01AA
(1757317477.283866) can0 7DF#03010C0D00000000
(1757317477.289896) can0 7E9#06410C0F940D01AA
(1757317477.290009) can0 7E8#06410C10120D01AA
(1757317477.305499) can0 7DF#03010C0D00000000
(1757317477.309925) can0 7E9#06410C0F700D01AA
(1757317477.310271) can0 7E8#06410C10120D01AA
(1757317477.325503) can0 7DF#03010C0D00000000
(1757317477.329898) can0 7E9#06410C0F540D01AA
(1757317477.330031) can0 7E8#06410C10120D01AA
(1757317477.341247) can0 17F00010#2010000000000000
(1757317477.344193) can0 7DF#03010C0D00000000
(1757317477.350126) can0 7E8#06410C10120D01AA
(1757317477.350869) can0 7E9#06410C0F380D01AA
(1757317477.365223) can0 7DF#03010C0D00000000
(1757317477.369902) can0 7E9#06410C0F140D01AA
(1757317477.370034) can0 7E8#06410C10120D01AA
(1757317477.385480) can0 7DF#03010C0D00000000
(1757317477.389905) can0 7E9#06410C0EF00D01AA
(1757317477.390041) can0 7E8#06410C0EF00D01AA
(1757317477.405541) can0 7DF#03010C0D00000000
(1757317477.410329) can0 7E8#06410C0EF00D01AA
(1757317477.410835) can0 7E9#06410C0EE80D01AA
(1757317477.423855) can0 7DF#03010C0D00000000
(1757317477.429875) can0 7E9#06410C0ECC0D01AA
(1757317477.430141) can0 7E8#06410C0EF00D01AA
(1757317477.445489) can0 7DF#03010C0D00000000
(1757317477.450124) can0 7E8#06410C0EF00D01AA
(1757317477.450845) can0 7E9#06410C0EB40D01AA
(1757317477.465477) can0 7DF#03010C0D00000000
(1757317477.470002) can0 7E9#06410C0EC80D01AA
(1757317477.470054) can0 7E8#06410C0EF00D01AA
(1757317477.485082) can0 7DF#03010C0D00000000
(1757317477.490062) can0 7E8#06410C0EF00D01AA
(1757317477.490301) can0 7E9#06410C0ED40D01AA
(1757317477.504605) can0 7DF#03010C0D00000000
(1757317477.509879) can0 7E8#06410C0EF00D01AA
(1757317477.510385) can0 7E9#06410C0EDC0D01AA
(1757317477.525592) can0 7DF#03010C0D00000000
(1757317477.529995) can0 7E8#06410C0EF00D01AA
(1757317477.530211) can0 7E9#06410C0EF80D02AA
(1757317477.545486) can0 7DF#03010C0D00000000
(1757317477.550089) can0 7E8#06410C0EF00D02AA
(1757317477.550991) can0 7E9#06410C0F180D02AA
(1757317477.564377) can0 7DF#03010C0D00000000
(1757317477.570085) can0 7E8#06410C0EF00D02AA
(1757317477.570585) can0 7E9#06410C0F400D02AA
(1757317477.585347) can0 7DF#03010C0D00000000
(1757317477.590063) can0 7E8#06410C0F4C0D02AA
(1757317477.590282) can0 7E9#06410C0F4C0D02AA
(1757317477.605628) can0 7DF#03010C0D00000000
(1757317477.610906) can0 7E8#06410C0F4C0D02AA
(1757317477.610969) can0 7E9#06410C0F5C0D02AA
(1757317477.625623) can0 7DF#03010C0D00000000
(1757317477.630106) can0 7E8#06410C0F4C0D02AA
(1757317477.630637) can0 7E9#06410C0F740D02AA
(1757317477.645017) can0 7DF#03010C0D00000000
(1757317477.650346) can0 7E8#06410C0F4C0D02AA
(1757317477.651045) can0 7E9#06410C0F780D02AA
(1757317477.665542) can0 7DF#03010C0D00000000
(1757317477.670221) can0 7E8#06410C0F4C0D02AA
(1757317477.670252) can0 7E9#06410C0F840D02AA
(1757317477.685352) can0 7DF#03010C0D00000000
(1757317477.690672) can0 7E8#06410C0F4C0D02AA
(1757317477.690751) can0 7E9#06410C0F800D02AA
(1757317477.704575) can0 7DF#03010C0D00000000
(1757317477.710218) can0 7E8#06410C0F4C0D02AA
(1757317477.710943) can0 7E9#06410C0F7C0D01AA
(1757317477.725080) can0 7DF#03010C0D00000000
(1757317477.730146) can0 7E8#06410C0F4C0D01AA
(1757317477.730632) can0 7E9#06410C0F740D01AA
(1757317477.745095) can0 7DF#03010C0D00000000
(1757317477.751033) can0 7E8#06410C0F4C0D01AA
(1757317477.751292) can0 7E9#06410C0F7C0D01AA
(1757317477.765007) can0 7DF#03010C0D00000000
(1757317477.770149) can0 7E8#06410C0F4C0D01AA
(1757317477.770382) can0 7E9#06410C0F780D01AA
(1757317477.784029) can0 7DF#03010C0D00000000
(1757317477.790523) can0 7E8#06410C0F760D01AA
(1757317477.790616) can0 7E9#06410C0F780D01AA
(1757317477.804109) can0 7DF#03010C0D00000000
(1757317477.810968) can0 7E8#06410C0F760D01AA
(1757317477.811030) can0 7E9#06410C0F700D01AA
(1757317477.824070) can0 7DF#03010C0D00000000
(1757317477.830388) can0 7E8#06410C0F760D01AA
(1757317477.830418) can0 7E9#06410C0F640D01AA
(1757317477.841234) can0 17F00010#2010000000000000
(1757317477.843965) can0 7DF#03010C0D00000000
(1757317477.851332) can0 7E8#06410C0F760D01AA
(1757317477.851376) can0 7E9#06410C0F380D01AA
(1757317477.864146) can0 7DF#03010C0D00000000
(1757317477.870911) can0 7E8#06410C0F760D01AA
(1757317477.870945) can0 7E9#06410C0F240D01AA
(1757317477.884014) can0 7DF#03010C0D00000000
(1757317477.891152) can0 7E8#06410C0F760D01AA
(1757317477.891184) can0 7E9#06410C0F080D01AA
(1757317477.903968) can0 7DF#03010C0D00000000
(1757317477.910298) can0 7E8#06410C0F760D01AA
(1757317477.911018) can0 7E9#06410C0EF40D01AA
(1757317477.924008) can0 7DF#03010C0D00000000
(1757317477.930921) can0 7E8#06410C0F760D01AA
(1757317477.930949) can0 7E9#06410C0EE40D01AA
(1757317477.944091) can0 7DF#03010C0D00000000
(1757317477.951289) can0 7E8#06410C0F760D01AA
(1757317477.951318) can0 7E9#06410C0ED00D01AA
(1757317477.964103) can0 7DF#03010C0D00000000
(1757317477.969981) can0 7E9#06410C0EA80D01AA
(1757317477.970206) can0 7E8#06410C0F760D01AA
(1757317477.983990) can0 7DF#03010C0D00000000
(1757317477.990027) can0 7E8#06410C0E8A0D01AA
(1757317477.991032) can0 7E9#06410C0E880D01AA
(1757317478.003907) can0 7DF#03010C0D00000000
(1757317478.011342) can0 7E8#06410C0E8A0D01AA
(1757317478.011419) can0 7E9#06410C0E640D01AA
(1757317478.024090) can0 7DF#03010C0D00000000
(1757317478.030012) can0 7E8#06410C0E8A0D01AA
(1757317478.030304) can0 7E9#06410C0E5C0D01AA
(1757317478.043915) can0 7DF#03010C0D00000000
(1757317478.051166) can0 7E8#06410C0E8A0D01AA
(1757317478.051538) can0 7E9#06410C0E480D01AA
(1757317478.064043) can0 7DF#03010C0D00000000
(1757317478.070376) can0 7E8#06410C0E8A0D01AA
(1757317478.070405) can0 7E9#06410C0E400D01AA
(1757317478.084039) can0 7DF#03010C0D00000000
(1757317478.089962) can0 7E9#06410C0E2C0D01AA
(1757317478.090369) can0 7E8#06410C0E8A0D01AA
(1757317478.103998) can0 7DF#03010C0D00000000
(1757317478.109937) can0 7E9#06410C0E180D01AA
(1757317478.110154) can0 7E8#06410C0E8A0D01AA
(1757317478.123950) can0 7DF#03010C0D00000000
(1757317478.129941) can0 7E9#06410C0E000D01AA
(1757317478.130964) can0 7E8#06410C0E8A0D01AA
(1757317478.144026) can0 7DF#03010C0D00000000
(1757317478.150338) can0 7E8#06410C0E8A0D01AA
(1757317478.151665) can0 7E9#06410C0DEC0D01AA
(1757317478.164082) can0 7DF#03010C0D00000000
(1757317478.170327) can0 7E8#06410C0E8A0D01AA
(1757317478.170760) can0 7E9#06410C0DDC0D01AA
(1757317478.184170) can0 7DF#03010C0D00000000
(1757317478.189939) can0 7E9#06410C0DC40D00AA
(1757317478.190141) can0 7E8#06410C0DC60D01AA
(1757317478.204011) can0 7DF#03010C0D00000000
(1757317478.210757) can0 7E8#06410C0DC60D00AA
(1757317478.211453) can0 7E9#06410C0DB80D00AA
(1757317478.224066) can0 7DF#03010C0D00000000
(1757317478.230012) can0 7E9#06410C0DAC0D00AA
(1757317478.230254) can0 7E8#06410C0DC60D00AA
(1757317478.244114) can0 7DF#03010C0D00000000
(1757317478.250552) can0 7E8#06410C0DC60D00AA
(1757317478.251041) can0 7E9#06410C0DA00D00AA
(1757317478.263955) can0 7DF#03010C0D00000000
(1757317478.270199) can0 7E8#06410C0DC60D00AA
(1757317478.270244) can0 7E9#06410C0DA40D00AA
(1757317478.283979) can0 7DF#03010C0D00000000
(1757317478.290121) can0 7E8#06410C0DC60D00AA
(1757317478.290200) can0 7E9#06410C0DB80D00AA
(1757317478.304063) can0 7DF#03010C0D00000000
(1757317478.310078) can0 7E8#06410C0DC60D00AA
(1757317478.310268) can0 7E9#06410C0DC40D00AA
(1757317478.324030) can0 7DF#03010C0D00000000
(1757317478.329997) can0 7E8#06410C0DC60D00AA
(1757317478.330247) can0 7E9#06410C0DD80D00AA
(1757317478.341397) can0 17F00010#2010000000000000
(1757317478.344067) can0 7DF#03010C0D00000000
(1757317478.350561) can0 7E8#06410C0DC60D00AA
(1757317478.350588) can0 7E9#06410C0DE80D00AA
(1757317478.364077) can0 7DF#03010C0D00000000
(1757317478.370260) can0 7E8#06410C0DC60D00AA
(1757317478.370288) can0 7E9#06410C0DFC0D00AA
(1757317478.384029) can0 7DF#03010C0D00000000
(1757317478.390029) can0 7E8#06410C0E040D00AA
(1757317478.390974) can0 7E9#06410C0E040D00AA
(1757317478.403987) can0 7DF#03010C0D00000000
(1757317478.410054) can0 7E8#06410C0E040D00AA
(1757317478.410807) can0 7E9#06410C0E100D00AA
(1757317478.423874) can0 7DF#03010C0D00000000
(1757317478.430170) can0 7E8#06410C0E040D00AA
(1757317478.430354) can0 7E9#06410C0E180D00AA
(1757317478.443836) can0 7DF#03010C0D00000000
(1757317478.450052) can0 7E8#06410C0E040D00AA
(1757317478.450543) can0 7E9#06410C0E240D00AA
(1757317478.463880) can0 7DF#03010C0D00000000
(1757317478.469889) can0 7E9#06410C0E340D00AA
(1757317478.470544) can0 7E8#06410C0E040D00AA
(1757317478.483893) can0 7DF#03010C0D00000000
(1757317478.489998) can0 7E9#06410C0E400D00AA
(1757317478.490687) can0 7E8#06410C0E040D00AA
(1757317478.504135) can0 7DF#03010C0D00000000
(1757317478.509994) can0 7E9#06410C0E480D00AA
(1757317478.510247) can0 7E8#06410C0E040D00AA
(1757317478.524127) can0 7DF#03010C0D00000000
(1757317478.529987) can0 7E9#06410C0E500D00AA
(1757317478.530111) can0 7E8#06410C0E040D00AA
(1757317478.544057) can0 7DF#03010C0D00000000
(1757317478.550094) can0 7E8#06410C0E040D00AA
(1757317478.550332) can0 7E9#06410C0E580D00AA
(1757317478.564060) can0 7DF#03010C0D00000000
(1757317478.569998) can0 7E9#06410C0E600D00AA
(1757317478.570259) can0 7E8#06410C0E040D00AA
(1757317478.583944) can0 7DF#03010C0D00000000
(1757317478.590051) can0 7E9#06410C0E600D00AA
(1757317478.590178) can0 7E8#06410C0E600D00AA
(1757317478.603937) can0 7DF#03010C0D00000000
(1757317478.610029) can0 7E8#06410C0E600D00AA
(1757317478.612436) can0 7E9#06410C0E640D00AA
(1757317478.624084) can0 7DF#03010C0D00000000
(1757317478.629972) can0 7E9#06410C0E740D00AA
(1757317478.630080) can0 7E8#06410C0E600D00AA
(1757317478.643929) can0 7DF#03010C0D00000000
(1757317478.650107) can0 7E8#06410C0E600D00AA
(1757317478.650224) can0 7E9#06410C0E7C0D00AA
(1757317478.663921) can0 7DF#03010C0D00000000
(1757317478.670036) can0 7E9#06410C0E800D00AA
(1757317478.670219) can0 7E8#06410C0E600D00AA
(1757317478.684042) can0 7DF#03010C0D00000000
(1757317478.689991) can0 7E9#06410C0E700D00AA
(1757317478.690272) can0 7E8#06410C0E600D00AA
(1757317478.703915) can0 7DF#03010C0D00000000
(1757317478.709999) can0 7E9#06410C0E700D00AA
(1757317478.710111) can0 7E8#06410C0E600D00AA
(1757317478.724151) can0 7DF#03010C0D00000000
(1757317478.730010) can0 7E9#06410C0E740D00AA
(1757317478.730110) can0 7E8#06410C0E600D00AA
(1757317478.743945) can0 7DF#03010C0D00000000
(1757317478.750074) can0 7E8#06410C0E600D00AA
(1757317478.750214) can0 7E9#06410C0E780D00AA
(1757317478.763933) can0 7DF#03010C0D00000000
(1757317478.769988) can0 7E9#06410C0E780D00AA
(1757317478.770210) can0 7E8#06410C0E600D00AA
(1757317478.783938) can0 7DF#03010C0D00000000
(1757317478.789992) can0 7E9#06410C0E840D00AA
(1757317478.790243) can0 7E8#06410C0E820D00AA
(1757317478.803905) can0 7DF#03010C0D00000000
(1757317478.810062) can0 7E8#06410C0E820D00AA
(1757317478.810507) can0 7E9#06410C0E840D00AA
(1757317478.824060) can0 7DF#03010C0D00000000
(1757317478.829980) can0 7E9#06410C0E840D00AA
(1757317478.830186) can0 7E8#06410C0E820D00AA
(1757317478.841246) can0 17F00010#2010000000000000
(1757317478.843899) can0 7DF#03010C0D00000000
(1757317478.850060) can0 7E8#06410C0E820D00AA
(1757317478.850245) can0 7E9#06410C0E800D00AA
(1757317478.864146) can0 7DF#03010C0D00000000
(1757317478.870038) can0 7E9#06410C0E8C0D00AA
(1757317478.870301) can0 7E8#06410C0E820D00AA
(1757317478.884147) can0 7DF#03010C0D00000000
(1757317478.890091) can0 7E8#06410C0E820D00AA
(1757317478.890554) can0 7E9#06410C0E980D00AA
(1757317478.904073) can0 7DF#03010C0D00000000
(1757317478.910019) can0 7E9#06410C0E9C0D00AA
(1757317478.910224) can0 7E8#06410C0E820D00AA
(1757317478.923928) can0 7DF#03010C0D00000000
(1757317478.930049) can0 7E9#06410C0EA40D00AA
(1757317478.930112) can0 7E8#06410C0E820D00AA
(1757317478.943971) can0 7DF#03010C0D00000000
(1757317478.950368) can0 7E8#06410C0E820D00AA
(1757317478.950653) can0 7E9#06410C0E9C0D00AA
(1757317478.964074) can0 7DF#03010C0D00000000
(1757317478.970096) can0 7E9#06410C0E980D00AA
(1757317478.970174) can0 7E8#06410C0E820D00AA
(1757317478.984156) can0 7DF#03010C0D00000000
(1757317478.990260) can0 7E8#06410C0E940D00AA
(1757317478.990358) can0 7E9#06410C0E940D00AA
(1757317479.003925) can0 7DF#03010C0D00000000
(1757317479.010409) can0 7E8#06410C0E940D00AA
(1757317479.010598) can0 7E9#06410C0E900D00AA
(1757317479.024161) can0 7DF#03010C0D00000000
(1757317479.029985) can0 7E9#06410C0E880D00AA
(1757317479.030205) can0 7E8#06410C0E940D00AA
(1757317479.044106) can0 7DF#03010C0D00000000
(1757317479.050211) can0 7E8#06410C0E940D00AA
(1757317479.050750) can0 7E9#06410C0E6C0D00AA
(1757317479.063921) can0 7DF#03010C0D00000000
(1757317479.070060) can0 7E8#06410C0E940D00AA
(1757317479.070466) can0 7E9#06410C0E5C0D00AA
(1757317479.084225) can0 7DF#03010C0D00000000
(1757317479.090238) can0 7E8#06410C0E940D00AA
(1757317479.090611) can0 7E9#06410C0E580D00AA
(1757317479.104141) can0 7DF#03010C0D00000000
(1757317479.110006) can0 7E8#06410C0E940D00AA
(1757317479.110567) can0 7E9#06410C0E500D00AA
(1757317479.124128) can0 7DF#03010C0D00000000
(1757317479.130141) can0 7E8#06410C0E940D00AA
(1757317479.130591) can0 7E9#06410C0E480D00AA
(1757317479.144111) can0 7DF#03010C0D00000000
(1757317479.150209) can0 7E8#06410C0E940D00AA
(1757317479.150671) can0 7E9#06410C0E3C0D00AA
(1757317479.163934) can0 7DF#03010C0D00000000
(1757317479.169989) can0 7E8#06410C0E940D00AA
(1757317479.170606) can0 7E9#06410C0E3C0D00AA
(1757317479.184022) can0 7DF#03010C0D00000000
(1757317479.190495) can0 7E8#06410C0E3C0D00AA
(1757317479.190564) can0 7E9#06410C0E400D00AA
(1757317479.203924) can0 7DF#03010C0D00000000
(1757317479.210086) can0 7E8#06410C0E3C0D00AA
(1757317479.210558) can0 7E9#06410C0E380D00AA
(1757317479.224100) can0 7DF#03010C0D00000000
(1757317479.230231) can0 7E8#06410C0E3C0D00AA
(1757317479.230563) can0 7E9#06410C0E300D00AA
(1757317479.244027) can0 7DF#03010C0D00000000
(1757317479.250377) can0 7E8#06410C0E3C0D00AA
(1757317479.250591) can0 7E9#06410C0E300D00AA
(1757317479.264147) can0 7DF#03010C0D00000000
(1757317479.270075) can0 7E8#06410C0E3C0D00AA
(1757317479.270567) can0 7E9#06410C0E380D00AA
(1757317479.284184) can0 7DF#03010C0D00000000
(1757317479.290077) can0 7E8#06410C0E3C0D00AA
(1757317479.290781) can0 7E9#06410C0E400D00AA
(1757317479.303929) can0 7DF#03010C0D00000000
(1757317479.310020) can0 7E8#06410C0E3C0D00AA
(1757317479.310568) can0 7E9#06410C0E2C0D00AA
(1757317479.324277) can0 7DF#03010C0D00000000
(1757317479.330080) can0 7E8#06410C0E3C0D00AA
(1757317479.330552) can0 7E9#06410C0E200D00AA
(1757317479.341266) can0 17F00010#2010000000000000
(1757317479.343904) can0 7DF#03010C0D00000000
(1757317479.350370) can0 7E8#06410C0E3C0D00AA
(1757317479.350554) can0 7E9#06410C0DFC0D00AA
(1757317479.363903) can0 7DF#03010C0D00000000
(1757317479.370254) can0 7E8#06410C0E3C0D00AA
(1757317479.370551) can0 7E9#06410C0DFC0D00AA
(1757317479.383956) can0 7DF#03010C0D00000000
(1757317479.389919) can0 7E8#06410C0DFC0D00AA
(1757317479.390622) can0 7E9#06410C0DEC0D00AA
(1757317479.404141) can0 7DF#03010C0D00000000
(1757317479.410101) can0 7E8#06410C0DFC0D00AA
(1757317479.410601) can0 7E9#06410C0DF00D00AA
(1757317479.424132) can0 7DF#03010C0D00000000
(1757317479.430073) can0 7E8#06410C0DFC0D00AA
(1757317479.430481) can0 7E9#06410C0DF80D00AA
(1757317479.444141) can0 7DF#03010C0D00000000
(1757317479.450019) can0 7E8#06410C0DFC0D00AA
(1757317479.450774) can0 7E9#06410C0DE40D00AA
(1757317479.464022) can0 7DF#03010C0D00000000
(1757317479.470042) can0 7E8#06410C0DFC0D00AA
(1757317479.470595) can0 7E9#06410C0DE40D00AA
(1757317479.484192) can0 7DF#03010C0D00000000
(1757317479.490027) can0 7E8#06410C0DFC0D00AA
(1757317479.490914) can0 7E9#06410C0DE00D00AA
(1757317479.503901) can0 7DF#03010C0D00000000
(1757317479.510068) can0 7E8#06410C0DFC0D00AA
(1757317479.510567) can0 7E9#06410C0DE00D00AA
(1757317479.524003) can0 7DF#03010C0D00000000
(1757317479.530017) can0 7E8#06410C0DFC0D00AA
(1757317479.530582) can0 7E9#06410C0DE40D00AA
(1757317479.544098) can0 7DF#03010C0D00000000
(1757317479.550171) can0 7E8#06410C0DFC0D00AA
(1757317479.550643) can0 7E9#06410C0DF00D00AA
(1757317479.564154) can0 7DF#03010C0D00000000
(1757317479.570094) can0 7E8#06410C0DFC0D00AA
(1757317479.570564) can0 7E9#06410C0DFC0D00AA
(1757317479.584181) can0 7DF#03010C0D00000000
(1757317479.590067) can0 7E8#06410C0E000D00AA
(1757317479.590763) can0 7E9#06410C0E0C0D00AA
(1757317479.603913) can0 7DF#03010C0D00000000
(1757317479.610078) can0 7E8#06410C0E000D00AA
(1757317479.610554) can0 7E9#06410C0E0C0D00AA
(1757317479.624087) can0 7DF#03010C0D00000000
(1757317479.630027) can0 7E8#06410C0E000D00AA
(1757317479.630584) can0 7E9#06410C0E140D00AA
(1757317479.644088) can0 7DF#03010C0D00000000
(1757317479.650165) can0 7E8#06410C0E000D00AA
(1757317479.650603) can0 7E9#06410C0E100D00AA
(1757317479.663952) can0 7DF#03010C0D00000000
(1757317479.670154) can0 7E8#06410C0E000D00AA
(1757317479.670555) can0 7E9#06410C0E140D00AA
(1757317479.683983) can0 7DF#03010C0D00000000
(1757317479.690193) can0 7E8#06410C0E000D00AA
(1757317479.690783) can0 7E9#06410C0E140D00AA
(1757317479.704178) can0 7DF#03010C0D00000000
(1757317479.710074) can0 7E8#06410C0E000D00AA
(1757317479.710592) can0 7E9#06410C0DFC0D00AA
(1757317479.724121) can0 7DF#03010C0D00000000
(1757317479.730038) can0 7E8#06410C0E000D00AA
(1757317479.730613) can0 7E9#06410C0DF40D00AA
(1757317479.744059) can0 7DF#03010C0D00000000
(1757317479.750284) can0 7E8#06410C0E000D00AA
(1757317479.750580) can0 7E9#06410C0DF40D00AA
(1757317479.764302) can0 7DF#03010C0D00000000
(1757317479.770071) can0 7E8#06410C0E000D00AA
(1757317479.770569) can0 7E9#06410C0DE40D00AA
(1757317479.784109) can0 7DF#03010C0D00000000
(1757317479.790245) can0 7E8#06410C0DE80D00AA
(1757317479.790543) can0 7E9#06410C0DF40D00AA
(1757317479.803990) can0 7DF#03010C0D00000000
(1757317479.810088) can0 7E8#06410C0DE80D00AA
(1757317479.810487) can0 7E9#06410C0E040D00AA
(1757317479.825333) can0 7DF#03010C0D00000000
(1757317479.830233) can0 7E8#06410C0DE80D00AA
(1757317479.830524) can0 7E9#06410C0E080D00AA
(1757317479.841432) can0 17F00010#2010000000000000
(1757317479.844893) can0 7DF#03010C0D00000000
(1757317479.850457) can0 7E8#06410C0DE80D00AA
(1757317479.850580) can0 7E9#06410C0E000D00AA
(1757317479.864569) can0 7DF#03010C0D00000000
(1757317479.870064) can0 7E8#06410C0DE80D00AA
(1757317479.870579) can0 7E9#06410C0E080D00AA
(1757317479.884011) can0 7DF#03010C0D00000000
(1757317479.890176) can0 7E8#06410C0DE80D00AA
(1757317479.890777) can0 7E9#06410C0E000D00AA
(1757317479.904724) can0 7DF#03010C0D00000000
(1757317479.910687) can0 7E8#06410C0DE80D00AA
(1757317479.910716) can0 7E9#06410C0DF80D00AA
(1757317479.924833) can0 7DF#03010C0D00000000
(1757317479.930297) can0 7E8#06410C0DE80D00AA
(1757317479.930681) can0 7E9#06410C0DFC0D00AA
(1757317479.944297) can0 7DF#03010C0D00000000
(1757317479.950425) can0 7E8#06410C0DE80D00AA
(1757317479.950507) can0 7E9#06410C0DF00D00AA
(1757317479.965458) can0 7DF#03010C0D00000000
(1757317479.970478) can0 7E9#06410C0DE80D00AA
(1757317479.975606) can0 7E8#06410C0DE80D00AA
(1757317479.984813) can0 7DF#03010C0D00000000
(1757317479.989971) can0 7E8#06410C0DE60D00AA
(1757317479.990393) can0 7E9#06410C0DE40D00AA
(1757317480.004199) can0 7DF#03010C0D00000000
(1757317480.010064) can0 7E8#06410C0DE60D00AA
(1757317480.010483) can0 7E9#06410C0DE40D00AA
(1757317480.024476) can0 7DF#03010C0D00000000
(1757317480.030072) can0 7E8#06410C0DE60D00AA
(1757317480.030556) can0 7E9#06410C0DE40D00AA
(1757317480.045177) can0 7DF#03010C0D00000000
(1757317480.050408) can0 7E8#06410C0DE60D00AA
(1757317480.050635) can0 7E9#06410C0DDC0D00AA
(1757317480.065404) can0 7DF#03010C0D00000000
(1757317480.070033) can0 7E8#06410C0DE60D00AA
(1757317480.070429) can0 7E9#06410C0DE00D00AA
(1757317480.084588) can0 7DF#03010C0D00000000
(1757317480.090069) can0 7E8#06410C0DE60D00AA
(1757317480.090515) can0 7E9#06410C0DD80D00AA
(1757317480.105576) can0 7DF#03010C0D00000000
(1757317480.110070) can0 7E8#06410C0DE60D00AA
(1757317480.110510) can0 7E9#06410C0DD40D00AA
(1757317480.125466) can0 7DF#03010C0D00000000
(1757317480.130022) can0 7E8#06410C0DE60D00AA
(1757317480.130492) can0 7E9#06410C0DD00D00AA
(1757317480.145524) can0 7DF#03010C0D00000000
(1757317480.150454) can0 7E8#06410C0DE60D00AA
(1757317480.150729) can0 7E9#06410C0DD00D00AA
(1757317480.164609) can0 7DF#03010C0D00000000
(1757317480.170045) can0 7E8#06410C0DE60D00AA
(1757317480.170537) can0 7E9#06410C0DCC0D00AA
(1757317480.185584) can0 7DF#03010C0D00000000
(1757317480.190302) can0 7E8#06410C0DC80D00AA
(1757317480.190550) can0 7E9#06410C0DC40D00AA
(1757317480.205177) can0 7DF#03010C0D00000000
(1757317480.210136) can0 7E8#06410C0DC80D00AA
(1757317480.210560) can0 7E9#06410C0DC00D00AA
(1757317480.224412) can0 7DF#03010C0D00000000
(1757317480.230041) can0 7E8#06410C0DC80D00AA
(1757317480.230562) can0 7E9#06410C0DB00D00AA
(1757317480.244542) can0 7DF#03010C0D00000000
(1757317480.250649) can0 7E9#06410C0DAC0D00AA
(1757317480.254564) can0 7E8#06410C0DC80D00AA
(1757317480.263938) can0 7DF#03010C0D00000000
(1757317480.270437) can0 7E9#06410C0DA00D00AA
(1757317480.274561) can0 7E8#06410C0DC80D00AA
(1757317480.284094) can0 7DF#03010C0D00000000
(1757317480.290083) can0 7E8#06410C0DC80D00AA
(1757317480.290492) can0 7E9#06410C0D900D00AA
(1757317480.305061) can0 7DF#03010C0D00000000
(1757317480.310071) can0 7E8#06410C0DC80D00AA
(1757317480.310506) can0 7E9#06410C0D980D00AA
(1757317480.324926) can0 7DF#03010C0D00000000
(1757317480.330029) can0 7E8#06410C0DC80D00AA
(1757317480.330523) can0 7E9#06410C0D940D00AA
(1757317480.341426) can0 17F00010#2010000000000000
(1757317480.343850) can0 7DF#03010C0D00000000
(1757317480.350839) can0 7E8#06410C0DC80D00AA
(1757317480.350871) can0 7E9#06410C0D840D00AA
(1757317480.364315) can0 7DF#03010C0D00000000
(1757317480.370096) can0 7E8#06410C0DC80D00AA
(1757317480.370608) can0 7E9#06410C0D900D00AA
(1757317480.385520) can0 7DF#03010C0D00000000
(1757317480.390179) can0 7E8#06410C0DA00D00AA
(1757317480.390573) can0 7E9#06410C0DA40D00AA
(1757317480.405574) can0 7DF#03010C0D00000000
(1757317480.410125) can0 7E8#06410C0DA00D00AA
(1757317480.410542) can0 7E9#06410C0D980D00AA
(1757317480.425821) can0 7DF#03010C0D00000000
(1757317480.430085) can0 7E8#06410C0DA00D00AA
(1757317480.430554) can0 7E9#06410C0D9C0D00AA
(1757317480.444311) can0 7DF#03010C0D00000000
(1757317480.450356) can0 7E8#06410C0DA00D00AA
(1757317480.450575) can0 7E9#06410C0DAC0D00AA
(1757317480.465292) can0 7DF#03010C0D00000000
(1757317480.470555) can0 7E9#06410C0DB00D00AA
(1757317480.474082) can0 7E8#06410C0DA00D00AA
(1757317480.484789) can0 7DF#03010C0D00000000
(1757317480.490079) can0 7E8#06410C0DA00D00AA
(1757317480.490575) can0 7E9#06410C0DB40D00AA
(1757317480.504605) can0 7DF#03010C0D00000000
(1757317480.510080) can0 7E8#06410C0DA00D00AA
(1757317480.510610) can0 7E9#06410C0DC80D00AA
(1757317480.525551) can0 7DF#03010C0D00000000
(1757317480.530309) can0 7E8#06410C0DA00D00AA
(1757317480.530569) can0 7E9#06410C0DC40D00AA
(1757317480.544991) can0 7DF#03010C0D00000000
(1757317480.550692) can0 7E8#06410C0DA00D00AA
(1757317480.550721) can0 7E9#06410C0DCC0D00AA
(1757317480.565044) can0 7DF#03010C0D00000000
(1757317480.570335) can0 7E9#06410C0DD80D00AA
(1757317480.574109) can0 7E8#06410C0DA00D00AA
(1757317480.584409) can0 7DF#03010C0D00000000
(1757317480.590117) can0 7E8#06410C0DD60D00AA
(1757317480.590543) can0 7E9#06410C0DD80D00AA
(1757317480.605534) can0 7DF#03010C0D00000000
(1757317480.610091) can0 7E8#06410C0DD60D00AA
(1757317480.610581) can0 7E9#06410C0DE40D00AA
(1757317480.625483) can0 7DF#03010C0D00000000
(1757317480.630132) can0 7E8#06410C0DD60D00AA
(1757317480.630541) can0 7E9#06410C0DEC0D00AA
(1757317480.644336) can0 7DF#03010C0D00000000
(1757317480.650472) can0 7E8#06410C0DD60D00AA
(1757317480.650682) can0 7E9#06410C0DE80D00AA
(1757317480.665786) can0 7DF#03010C0D00000000
(1757317480.670356) can0 7E9#06410C0DE80D00AA
(1757317480.674150) can0 7E8#06410C0DD60D00AA
(1757317480.685359) can0 7DF#03010C0D00000000
(1757317480.690344) can0 7E8#06410C0DD60D00AA
(1757317480.690550) can0 7E9#06410C0DF00D00AA
(1757317480.705311) can0 7DF#03010C0D00000000
(1757317480.710100) can0 7E8#06410C0DD60D00AA
(1757317480.710541) can0 7E9#06410C0DE40D00AA
(1757317480.724738) can0 7DF#03010C0D00000000
(1757317480.730335) can0 7E8#06410C0DD60D00AA
(1757317480.730437) can0 7E9#06410C0DE40D00AA
(1757317480.745408) can0 7DF#03010C0D00000000
(1757317480.750681) can0 7E8#06410C0DD60D00AA
(1757317480.750833) can0 7E9#06410C0DEC0D00AA
(1757317480.765486) can0 7DF#03010C0D00000000
(1757317480.770346) can0 7E8#06410C0DD60D00AA
(1757317480.770444) can0 7E9#06410C0DF00D00AA
(1757317480.784333) can0 7DF#03010C0D00000000
(1757317480.790536) can0 7E8#06410C0DF20D00AA
(1757317480.790604) can0 7E9#06410C0DF00D00AA
(1757317480.804864) can0 7DF#03010C0D00000000
(1757317480.810109) can0 7E8#06410C0DF20D00AA
(1757317480.810576) can0 7E9#06410C0E000D00AA
(1757317480.825316) can0 7DF#03010C0D00000000
(1757317480.830335) can0 7E8#06410C0DF20D00AA
(1757317480.830603) can0 7E9#06410C0DF40D00AA
(1757317480.841293) can0 17F00010#2010000000000000
(1757317480.844315) can0 7DF#03010C0D00000000
(1757317480.850501) can0 7E8#06410C0DF20D00AA
(1757317480.850712) can0 7E9#06410C0DF80D00AA
(1757317480.864331) can0 7DF#03010C0D00000000
(1757317480.870329) can0 7E8#06410C0DF20D00AA
(1757317480.870537) can0 7E9#06410C0E040D00AA
(1757317480.885409) can0 7DF#03010C0D00000000
(1757317480.890331) can0 7E8#06410C0DF20D00AA
(1757317480.890575) can0 7E9#06410C0E000D00AA
(1757317480.905484) can0 7DF#03010C0D00000000
(1757317480.910086) can0 7E8#06410C0DF20D00AA
(1757317480.910620) can0 7E9#06410C0E140D00AA
(1757317480.924330) can0 7DF#03010C0D00000000
(1757317480.930272) can0 7E8#06410C0DF20D00AA
(1757317480.930575) can0 7E9#06410C0E200D00AA
(1757317480.945306) can0 7DF#03010C0D00000000
(1757317480.950493) can0 7E8#06410C0DF20D00AA
(1757317480.950594) can0 7E9#06410C0E200D00AA
(1757317480.965540) can0 7DF#03010C0D00000000
(1757317480.970217) can0 7E9#06410C0E2C0D00AA
(1757317480.974148) can0 7E8#06410C0DF20D00AA
(1757317480.985549) can0 7DF#03010C0D00000000
(1757317480.990342) can0 7E8#06410C0E380D00AA
(1757317480.990481) can0 7E9#06410C0E380D00AA
(1757317481.004528) can0 7DF#03010C0D00000000
(1757317481.010080) can0 7E9#06410C0E3C0D00AA
(1757317481.010513) can0 7E8#06410C0E380D00AA
(1757317481.025456) can0 7DF#03010C0D00000000
(1757317481.030342) can0 7E8#06410C0E380D00AA
(1757317481.030423) can0 7E9#06410C0E3C0D00AA
(1757317481.045467) can0 7DF#03010C0D00000000
(1757317481.050566) can0 7E8#06410C0E380D00AA
(1757317481.050714) can0 7E9#06410C0E480D00AA
(1757317481.064310) can0 7DF#03010C0D00000000
(1757317481.070325) can0 7E8#06410C0E380D00AA
(1757317481.070548) can0 7E9#06410C0E4C0D00AA
(1757317481.085179) can0 7DF#03010C0D00000000
(1757317481.090302) can0 7E8#06410C0E380D00AA
(1757317481.090478) can0 7E9#06410C0E500D00AA
(1757317481.105447) can0 7DF#03010C0D00000000
(1757317481.110111) can0 7E8#06410C0E380D00AA
(1757317481.110590) can0 7E9#06410C0E6C0D00AA
(1757317481.125482) can0 7DF#03010C0D00000000
(1757317481.130272) can0 7E8#06410C0E380D00AA
(1757317481.130544) can0 7E9#06410C0E9C0D00AA
(1757317481.144366) can0 7DF#03010C0D00000000
(1757317481.150482) can0 7E8#06410C0E380D00AA
(1757317481.150696) can0 7E9#06410C0EB80D00AA
(1757317481.165171) can0 7DF#03010C0D00000000
(1757317481.170262) can0 7E8#06410C0E380D00AA
(1757317481.170521) can0 7E9#06410C0EE80D00AA
(1757317481.185281) can0 7DF#03010C0D00000000
(1757317481.190340) can0 7E8#06410C0F100D00AA
(1757317481.190407) can0 7E9#06410C0F1C0D00AA
(1757317481.204434) can0 7DF#03010C0D00000000
(1757317481.210127) can0 7E8#06410C0F100D00AA
(1757317481.210585) can0 7E9#06410C0F580D00AA
(1757317481.225295) can0 7DF#03010C0D00000000
(1757317481.230472) can0 7E8#06410C0F100D00AA
(1757317481.230614) can0 7E9#06410C0F980D00AA
(1757317481.245456) can0 7DF#03010C0D00000000
(1757317481.250482) can0 7E8#06410C0F100D00AA
(1757317481.250883) can0 7E9#06410C0FE00D00AA
(1757317481.265318) can0 7DF#03010C0D00000000
(1757317481.270301) can0 7E8#06410C0F100D00AA
(1757317481.270407) can0 7E9#06410C10200D00AA
(1757317481.284411) can0 7DF#03010C0D00000000
(1757317481.290480) can0 7E8#06410C0F100D00AA
(1757317481.290535) can0 7E9#06410C10680D00AA
(1757317481.304942) can0 7DF#03010C0D00000000
(1757317481.310150) can0 7E9#06410C10BC0D00AA
(1757317481.310579) can0 7E8#06410C0F100D00AA
(1757317481.325168) can0 7DF#03010C0D00000000
(1757317481.330504) can0 7E8#06410C0F100D00AA
(1757317481.330534) can0 7E9#06410C11080D00AA
(1757317481.341216) can0 17F00010#2010000000000000
(1757317481.344404) can0 7DF#03010C0D00000000
(1757317481.350609) can0 7E8#06410C0F100D00AA
(1757317481.350725) can0 7E9#06410C114C0D00AA
(1757317481.365355) can0 7DF#03010C0D00000000
(1757317481.370299) can0 7E8#06410C0F100D00AA
(1757317481.370503) can0 7E9#06410C11900D00AA
(1757317481.385104) can0 7DF#03010C0D00000000
(1757317481.390297) can0 7E8#06410C11C40D00AA
(1757317481.390412) can0 7E9#06410C11D80D00AA
(1757317481.405442) can0 7DF#03010C0D00000000
(1757317481.410079) can0 7E9#06410C12180D00AA
(1757317481.410613) can0 7E8#06410C11C40D00AA
(1757317481.424369) can0 7DF#03010C0D00000000
(1757317481.430290) can0 7E8#06410C11C40D00AA
(1757317481.430511) can0 7E9#06410C12540D00AA
(1757317481.445286) can0 7DF#03010C0D00000000
(1757317481.450866) can0 7E8#06410C11C40D00AA
(1757317481.450898) can0 7E9#06410C128C0D00AA
(1757317481.465115) can0 7DF#03010C0D00000000
(1757317481.470576) can0 7E8#06410C11C40D00AA
(1757317481.470713) can0 7E9#06410C12B80D00AA
(1757317481.484466) can0 7DF#03010C0D00000000
(1757317481.490242) can0 7E8#06410C11C40D00AA
(1757317481.490443) can0 7E9#06410C12EC0D00AA
(1757317481.505316) can0 7DF#03010C0D00000000
(1757317481.510356) can0 7E8#06410C11C40D00AA
(1757317481.510607) can0 7E9#06410C13100D00AA
(1757317481.524984) can0 7DF#03010C0D00000000
(1757317481.530481) can0 7E8#06410C11C40D00AA
(1757317481.530511) can0 7E9#06410C13340D00AA
(1757317481.544817) can0 7DF#03010C0D00000000
(1757317481.550549) can0 7E8#06410C11C40D00AA
(1757317481.550780) can0 7E9#06410C13540D00AA
(1757317481.564793) can0 7DF#03010C0D00000000
(1757317481.570305) can0 7E8#06410C11C40D00AA
(1757317481.570431) can0 7E9#06410C13680D00AA
(1757317481.585327) can0 7DF#03010C0D00000000
(1757317481.590380) can0 7E8#06410C13760D00AA
(1757317481.590444) can0 7E9#06410C137C0D00AA
(1757317481.605382) can0 7DF#03010C0D00000000
(1757317481.610546) can0 7E8#06410C13760D00AA
(1757317481.610577) can0 7E9#06410C13800D00AA
(1757317481.624437) can0 7DF#03010C0D00000000
(1757317481.630287) can0 7E8#06410C13760D00AA
(1757317481.630518) can0 7E9#06410C13840D00AA
(1757317481.645418) can0 7DF#03010C0D00000000
(1757317481.650803) can0 7E8#06410C13760D00AA
(1757317481.651105) can0 7E9#06410C13840D00AA
(1757317481.665291) can0 7DF#03010C0D00000000
(1757317481.670503) can0 7E8#06410C13760D00AA
(1757317481.670602) can0 7E9#06410C13840D00AA
(1757317481.685082) can0 7DF#03010C0D00000000
(1757317481.690300) can0 7E8#06410C13760D00AA
(1757317481.690436) can0 7E9#06410C13840D00AA
(1757317481.704608) can0 7DF#03010C0D00000000
(1757317481.710504) can0 7E8#06410C13760D00AA
(1757317481.710537) can0 7E9#06410C13840D00AA
(1757317481.725384) can0 7DF#03010C0D00000000
(1757317481.730496) can0 7E8#06410C13760D00AA
(1757317481.730526) can0 7E9#06410C137C0D00AA
(1757317481.745184) can0 7DF#03010C0D00000000
(1757317481.750804) can0 7E8#06410C13760D00AA
(1757317481.750835) can0 7E9#06410C13780D00AA
(1757317481.764310) can0 7DF#03010C0D00000000
(1757317481.770463) can0 7E8#06410C13760D00AA
(1757317481.770694) can0 7E9#06410C13700D00AA
(1757317481.785376) can0 7DF#03010C0D00000000
(1757317481.790346) can0 7E8#06410C136A0D00AA
(1757317481.790410) can0 7E9#06410C136C0D00AA
(1757317481.805443) can0 7DF#03010C0D00000000
(1757317481.810309) can0 7E8#06410C136A0D00AA
(1757317481.810569) can0 7E9#06410C13600D00AA
(1757317481.825282) can0 7DF#03010C0D00000000
(1757317481.830276) can0 7E8#06410C136A0D00AA
(1757317481.830372) can0 7E9#06410C13580D00AA
(1757317481.841250) can0 17F00010#2010000000000000
(1757317481.844621) can0 7DF#03010C0D00000000
(1757317481.850873) can0 7E8#06410C136A0D00AA
(1757317481.851299) can0 7E9#06410C13440D00AA
(1757317481.865531) can0 7DF#03010C0D00000000
(1757317481.870998) can0 7E8#06410C136A0D00AA
(1757317481.871029) can0 7E9#06410C13380D00AA
(1757317481.885317) can0 7DF#03010C0D00000000
(1757317481.890424) can0 7E8#06410C136A0D00AA
(1757317481.890455) can0 7E9#06410C13280D00AA
(1757317481.904358) can0 7DF#03010C0D00000000
(1757317481.910287) can0 7E8#06410C136A0D00AA
(1757317481.910371) can0 7E9#06410C131C0D00AA
(1757317481.925473) can0 7DF#03010C0D00000000
(1757317481.930298) can0 7E8#06410C136A0D00AA
(1757317481.930438) can0 7E9#06410C13140D00AA
(1757317481.945455) can0 7DF#03010C0D00000000
(1757317481.951061) can0 7E8#06410C136A0D00AA
(1757317481.951155) can0 7E9#06410C12FC0D00AA
(1757317481.964991) can0 7DF#03010C0D00000000
(1757317481.970438) can0 7E8#06410C136A0D00AA
(1757317481.970564) can0 7E9#06410C12EC0D00AA
(1757317481.984586) can0 7DF#03010C0D00000000
(1757317481.990500) can0 7E8#06410C12DE0D00AA
(1757317481.990532) can0 7E9#06410C12DC0D00AA
(1757317482.005034) can0 7DF#03010C0D00000000
(1757317482.010488) can0 7E8#06410C12DE0D00AA
(1757317482.010517) can0 7E9#06410C12C80D00AA
(1757317482.025041) can0 7DF#03010C0D00000000
(1757317482.030510) can0 7E8#06410C12DE0D00AA
(1757317482.030539) can0 7E9#06410C12B80D00AA
(1757317482.044307) can0 7DF#03010C0D00000000
(1757317482.050588) can0 7E8#06410C12DE0D00AA
(1757317482.050954) can0 7E9#06410C12A40D00AA
(1757317482.065170) can0 7DF#03010C0D00000000
(1757317482.070389) can0 7E8#06410C12DE0D00AA
(1757317482.070653) can0 7E9#06410C12940D00AA
(1757317482.085187) can0 7DF#03010C0D00000000
(1757317482.090909) can0 7E8#06410C12DE0D00AA
(1757317482.090938) can0 7E9#06410C12840D00AA
(1757317482.105163) can0 7DF#03010C0D00000000
(1757317482.110890) can0 7E8#06410C12DE0D00AA
(1757317482.111129) can0 7E9#06410C12740D00AA
(1757317482.124483) can0 7DF#03010C0D00000000
(1757317482.130491) can0 7E8#06410C12DE0D00AA
(1757317482.130521) can0 7E9#06410C12700D00AA
(1757317482.145403) can0 7DF#03010C0D00000000
(1757317482.150926) can0 7E8#06410C12DE0D00AA
(1757317482.150956) can0 7E9#06410C12640D00AA
(1757317482.164995) can0 7DF#03010C0D00000000
(1757317482.170222) can0 7E8#06410C12DE0D00AA
(1757317482.170478) can0 7E9#06410C12600D00AA
(1757317482.184308) can0 7DF#03010C0D00000000
(1757317482.190312) can0 7E8#06410C12600D00AA
(1757317482.190365) can0 7E9#06410C12600D00AA
(1757317482.204989) can0 7DF#03010C0D00000000
(1757317482.210714) can0 7E8#06410C12600D00AA
(1757317482.210930) can0 7E9#06410C12580D00AA
(1757317482.224955) can0 7DF#03010C0D00000000
(1757317482.230184) can0 7E8#06410C12600D00AA
(1757317482.230472) can0 7E9#06410C12600D00AA
(1757317482.244718) can0 7DF#03010C0D00000000
(1757317482.250646) can0 7E8#06410C12600D00AA
(1757317482.251063) can0 7E9#06410C12680D00AA
(1757317482.264022) can0 7DF#03010C0D00000000
(1757317482.270639) can0 7E8#06410C12600D00AA
(1757317482.270870) can0 7E9#06410C12740D00AA
(1757317482.284891) can0 7DF#03010C0D00000000
(1757317482.290314) can0 7E8#06410C12600D00AA
(1757317482.290368) can0 7E9#06410C12880D00AA
(1757317482.304895) can0 7DF#03010C0D00000000
(1757317482.310664) can0 7E8#06410C12600D00AA
(1757317482.310694) can0 7E9#06410C12900D00AA
(1757317482.324380) can0 7DF#03010C0D00000000
(1757317482.330364) can0 7E8#06410C12600D00AA
(1757317482.330698) can0 7E9#06410C12A40D00AA
(1757317482.341409) can0 17F00010#2010000000000000
(1757317482.344346) can0 7DF#03010C0D00000000
(1757317482.351224) can0 7E8#06410C12600D00AA
(1757317482.351253) can0 7E9#06410C12B40D00AA
(1757317482.364957) can0 7DF#03010C0D00000000
(1757317482.370466) can0 7E8#06410C12600D00AA
(1757317482.370728) can0 7E9#06410C12D00D00AA
(1757317482.385283) can0 7DF#03010C0D00000000
(1757317482.390373) can0 7E8#06410C12F80D00AA
(1757317482.390512) can0 7E9#06410C12F80D00AA
(1757317482.404593) can0 7DF#03010C0D00000000
(1757317482.410845) can0 7E8#06410C12F80D00AA
(1757317482.410873) can0 7E9#06410C13180D00AA
(1757317482.425314) can0 7DF#03010C0D00000000
(1757317482.430783) can0 7E8#06410C12F80D00AA
(1757317482.431060) can0 7E9#06410C13440D00AA
(1757317482.445281) can0 7DF#03010C0D00000000
(1757317482.451530) can0 7E8#06410C12F80D00AA
(1757317482.451558) can0 7E9#06410C13640D00AA
(1757317482.464271) can0 7DF#03010C0D00000000
(1757317482.470952) can0 7E8#06410C12F80D00AA
(1757317482.471329) can0 7E9#06410C138C0D00AA
(1757317482.485376) can0 7DF#03010C0D00000000
(1757317482.490934) can0 7E8#06410C12F80D00AA
(1757317482.490965) can0 7E9#06410C13C00D00AA
(1757317482.505161) can0 7DF#03010C0D00000000
(1757317482.510891) can0 7E8#06410C12F80D00AA
(1757317482.511267) can0 7E9#06410C13EC0D00AA
(1757317482.525315) can0 7DF#03010C0D00000000
(1757317482.530838) can0 7E8#06410C12F80D00AA
(1757317482.530922) can0 7E9#06410C14200D00AA
(1757317482.544457) can0 7DF#03010C0D00000000
(1757317482.551428) can0 7E8#06410C12F80D00AA
(1757317482.551862) can0 7E9#06410C14400D00AA
(1757317482.565048) can0 7DF#03010C0D00000000
(1757317482.570757) can0 7E8#06410C12F80D00AA
(1757317482.571146) can0 7E9#06410C14640D00AA
(1757317482.584989) can0 7DF#03010C0D00000000
(1757317482.590803) can0 7E8#06410C14840D00AA
(1757317482.590903) can0 7E9#06410C14880D00AA
(1757317482.604328) can0 7DF#03010C0D00000000
(1757317482.610843) can0 7E8#06410C14840D00AA
(1757317482.611253) can0 7E9#06410C14AC0D00AA
(1757317482.625089) can0 7DF#03010C0D00000000
(1757317482.631030) can0 7E8#06410C14840D00AA
(1757317482.631059) can0 7E9#06410C14B40D00AA
(1757317482.645166) can0 7DF#03010C0D00000000
(1757317482.651632) can0 7E8#06410C14840D00AA
(1757317482.651855) can0 7E9#06410C14CC0D01AA
(1757317482.665077) can0 7DF#03010C0D00000000
(1757317482.670949) can0 7E8#06410C14840D01AA
(1757317482.671157) can0 7E9#06410C14D80D01AA
(1757317482.684737) can0 7DF#03010C0D00000000
(1757317482.691228) can0 7E8#06410C14840D01AA
(1757317482.691263) can0 7E9#06410C14D80D01AA
(1757317482.704784) can0 7DF#03010C0D00000000
(1757317482.711380) can0 7E8#06410C14840D01AA
(1757317482.711411) can0 7E9#06410C14D40D01AA
(1757317482.724700) can0 7DF#03010C0D00000000
(1757317482.731075) can0 7E8#06410C14840D01AA
(1757317482.731105) can0 7E9#06410C14D40D01AA
(1757317482.744361) can0 7DF#03010C0D00000000
(1757317482.751695) can0 7E8#06410C14840D01AA
(1757317482.751943) can0 7E9#06410C14C40D01AA
(1757317482.765038) can0 7DF#03010C0D00000000
(1757317482.770688) can0 7E8#06410C14840D01AA
(1757317482.770844) can0 7E9#06410C14CC0D01AA
(1757317482.785179) can0 7DF#03010C0D00000000
(1757317482.790925) can0 7E8#06410C14BA0D01AA
(1757317482.790955) can0 7E9#06410C14B80D01AA
(1757317482.805287) can0 7DF#03010C0D00000000
(1757317482.811270) can0 7E8#06410C14BA0D01AA
(1757317482.811385) can0 7E9#06410C14A80D01AA
(1757317482.824470) can0 7DF#03010C0D00000000
(1757317482.830818) can0 7E8#06410C14BA0D01AA
(1757317482.830922) can0 7E9#06410C14A80D01AA
(1757317482.841515) can0 17F00010#2010000000000000
(1757317482.844458) can0 7DF#03010C0D00000000
(1757317482.851794) can0 7E8#06410C14BA0D01AA
(1757317482.852123) can0 7E9#06410C14A80D02AA
(1757317482.865001) can0 7DF#03010C0D00000000
(1757317482.870543) can0 7E8#06410C14BA0D02AA
(1757317482.871040) can0 7E9#06410C149C0D02AA
(1757317482.884381) can0 7DF#03010C0D00000000
(1757317482.891112) can0 7E8#06410C14BA0D02AA
(1757317482.891139) can0 7E9#06410C14880D02AA
(1757317482.904871) can0 7DF#03010C0D00000000
(1757317482.911686) can0 7E8#06410C14BA0D02AA
(1757317482.911717) can0 7E9#06410C148C0D02AA
(1757317482.924893) can0 7DF#03010C0D00000000
(1757317482.931754) can0 7E8#06410C14BA0D02AA
(1757317482.931784) can0 7E9#06410C14840D02AA
(1757317482.945093) can0 7DF#03010C0D00000000
(1757317482.952157) can0 7E8#06410C14BA0D02AA
(1757317482.952374) can0 7E9#06410C148C0D02AA
(1757317482.964626) can0 7DF#03010C0D00000000
(1757317482.971208) can0 7E8#06410C14BA0D02AA
(1757317482.971667) can0 7E9#06410C14940D02AA
(1757317482.984812) can0 7DF#03010C0D00000000
(1757317482.990589) can0 7E8#06410C148A0D02AA
(1757317482.991653) can0 7E9#06410C14880D02AA
(1757317483.005580) can0 7DF#03010C0D00000000
(1757317483.011071) can0 7E8#06410C148A0D02AA
(1757317483.011648) can0 7E9#06410C14800D02AA
(1757317483.024383) can0 7DF#03010C0D00000000
(1757317483.030652) can0 7E8#06410C148A0D02AA
(1757317483.031037) can0 7E9#06410C14800D03AA
(1757317483.045594) can0 7DF#03010C0D00000000
(1757317483.051810) can0 7E8#06410C148A0D03AA
(1757317483.052268) can0 7E9#06410C148C0D03AA
(1757317483.065346) can0 7DF#03010C0D00000000
(1757317483.070319) can0 7E8#06410C148A0D03AA
(1757317483.070798) can0 7E9#06410C14880D03AA
(1757317483.085090) can0 7DF#03010C0D00000000
(1757317483.090657) can0 7E8#06410C148A0D03AA
(1757317483.091062) can0 7E9#06410C14840D03AA
(1757317483.104540) can0 7DF#03010C0D00000000
(1757317483.110758) can0 7E8#06410C148A0D03AA
(1757317483.111020) can0 7E9#06410C14780D03AA
(1757317483.125450) can0 7DF#03010C0D00000000
(1757317483.130499) can0 7E8#06410C148A0D03AA
(1757317483.130535) can0 7E9#06410C14740D03AA
(1757317483.145159) can0 7DF#03010C0D00000000
(1757317483.150890) can0 7E8#06410C148A0D03AA
(1757317483.151909) can0 7E9#06410C14680D03AA
(1757317483.164332) can0 7DF#03010C0D00000000
(1757317483.170327) can0 7E8#06410C148A0D03AA
(1757317483.170568) can0 7E9#06410C14500D03AA
(1757317483.185321) can0 7DF#03010C0D00000000
(1757317483.190425) can0 7E8#06410C14480D03AA
(1757317483.190797) can0 7E9#06410C14440D03AA
(1757317483.205421) can0 7DF#03010C0D00000000
(1757317483.210655) can0 7E8#06410C14480D03AA
(1757317483.210708) can0 7E9#06410C14240D03AA
(1757317483.225177) can0 7DF#03010C0D00000000
(1757317483.230426) can0 7E8#06410C14480D03AA
(1757317483.230800) can0 7E9#06410C13F80D04AA
(1757317483.244285) can0 7DF#03010C0D00000000
(1757317483.250785) can0 7E8#06410C14480D04AA
(1757317483.250988) can0 7E9#06410C13D80D04AA
(1757317483.265498) can0 7DF#03010C0D00000000
(1757317483.270355) can0 7E8#06410C14480D04AA
(1757317483.270670) can0 7E9#06410C13BC0D04AA
(1757317483.285478) can0 7DF#03010C0D00000000
(1757317483.290410) can0 7E8#06410C14480D04AA
(1757317483.290782) can0 7E9#06410C13940D04AA
(1757317483.304353) can0 7DF#03010C0D00000000
(1757317483.310512) can0 7E8#06410C14480D04AA
(1757317483.310852) can0 7E9#06410C13740D04AA
(1757317483.325581) can0 7DF#03010C0D00000000
(1757317483.330434) can0 7E8#06410C14480D04AA
(1757317483.330695) can0 7E9#06410C13580D04AA
(1757317483.341278) can0 17F00010#2010000000000000
(1757317483.344210) can0 7DF#03010C0D00000000
(1757317483.350930) can0 7E8#06410C14480D04AA
(1757317483.351172) can0 7E9#06410C13480D04AA
(1757317483.365481) can0 7DF#03010C0D00000000
(1757317483.370258) can0 7E8#06410C14480D04AA
(1757317483.370783) can0 7E9#06410C13280D04AA
(1757317483.384719) can0 7DF#03010C0D00000000
(1757317483.390155) can0 7E8#06410C13140D04AA
(1757317483.390672) can0 7E9#06410C130C0D04AA
(1757317483.405570) can0 7DF#03010C0D00000000
(1757317483.410200) can0 7E8#06410C13140D04AA
(1757317483.410836) can0 7E9#06410C12E00D04AA
(1757317483.425501) can0 7DF#03010C0D00000000
(1757317483.431077) can0 7E8#06410C13140D04AA
(1757317483.432502) can0 7E9#06410C12DC0D04AA
(1757317483.443927) can0 7DF#03010C0D00000000
(1757317483.450376) can0 7E8#06410C13140D04AA
(1757317483.451044) can0 7E9#06410C12BC0D04AA
(1757317483.465309) can0 7DF#03010C0D00000000
(1757317483.470189) can0 7E8#06410C13140D04AA
(1757317483.470871) can0 7E9#06410C12980D04AA
(1757317483.485496) can0 7DF#03010C0D00000000
(1757317483.490177) can0 7E8#06410C13140D04AA
(1757317483.490640) can0 7E9#06410C12840D05AA
(1757317483.505364) can0 7DF#03010C0D00000000
(1757317483.510177) can0 7E8#06410C13140D05AA
(1757317483.510893) can0 7E9#06410C12840D05AA
(1757317483.524425) can0 7DF#03010C0D00000000
(1757317483.530189) can0 7E8#06410C13140D05AA
(1757317483.530780) can0 7E9#06410C12700D05AA
(1757317483.545494) can0 7DF#03010C0D00000000
(1757317483.550397) can0 7E8#06410C13140D05AA
(1757317483.550806) can0 7E9#06410C12980D05AA
(1757317483.565479) can0 7DF#03010C0D00000000
(1757317483.570166) can0 7E8#06410C13140D05AA
(1757317483.570857) can0 7E9#06410C12840D05AA
(1757317483.584327) can0 7DF#03010C0D00000000
(1757317483.590165) can0 7E8#06410C12720D05AA
(1757317483.590889) can0 7E9#06410C12780D05AA
(1757317483.605431) can0 7DF#03010C0D00000000
(1757317483.610143) can0 7E8#06410C12720D05AA
(1757317483.610668) can0 7E9#06410C12940D05AA
(1757317483.625491) can0 7DF#03010C0D00000000
(1757317483.630167) can0 7E8#06410C12720D05AA
(1757317483.631018) can0 7E9#06410C127C0D05AA
(1757317483.645494) can0 7DF#03010C0D00000000
(1757317483.650330) can0 7E8#06410C12720D05AA
(1757317483.650723) can0 7E9#06410C12A00D05AA
(1757317483.664356) can0 7DF#03010C0D00000000
(1757317483.670166) can0 7E8#06410C12720D05AA
(1757317483.670659) can0 7E9#06410C12980D05AA
(1757317483.685499) can0 7DF#03010C0D00000000
(1757317483.690164) can0 7E8#06410C12720D05AA
(1757317483.690665) can0 7E9#06410C128C0D05AA
(1757317483.705762) can0 7DF#03010C0D00000000
(1757317483.710167) can0 7E8#06410C12720D05AA
(1757317483.710743) can0 7E9#06410C129C0D05AA
(1757317483.724419) can0 7DF#03010C0D00000000
(1757317483.730169) can0 7E8#06410C12720D05AA
(1757317483.730691) can0 7E9#06410C12C80D05AA
(1757317483.744196) can0 7DF#03010C0D00000000
(1757317483.750369) can0 7E8#06410C12720D05AA
(1757317483.750655) can0 7E9#06410C12E00D05AA
(1757317483.765492) can0 7DF#03010C0D00000000
(1757317483.770169) can0 7E8#06410C12720D05AA
(1757317483.770640) can0 7E9#06410C12F40D05AA
(1757317483.785531) can0 7DF#03010C0D00000000
(1757317483.790168) can0 7E8#06410C13160D05AA
(1757317483.790690) can0 7E9#06410C13180D05AA
(1757317483.804656) can0 7DF#03010C0D00000000
(1757317483.810212) can0 7E8#06410C13160D05AA
(1757317483.810732) can0 7E9#06410C13300D05AA
(1757317483.825612) can0 7DF#03010C0D00000000
(1757317483.830348) can0 7E8#06410C13160D05AA
(1757317483.830881) can0 7E9#06410C13500D05AA
(1757317483.841166) can0 17F00010#2010000000000000
(1757317483.843985) can0 7DF#03010C0D00000000
(1757317483.850553) can0 7E8#06410C13160D05AA
(1757317483.850781) can0 7E9#06410C13640D05AA
(1757317483.864304) can0 7DF#03010C0D00000000
(1757317483.870157) can0 7E8#06410C13160D05AA
(1757317483.870751) can0 7E9#06410C13740D06AA
(1757317483.885142) can0 7DF#03010C0D00000000
(1757317483.890186) can0 7E8#06410C13160D06AA
(1757317483.890688) can0 7E9#06410C13880D06AA
(1757317483.905562) can0 7DF#03010C0D00000000
(1757317483.910144) can0 7E8#06410C13160D06AA
(1757317483.910615) can0 7E9#06410C13A40D06AA
(1757317483.925427) can0 7DF#03010C0D00000000
(1757317483.930184) can0 7E8#06410C13160D06AA
(1757317483.930642) can0 7E9#06410C13CC0D06AA
(1757317483.944380) can0 7DF#03010C0D00000000
(1757317483.950344) can0 7E8#06410C13160D06AA
(1757317483.950619) can0 7E9#06410C14000D06AA
(1757317483.966143) can0 7DF#03010C0D00000000
(1757317483.970215) can0 7E8#06410C13160D06AA
(1757317483.970645) can0 7E9#06410C141C0D06AA
(1757317483.985428) can0 7DF#03010C0D00000000
(1757317483.990227) can0 7E8#06410C14480D06AA
(1757317483.990656) can0 7E9#06410C144C0D06AA
(1757317484.004429) can0 7DF#03010C0D00000000
(1757317484.010161) can0 7E8#06410C14480D06AA
(1757317484.010618) can0 7E9#06410C14740D06AA
(1757317484.025402) can0 7DF#03010C0D00000000
(1757317484.030175) can0 7E8#06410C14480D06AA
(1757317484.030756) can0 7E9#06410C14A00D06AA
(1757317484.045441) can0 7DF#03010C0D00000000
(1757317484.050414) can0 7E8#06410C14480D06AA
(1757317484.050618) can0 7E9#06410C14B00D06AA
(1757317484.065510) can0 7DF#03010C0D00000000
(1757317484.070212) can0 7E8#06410C14480D06AA
(1757317484.070801) can0 7E9#06410C14D00D06AA
(1757317484.085154) can0 7DF#03010C0D00000000
(1757317484.090177) can0 7E8#06410C14480D06AA
(1757317484.090599) can0 7E9#06410C14EC0D06AA
(1757317484.105407) can0 7DF#03010C0D00000000
(1757317484.110299) can0 7E8#06410C14480D06AA
(1757317484.110618) can0 7E9#06410C14FC0D06AA
(1757317484.125463) can0 7DF#03010C0D00000000
(1757317484.130141) can0 7E8#06410C14480D06AA
(1757317484.130730) can0 7E9#06410C15200D06AA
(1757317484.144352) can0 7DF#03010C0D00000000
(1757317484.150394) can0 7E8#06410C14480D06AA
(1757317484.150614) can0 7E9#06410C15380D07AA
(1757317484.165454) can0 7DF#03010C0D00000000
(1757317484.170148) can0 7E8#06410C14480D07AA
(1757317484.170754) can0 7E9#06410C154C0D07AA
(1757317484.185489) can0 7DF#03010C0D00000000
(1757317484.190176) can0 7E8#06410C15620D07AA
(1757317484.190583) can0 7E9#06410C15640D07AA
(1757317484.205536) can0 7DF#03010C0D00000000
(1757317484.210162) can0 7E8#06410C15620D07AA
(1757317484.210592) can0 7E9#06410C15800D07AA
(1757317484.224320) can0 7DF#03010C0D00000000
(1757317484.230140) can0 7E8#06410C15620D07AA
(1757317484.230730) can0 7E9#06410C15880D07AA
(1757317484.245432) can0 7DF#03010C0D00000000
(1757317484.250321) can0 7E8#06410C15620D07AA
(1757317484.250810) can0 7E9#06410C15980D07AA
(1757317484.265259) can0 7DF#03010C0D00000000
(1757317484.270289) can0 7E8#06410C15620D07AA
(1757317484.270765) can0 7E9#06410C159C0D07AA
(1757317484.284297) can0 7DF#03010C0D00000000
(1757317484.290176) can0 7E8#06410C15620D07AA
(1757317484.290573) can0 7E9#06410C15A00D07AA
(1757317484.305608) can0 7DF#03010C0D00000000
(1757317484.310210) can0 7E8#06410C15620D07AA
(1757317484.310549) can0 7E9#06410C15A40D07AA
(1757317484.325445) can0 7DF#03010C0D00000000
(1757317484.330222) can0 7E8#06410C15620D07AA
(1757317484.330732) can0 7E9#06410C15A80D07AA
(1757317484.341111) can0 17F00010#2010000000000000
(1757317484.344138) can0 7DF#03010C0D00000000
(1757317484.350455) can0 7E8#06410C15620D07AA
(1757317484.350661) can0 7E9#06410C15A80D07AA
(1757317484.364735) can0 7DF#03010C0D00000000
(1757317484.370277) can0 7E8#06410C15620D07AA
(1757317484.370729) can0 7E9#06410C15A80D08AA
(1757317484.385358) can0 7DF#03010C0D00000000
(1757317484.390202) can0 7E8#06410C15AE0D08AA
(1757317484.390526) can0 7E9#06410C15B00D08AA
(1757317484.405608) can0 7DF#03010C0D00000000
(1757317484.410136) can0 7E8#06410C15AE0D08AA
(1757317484.410498) can0 7E9#06410C15A80D08AA
(1757317484.424352) can0 7DF#03010C0D00000000
(1757317484.430392) can0 7E8#06410C15AE0D08AA
(1757317484.430878) can0 7E9#06410C159C0D08AA
(1757317484.445529) can0 7DF#03010C0D00000000
(1757317484.450419) can0 7E8#06410C15AE0D08AA
(1757317484.450618) can0 7E9#06410C15940D08AA
(1757317484.465535) can0 7DF#03010C0D00000000
(1757317484.470216) can0 7E8#06410C15AE0D08AA
(1757317484.470628) can0 7E9#06410C15900D08AA
(1757317484.485430) can0 7DF#03010C0D00000000
(1757317484.490230) can0 7E8#06410C15AE0D08AA
(1757317484.490453) can0 7E9#06410C15780D08AA
(1757317484.504579) can0 7DF#03010C0D00000000
(1757317484.510183) can0 7E8#06410C15AE0D08AA
(1757317484.510500) can0 7E9#06410C15640D08AA
(1757317484.525440) can0 7DF#03010C0D00000000
(1757317484.530183) can0 7E8#06410C15AE0D08AA
(1757317484.530454) can0 7E9#06410C154C0D08AA
(1757317484.545493) can0 7DF#03010C0D00000000
(1757317484.550456) can0 7E8#06410C15AE0D08AA
(1757317484.550659) can0 7E9#06410C15340D08AA
(1757317484.564298) can0 7DF#03010C0D00000000
(1757317484.570203) can0 7E8#06410C15AE0D08AA
(1757317484.570430) can0 7E9#06410C15140D09AA
(1757317484.585642) can0 7DF#03010C0D00000000
(1757317484.590205) can0 7E8#06410C15000D09AA
(1757317484.590481) can0 7E9#06410C14F40D09AA
(1757317484.605660) can0 7DF#03010C0D00000000
(1757317484.610208) can0 7E8#06410C15000D09AA
(1757317484.610409) can0 7E9#06410C14B80D09AA
(1757317484.625452) can0 7DF#03010C0D00000000
(1757317484.630225) can0 7E8#06410C15000D09AA
(1757317484.630428) can0 7E9#06410C14A00D09AA
(1757317484.644570) can0 7DF#03010C0D00000000
(1757317484.650433) can0 7E8#06410C15000D09AA
(1757317484.650667) can0 7E9#06410C14940D09AA
(1757317484.665448) can0 7DF#03010C0D00000000
(1757317484.670204) can0 7E8#06410C15000D09AA
(1757317484.670454) can0 7E9#06410C14740D09AA
(1757317484.685448) can0 7DF#03010C0D00000000
(1757317484.690203) can0 7E8#06410C15000D09AA
(1757317484.690433) can0 7E9#06410C14680D09AA
(1757317484.704327) can0 7DF#03010C0D00000000
(1757317484.710322) can0 7E8#06410C15000D09AA
(1757317484.710523) can0 7E9#06410C145C0D09AA
(1757317484.725489) can0 7DF#03010C0D00000000
(1757317484.730202) can0 7E8#06410C15000D09AA
(1757317484.730428) can0 7E9#06410C14500D09AA
(1757317484.745450) can0 7DF#03010C0D00000000
(1757317484.750411) can0 7E8#06410C15000D09AA
(1757317484.750659) can0 7E9#06410C14400D09AA
(1757317484.765484) can0 7DF#03010C0D00000000
(1757317484.770204) can0 7E8#06410C15000D09AA
(1757317484.770453) can0 7E9#06410C14180D09AA
(1757317484.784605) can0 7DF#03010C0D00000000
(1757317484.790244) can0 7E8#06410C14100D09AA
(1757317484.790508) can0 7E9#06410C14100D09AA
(1757317484.805507) can0 7DF#03010C0D00000000
(1757317484.810180) can0 7E8#06410C14100D09AA
(1757317484.810450) can0 7E9#06410C14100D09AA
(1757317484.825427) can0 7DF#03010C0D00000000
(1757317484.830192) can0 7E8#06410C14100D09AA
(1757317484.830445) can0 7E9#06410C14180D09AA
(1757317484.841181) can0 17F00010#2010000000000000
(1757317484.844419) can0 7DF#03010C0D00000000
(1757317484.850273) can0 7E8#06410C14100D09AA
(1757317484.850707) can0 7E9#06410C142C0D09AA
(1757317484.865465) can0 7DF#03010C0D00000000
(1757317484.870226) can0 7E8#06410C14100D09AA
(1757317484.870466) can0 7E9#06410C142C0D09AA
(1757317484.885419) can0 7DF#03010C0D00000000
(1757317484.890255) can0 7E8#06410C14100D09AA
(1757317484.890432) can0 7E9#06410C14080D09AA
(1757317484.905463) can0 7DF#03010C0D00000000
(1757317484.910204) can0 7E8#06410C14100D09AA
(1757317484.910429) can0 7E9#06410C142C0D09AA
(1757317484.924252) can0 7DF#03010C0D00000000
(1757317484.930223) can0 7E8#06410C14100D09AA
(1757317484.930427) can0 7E9#06410C14440D09AA
(1757317484.945431) can0 7DF#03010C0D00000000
(1757317484.950271) can0 7E8#06410C14100D09AA
(1757317484.950725) can0 7E9#06410C14540D0AAA
(1757317484.965373) can0 7DF#03010C0D00000000
(1757317484.970189) can0 7E8#06410C14100D0AAA
(1757317484.970464) can0 7E9#06410C145C0D0AAA
(1757317484.984416) can0 7DF#03010C0D00000000
(1757317484.990259) can0 7E8#06410C148A0D0AAA
(1757317484.990429) can0 7E9#06410C148C0D0AAA
(1757317485.005428) can0 7DF#03010C0D00000000
(1757317485.010192) can0 7E8#06410C148A0D0AAA
(1757317485.010466) can0 7E9#06410C14A80D0AAA
(1757317485.025449) can0 7DF#03010C0D00000000
(1757317485.030224) can0 7E8#06410C148A0D0AAA
(1757317485.030476) can0 7E9#06410C15140D0AAA
(1757317485.045428) can0 7DF#03010C0D00000000
(1757317485.050414) can0 7E8#06410C148A0D0AAA
(1757317485.050664) can0 7E9#06410C15300D0AAA
(1757317485.064483) can0 7DF#03010C0D00000000
(1757317485.070231) can0 7E8#06410C148A0D0AAA
(1757317485.070476) can0 7E9#06410C15800D0AAA
(1757317485.085443) can0 7DF#03010C0D00000000
(1757317485.090238) can0 7E8#06410C148A0D0AAA
(1757317485.090473) can0 7E9#06410C15F00D09AA
(1757317485.105502) can0 7DF#03010C0D00000000
(1757317485.110276) can0 7E8#06410C148A0D09AA
(1757317485.110727) can0 7E9#06410C16540D09AA
(1757317485.124286) can0 7DF#03010C0D00000000
(1757317485.130262) can0 7E8#06410C148A0D09AA
(1757317485.130430) can0 7E9#06410C16880D09AA
(1757317485.145402) can0 7DF#03010C0D00000000
(1757317485.150640) can0 7E8#06410C148A0D09AA
(1757317485.150817) can0 7E9#06410C16D00D0AAA
(1757317485.165449) can0 7DF#03010C0D00000000
(1757317485.170199) can0 7E8#06410C148A0D0AAA
(1757317485.170473) can0 7E9#06410C17200D09AA
(1757317485.185484) can0 7DF#03010C0D00000000
(1757317485.190249) can0 7E8#06410C17580D09AA
(1757317485.190474) can0 7E9#06410C17600D09AA
(1757317485.204623) can0 7DF#03010C0D00000000
(1757317485.210251) can0 7E8#06410C17580D09AA
(1757317485.210430) can0 7E9#06410C17940D09AA
(1757317485.225502) can0 7DF#03010C0D00000000
(1757317485.230261) can0 7E8#06410C17580D09AA
(1757317485.230475) can0 7E9#06410C17E80D09AA
(1757317485.245428) can0 7DF#03010C0D00000000
(1757317485.250225) can0 7E8#06410C17580D09AA
(1757317485.250716) can0 7E9#06410C18000D0AAA
(1757317485.264296) can0 7DF#03010C0D00000000
(1757317485.270315) can0 7E8#06410C17580D0AAA
(1757317485.270521) can0 7E9#06410C18200D0AAA
(1757317485.285548) can0 7DF#03010C0D00000000
(1757317485.290239) can0 7E8#06410C17580D0AAA
(1757317485.290476) can0 7E9#06410C181C0D0AAA
(1757317485.305505) can0 7DF#03010C0D00000000
(1757317485.310196) can0 7E8#06410C17580D0AAA
(1757317485.310474) can0 7E9#06410C182C0D0AAA
(1757317485.325446) can0 7DF#03010C0D00000000
(1757317485.330222) can0 7E8#06410C17580D0AAA
(1757317485.330475) can0 7E9#06410C18380D0AAA
(1757317485.341163) can0 17F00010#2010000000000000
(1757317485.344350) can0 7DF#03010C0D00000000
(1757317485.350245) can0 7E8#06410C17580D0AAA
(1757317485.350697) can0 7E9#06410C183C0D0AAA
(1757317485.365463) can0 7DF#03010C0D00000000
(1757317485.370272) can0 7E8#06410C17580D0AAA
(1757317485.370474) can0 7E9#06410C18400D0AAA
(1757317485.385461) can0 7DF#03010C0D00000000
(1757317485.390257) can0 7E8#06410C184E0D0AAA
(1757317485.390475) can0 7E9#06410C18580D0AAA
(1757317485.404324) can0 7DF#03010C0D00000000
(1757317485.410224) can0 7E8#06410C184E0D0AAA
(1757317485.410465) can0 7E9#06410C186C0D0AAA
(1757317485.425502) can0 7DF#03010C0D00000000
(1757317485.430244) can0 7E8#06410C184E0D0AAA
(1757317485.430470) can0 7E9#06410C18840D0AAA
(1757317485.445447) can0 7DF#03010C0D00000000
(1757317485.450497) can0 7E8#06410C184E0D0AAA
(1757317485.450701) can0 7E9#06410C18880D0AAA
(1757317485.465502) can0 7DF#03010C0D00000000
(1757317485.470359) can0 7E9#06410C18880D0AAA
(1757317485.474267) can0 7E8#06410C184E0D0AAA
(1757317485.485269) can0 7DF#03010C0D00000000
(1757317485.490248) can0 7E8#06410C184E0D0AAA
(1757317485.490495) can0 7E9#06410C18940D0AAA
(1757317485.505373) can0 7DF#03010C0D00000000
(1757317485.510233) can0 7E8#06410C184E0D0AAA
(1757317485.510472) can0 7E9#06410C18A40D0AAA
(1757317485.525475) can0 7DF#03010C0D00000000
(1757317485.530268) can0 7E8#06410C184E0D0AAA
(1757317485.530471) can0 7E9#06410C18B40D0AAA
(1757317485.544298) can0 7DF#03010C0D00000000
(1757317485.550452) can0 7E8#06410C184E0D0AAA
(1757317485.550903) can0 7E9#06410C18B40D0AAA
(1757317485.565450) can0 7DF#03010C0D00000000
(1757317485.570384) can0 7E8#06410C184E0D0AAA
(1757317485.570609) can0 7E9#06410C18BC0D0AAA
(1757317485.585438) can0 7DF#03010C0D00000000
(1757317485.590225) can0 7E8#06410C18AC0D0AAA
(1757317485.590651) can0 7E9#06410C18AC0D0AAA
(1757317485.605530) can0 7DF#03010C0D00000000
(1757317485.610271) can0 7E8#06410C18AC0D0AAA
(1757317485.610472) can0 7E9#06410C18A80D0AAA
(1757317485.624440) can0 7DF#03010C0D00000000
(1757317485.630248) can0 7E8#06410C18AC0D0AAA
(1757317485.630472) can0 7E9#06410C18940D0AAA
(1757317485.645421) can0 7DF#03010C0D00000000
(1757317485.650440) can0 7E8#06410C18AC0D0AAA
(1757317485.650700) can0 7E9#06410C18580D0AAA
(1757317485.665505) can0 7DF#03010C0D00000000
(1757317485.670277) can0 7E8#06410C18AC0D0AAA
(1757317485.670503) can0 7E9#06410C18280D0AAA
(1757317485.684298) can0 7DF#03010C0D00000000
(1757317485.690295) can0 7E8#06410C18AC0D0AAA
(1757317485.690472) can0 7E9#06410C17E80D0AAA
(1757317485.705601) can0 7DF#03010C0D00000000
(1757317485.710292) can0 7E8#06410C18AC0D0AAA
(1757317485.710472) can0 7E9#06410C17A80D0AAA
(1757317485.725424) can0 7DF#03010C0D00000000
(1757317485.730292) can0 7E8#06410C18AC0D0AAA
(1757317485.730471) can0 7E9#06410C17680D0BAA
(1757317485.745550) can0 7DF#03010C0D00000000
(1757317485.750493) can0 7E8#06410C18AC0D0BAA
(1757317485.750740) can0 7E9#06410C172C0D0BAA
(1757317485.765569) can0 7DF#03010C0D00000000
(1757317485.770245) can0 7E8#06410C18AC0D0BAA
(1757317485.770462) can0 7E9#06410C16F40D0BAA
(1757317485.785456) can0 7DF#03010C0D00000000
(1757317485.790266) can0 7E8#06410C16C80D0BAA
(1757317485.790471) can0 7E9#06410C16C40D0BAA
(1757317485.805545) can0 7DF#03010C0D00000000
(1757317485.810240) can0 7E8#06410C16C80D0BAA
(1757317485.810471) can0 7E9#06410C16900D0BAA
(1757317485.824309) can0 7DF#03010C0D00000000
(1757317485.830242) can0 7E8#06410C16C80D0BAA
(1757317485.830468) can0 7E9#06410C16480D0BAA
(1757317485.841181) can0 17F00010#2010000000000000
(1757317485.844142) can0 7DF#03010C0D00000000
(1757317485.850311) can0 7E8#06410C16C80D0BAA
(1757317485.850741) can0 7E9#06410C16080D0BAA
(1757317485.865472) can0 7DF#03010C0D00000000
(1757317485.870312) can0 7E8#06410C16C80D0BAA
(1757317485.870516) can0 7E9#06410C15C00D0BAA
(1757317485.885521) can0 7DF#03010C0D00000000
(1757317485.890266) can0 7E8#06410C16C80D0BAA
(1757317485.890515) can0 7E9#06410C158C0D0BAA
(1757317485.904751) can0 7DF#03010C0D00000000
(1757317485.910293) can0 7E8#06410C16C80D0BAA
(1757317485.910471) can0 7E9#06410C154C0D0BAA
(1757317485.925476) can0 7DF#03010C0D00000000
(1757317485.930290) can0 7E8#06410C16C80D0BAA
(1757317485.930469) can0 7E9#06410C151C0D0BAA
(1757317485.945479) can0 7DF#03010C0D00000000
(1757317485.950265) can0 7E8#06410C16C80D0BAA
(1757317485.950746) can0 7E9#06410C14FC0D0BAA
(1757317485.964345) can0 7DF#03010C0D00000000
(1757317485.970266) can0 7E8#06410C16C80D0BAA
(1757317485.970471) can0 7E9#06410C14CC0D0BAA
(1757317485.985569) can0 7DF#03010C0D00000000
(1757317485.990269) can0 7E8#06410C14A00D0BAA
(1757317485.990517) can0 7E9#06410C14900D0BAA
(1757317486.005555) can0 7DF#03010C0D00000000
(1757317486.010336) can0 7E8#06410C14A00D0BAA
(1757317486.010512) can0 7E9#06410C14500D0BAA
(1757317486.025501) can0 7DF#03010C0D00000000
(1757317486.030298) can0 7E8#06410C14A00D0BAA
(1757317486.030712) can0 7E9#06410C14140D0BAA
(1757317486.044341) can0 7DF#03010C0D00000000
(1757317486.050468) can0 7E8#06410C14A00D0BAA
(1757317486.050696) can0 7E9#06410C13D80D0BAA
(1757317486.065497) can0 7DF#03010C0D00000000
(1757317486.070320) can0 7E8#06410C14A00D0BAA
(1757317486.070562) can0 7E9#06410C13980D0BAA
(1757317486.085371) can0 7DF#03010C0D00000000
(1757317486.090270) can0 7E8#06410C14A00D0BAA
(1757317486.090472) can0 7E9#06410C13740D0BAA
(1757317486.105022) can0 7DF#03010C0D00000000
(1757317486.110310) can0 7E8#06410C14A00D0BAA
(1757317486.110539) can0 7E9#06410C13400D0BAA
(1757317486.125456) can0 7DF#03010C0D00000000
(1757317486.130288) can0 7E8#06410C14A00D0BAA
(1757317486.130515) can0 7E9#06410C13240D0BAA
(1757317486.145519) can0 7DF#03010C0D00000000
(1757317486.150290) can0 7E8#06410C14A00D0BAA
(1757317486.150807) can0 7E9#06410C12F80D0BAA
(1757317486.165455) can0 7DF#03010C0D00000000
(1757317486.170307) can0 7E8#06410C14A00D0BAA
(1757317486.170534) can0 7E9#06410C12D80D0BAA
(1757317486.184133) can0 7DF#03010C0D00000000
(1757317486.190264) can0 7E8#06410C12D60D0BAA
(1757317486.190512) can0 7E9#06410C12C40D0BAA
(1757317486.205440) can0 7DF#03010C0D00000000
(1757317486.210309) can0 7E8#06410C12D60D0BAA
(1757317486.210514) can0 7E9#06410C12940D0BAA
(1757317486.225540) can0 7DF#03010C0D00000000
(1757317486.230313) can0 7E8#06410C12D60D0BAA
(1757317486.230490) can0 7E9#06410C12840D0BAA
(1757317486.244307) can0 7DF#03010C0D00000000
