(1712234269.111919) vcan1 1DA#A5321800000102D5
(1712234269.111924) vcan0 200#FF3F930A5C0503
(1712234269.111931) vcan0 101#010100
(1712234269.120200) vcan0 111#01
(1712234269.120219) vcan0 200#FF3FA30A890503
(1712234269.120225) vcan0 600#00
(1712234269.120313) vcan1 390#24003002008E2133
(1712234269.120332) vcan1 11A#04400001C00001E1
(1712234269.120343) vcan1 393#0010000020000035
(1712234269.120352) vcan1 1D4#6E6E0000474401EF
(1712234269.120359) vcan1 1DA#A5721800000103F2
(1712234269.120362) vcan2 4A0#0000000000000000
(1712234269.120384) vcan2 5A0#000000D6128E192B
(1712234269.120397) vcan2 1A0#00050000FEFE0002
(1712234269.120409) vcan2 5E0#00FFFFFF00008000
(1712234269.120421) vcan2 050#00093831
(1712234269.120431) vcan2 320#1A007F0100000000
(1712234269.124680) vcan0 201#00
(1712234269.124719) vcan0 101#010100
(1712234269.124726) vcan0 110#01
(1712234269.124733) vcan0 100#010100
(1712234269.124738) vcan0 111#01
(1712234269.124744) vcan0 1A0#FF0102
(1712234269.124838) vcan2 38A#D202D000
(1712234269.124855) vcan2 388#5D025F
(1712234269.126741) vcan1 1D4#6E6E000087440123
(1712234269.126763) vcan1 11A#04400000C00002FD
(1712234269.126826) vcan2 520#1DC4019E2C5E4B03
(1712234269.129218) vcan0 200#FF3FAC0A540503
(1712234269.129249) vcan1 1DA#A5721800000100F8
(1712234269.131511) vcan0 101#010100
(1712234269.133568) vcan0 111#01
(1712234269.133777) vcan2 4A0#0000000000000000
(1712234269.133795) vcan2 5A0#000000A01A8E192B
(1712234269.133804) vcan2 1A0#00050000FEFE0003
(1712234269.135358) vcan1 1D4#6E6E0000C74401E4
(1712234269.135376) vcan1 11A#04400001C000036E
(1712234269.135411) vcan2 050#00094841
(1712234269.135427) vcan2 320#1A007F0100000000
(1712234269.135436) vcan2 5E0#00FFFFFF00008000
(1712234269.138182) vcan1 1DA#A5321800000101DF
(1712234269.138193) vcan0 200#FF3F9B0A5C0503
(1712234269.138202) vcan0 600#00
(1712234269.139563) vcan0 201#00
(1712234269.141681) vcan0 101#010100
(1712234269.143359) vcan0 110#01
(1712234269.145737) vcan1 1D4#6E6E000007440128
(1712234269.145743) vcan1 11A#04400000C0000072
(1712234269.145831) vcan0 100#010100
(1712234269.145837) vcan0 111#01
(1712234269.145889) vcan2 38A#E202E000
(1712234269.145899) vcan2 388#5E025C
(1712234269.145903) vcan2 470#000200FF03
(1712234269.145906) vcan2 570#8721FF07
(1712234269.147399) vcan1 1DA#A5321800000102D5
(1712234269.147416) vcan1 55A#1C3D3C005F005AE8
(1712234269.147489) vcan0 200#FF3FA40A5D0503
(1712234269.147565) vcan2 5D0#800240A03041
(1712234269.147575) vcan2 5D8#550C000310000000
(1712234269.151498) vcan0 101#010100
(1712234269.153607) vcan0 111#01
(1712234269.153763) vcan2 4A0#0000000000000000
(1712234269.153770) vcan2 5A0#00000075228E192B
(1712234269.153774) vcan2 1A0#00050000FEFE0004
(1712234269.153777) vcan2 5E0#00FFFFFF00008000
(1712234269.157185) vcan0 200#FF3FA40A610503
(1712234269.157196) vcan0 600#00
(1712234269.157339) vcan2 320#1A007F0100000000
(1712234269.157345) vcan2 050#00095851
(1712234269.157349) vcan1 1D4#6E6E0000474401EF
(1712234269.157358) vcan1 11A#04400001C00001E1
(1712234269.157367) vcan1 1DA#A5721800000103F2
(1712234269.159413) vcan0 201#00
(1712234269.161388) vcan0 101#010100
(1712234269.163511) vcan0 110#01
(1712234269.163530) vcan0 100#010100
(1712234269.163532) vcan0 111#01
(1712234269.163698) vcan2 38A#F202F000
(1712234269.163705) vcan2 388#5F025D
(1712234269.165690) vcan0 200#FF3F9E0A580503
(1712234269.165908) vcan1 1D4#6E6E000087440123
(1712234269.165916) vcan1 11A#04400000C00002FD
(1712234269.167178) vcan1 1DA#A5721800000100F8
(1712234269.171434) vcan0 101#010100
(1712234269.175701) vcan1 1D4#6E6E0000C74401E4
(1712234269.175724) vcan0 111#01
(1712234269.175793) vcan2 4A0#0000000000000000
(1712234269.175799) vcan2 5A0#000000372A8E192B
(1712234269.175803) vcan2 1A0#00050000FEFE0005
(1712234269.175814) vcan2 5E0#00FFFFFF00008000
(1712234269.175817) vcan2 050#00096861
(1712234269.179105) vcan0 200#FF3F9F0A520503
(1712234269.179105) vcan1 11A#04400001C000036E
(1712234269.179116) vcan0 600#00
(1712234269.179116) vcan1 1DA#A5321800000101DF
(1712234269.179119) vcan0 201#00
(1712234269.181604) vcan0 101#010100
(1712234269.188452) vcan2 320#1A007F0100000000
(1712234269.188462) vcan0 110#01
(1712234269.188466) vcan2 38A#02020000
(1712234269.188473) vcan0 100#010100
(1712234269.188478) vcan0 111#01
(1712234269.190474) vcan2 388#600262
(1712234269.190492) vcan1 1D4#6E6E000007440128
(1712234269.190505) vcan1 11A#04400000C0000072
(1712234269.190511) vcan1 1DA#A5321800000102D5
(1712234269.190668) vcan0 200#FF3F9A0A5C0503
(1712234269.191857) vcan0 101#010100
(1712234269.195252) vcan1 50B#000006C0000000
(1712234269.195296) vcan2 4A0#0000000000000000
(1712234269.195310) vcan2 5A0#00000015328E192B
(1712234269.195318) vcan2 1A0#00050000FEFE0006
(1712234269.195319) vcan0 111#01
(1712234269.195325) vcan2 470#000200FF03
(1712234269.196830) vcan1 11A#04400001C00001E1
(1712234269.196843) vcan1 1D4#6E6E0000474401EF
(1712234269.196848) vcan2 280#0000040000000000
(1712234269.196861) vcan2 050#00097871
(1712234269.196870) vcan2 320#1A007F0100000000
(1712234269.196877) vcan2 5E0#00FFFFFF00008000
(1712234269.196986) vcan0 200#FF3F9B0A640503
(1712234269.200214) vcan1 1DA#A5721800000103F2
(1712234269.200502) vcan0 600#00
(1712234269.200520) vcan0 201#00
(1712234269.201945) vcan0 101#010100
(1712234269.204623) vcan0 110#01
(1712234269.204643) vcan0 100#010100
(1712234269.204650) vcan0 111#01
(1712234269.205863) vcan1 1D4#6E6E000087440123
(1712234269.205870) vcan1 11A#04400000C00002FD
(1712234269.206025) vcan2 38A#12021000
(1712234269.206043) vcan2 388#610263
(1712234269.207246) vcan1 1DA#A5721800000100F8
(1712234269.207622) vcan0 200#FF3F8A0A5E0503
(1712234269.211640) vcan0 101#010100
(1712234269.213574) vcan2 4A0#0000000000000000
(1712234269.213591) vcan2 5A0#000000E4398E192B
(1712234269.213598) vcan2 1A0#00050000FEFE0007
(1712234269.213649) vcan0 111#01
(1712234269.215145) vcan2 5E0#00FFFFFF00008000
(1712234269.215170) vcan2 320#1A007F0100000000
(1712234269.215178) vcan2 050#00098881
(1712234269.215184) vcan1 1D4#6E6E0000C74401E4
(1712234269.215201) vcan1 390#24003002008E2100
(1712234269.215208) vcan1 11A#04400001C000036E
(1712234269.217244) vcan0 200#FF3F9B0A610503
(1712234269.217250) vcan1 393#0010000020000002
(1712234269.217265) vcan1 1DA#A5321800000101DF
(1712234269.225355) vcan2 38A#22022000
(1712234269.225360) vcan0 600#00
(1712234269.225368) vcan1 11A#04400000C0000072
(1712234269.225380) vcan0 201#00
(1712234269.225381) vcan2 388#620260
(1712234269.225385) vcan1 1D4#6E6E000007440128
(1712234269.225389) vcan0 101#010100
(1712234269.225396) vcan0 110#01
(1712234269.225404) vcan0 100#010100
(1712234269.225411) vcan0 111#01
(1712234269.225417) vcan0 1A0#FF0103
(1712234269.227368) vcan0 200#FF3FA20A780503
(1712234269.227453) vcan1 1DA#A5321800000102D5
(1712234269.233499) vcan0 101#010100
(1712234269.239332) vcan0 111#01
(1712234269.239344) vcan2 4A0#0000000000000000
(1712234269.239354) vcan2 5A0#000000A7418E192B
(1712234269.239360) vcan2 1A0#00050000FEFE0008
(1712234269.239623) vcan2 5E0#00FFFFFF00008000
(1712234269.239640) vcan2 320#1A007F0100000000
(1712234269.239646) vcan2 050#00099891
(1712234269.239651) vcan2 420#828A89FF00008000
(1712234269.239701) vcan0 200#FF3F970A3C0503
(1712234269.239710) vcan0 600#00
(1712234269.239715) vcan0 201#00
(1712234269.239857) vcan1 1D4#6E6E0000474401EF
(1712234269.239880) vcan1 11A#04400001C00001E1
(1712234269.239884) vcan1 1DA#A5721800000103F2
(1712234269.242139) vcan0 101#010100
(1712234269.246242) vcan1 1D4#6E6E000087440123
(1712234269.246260) vcan1 11A#04400000C00002FD
(1712234269.246279) vcan0 110#01
(1712234269.246285) vcan0 100#010100
(1712234269.246288) vcan0 111#01
(1712234269.246293) vcan2 38A#32023000
(1712234269.246299) vcan2 388#630261
(1712234269.246303) vcan2 470#000200FF03
(1712234269.246306) vcan2 570#8721FF07
(1712234269.246309) vcan2 5D0#800240A03041
(1712234269.246312) vcan2 5D8#550C000310000000
(1712234269.248604) vcan0 200#FF3F990A580503
(1712234269.248607) vcan1 1DA#A5721800000100F8
(1712234269.248623) vcan1 55A#1E3D3C005F005AE8
(1712234269.251531) vcan0 101#010100
(1712234269.255527) vcan1 1D4#6E6E0000C74401E4
(1712234269.255536) vcan1 11A#04400001C000036E
(1712234269.255652) vcan0 111#01
(1712234269.255689) vcan2 4A0#0000000000000000
(1712234269.255696) vcan2 5A0#00000086498E192B
(1712234269.255700) vcan2 1A0#00050000FEFE0009
(1712234269.255704) vcan2 320#1A007F0100000000
(1712234269.255707) vcan2 5E0#00FFFFFF00008000
(1712234269.255711) vcan2 050#0009A8A1
(1712234269.257342) vcan1 1DA#A5321800000101DF
(1712234269.257667) vcan0 200#FF3F870A380503
(1712234269.265740) vcan0 600#00
(1712234269.265757) vcan0 201#00
(1712234269.265762) vcan0 101#010100
(1712234269.265765) vcan0 110#01
(1712234269.265768) vcan0 100#010100
(1712234269.268639) vcan2 38A#42024000
(1712234269.268649) vcan2 388#640266
(1712234269.271654) vcan0 111#01
(1712234269.271660) vcan0 200#FF3FA30A590503
(1712234269.271663) vcan0 101#010100
(1712234269.273575) vcan2 4A0#0000000000000000
(1712234269.273578) vcan0 111#01
(1712234269.273581) vcan2 5A0#0000004C518E192B
(1712234269.273584) vcan2 1A0#00050000FEFE000A
(1712234269.275364) vcan2 5E0#00FFFFFF00008000
(1712234269.275375) vcan2 320#1A007F0100000000
(1712234269.275379) vcan2 050#0009B8B1
(1712234269.275389) vcan1 1D4#6E6E000007440128
(1712234269.275399) vcan1 11A#04400000C0000072
(1712234269.275403) vcan1 1DA#A5321800000102D5
(1712234269.275407) vcan1 1D4#6E6E0000474401EF
(1712234269.275410) vcan1 11A#04400001C00001E1
(1712234269.279991) vcan1 1DA#A5721800000103F2
(1712234269.280069) vcan0 200#FF3F980A680503
(1712234269.280081) vcan0 600#00
(1712234269.280085) vcan0 201#00
(1712234269.290769) vcan1 1D4#6E6E000087440123
(1712234269.290779) vcan1 11A#04400000C00002FD
(1712234269.290782) vcan1 1DA#A5721800000100F8
(1712234269.290865) vcan0 101#010100
(1712234269.290874) vcan0 110#01
(1712234269.290878) vcan0 100#010100
(1712234269.290882) vcan0 111#01
(1712234269.290886) vcan0 200#FF3F8C0A620503
(1712234269.290889) vcan2 38A#52025000
(1712234269.290896) vcan2 388#650267
(1712234269.296342) vcan1 1D4#6E6E0000C74401E4
(1712234269.296348) vcan1 50B#000006C0000000
(1712234269.296351) vcan1 11A#04400001C000036E
(1712234269.296353) vcan1 1DA#A5321800000101DF
(1712234269.296412) vcan2 4A0#0000000000000000
(1712234269.296412) vcan0 101#010100
(1712234269.296416) vcan2 5A0#00000020598E192B
(1712234269.296418) vcan0 111#01
(1712234269.296420) vcan2 1A0#00050000FEFE000B
(1712234269.296423) vcan0 200#FF3FA50A680503
(1712234269.296424) vcan2 280#0000040000000000
(1712234269.296428) vcan2 470#000200FF03
(1712234269.296431) vcan2 320#1A007F0100000000
(1712234269.296435) vcan2 5E0#00FFFFFF00008000
(1712234269.296439) vcan2 050#0009C8C1
(1712234269.299222) vcan0 600#00
(1712234269.299231) vcan0 201#00
(1712234269.301926) vcan0 101#010100
(1712234269.305836) vcan1 1D4#6E6E000007440128
(1712234269.305840) vcan2 38A#62026000
(1712234269.305845) vcan1 11A#04400000C0000072
(1712234269.305847) vcan2 388#660264
(1712234269.306023) vcan0 110#01
(1712234269.306033) vcan0 100#010100
(1712234269.306036) vcan0 111#01
(1712234269.307080) vcan1 1DA#A5321800000102D5
(1712234269.307323) vcan0 200#FF3F980A7F0503
(1712234269.311761) vcan0 101#010100
(1712234269.319493) vcan2 4A0#0000000000000000
(1712234269.319502) vcan2 5A0#000000EF608E192B
(1712234269.319507) vcan2 1A0#00050000FEFE000C
(1712234269.319572) vcan0 111#01
(1712234269.319848) vcan2 320#1A007F0100000000
(1712234269.319851) vcan1 1D4#6E6E0000474401EF
(1712234269.319853) vcan2 5E0#00FFFFFF00008000
(1712234269.319859) vcan2 050#0009D8D1
(1712234269.319863) vcan1 390#24003002008E2111
(1712234269.319869) vcan1 11A#04400001C00001E1
(1712234269.319879) vcan1 393#0010000020000013
(1712234269.319883) vcan1 1DA#A5721800000103F2
(1712234269.320110) vcan0 200#FF3FA20A660503
(1712234269.320124) vcan0 600#00
(1712234269.320130) vcan0 201#00
(1712234269.331915) vcan2 38A#72027000
(1712234269.331918) vcan1 11A#04400000C00002FD
(1712234269.331930) vcan2 388#670265
(1712234269.331934) vcan1 1D4#6E6E000087440123
(1712234269.331938) vcan2 520#0101019E2C5E4B03
(1712234269.331943) vcan1 1DA#A5721800000100F8
(1712234269.332096) vcan0 101#010100
(1712234269.332112) vcan0 100#010100
(1712234269.332120) vcan0 110#01
(1712234269.332127) vcan0 111#01
(1712234269.332135) vcan0 1A0#FF0100
(1712234269.332156) vcan0 200#FF3F9C0A660503
(1712234269.335937) vcan1 1D4#6E6E0000C74401E4
(1712234269.335947) vcan1 11A#04400001C000036E
(1712234269.336108) vcan2 4A0#0000000000000000
(1712234269.336119) vcan2 5A0#000000B8688E192B
(1712234269.336127) vcan2 1A0#00050000FEFE000D
(1712234269.336137) vcan2 320#1A007F0100000000
(1712234269.336142) vcan0 101#010100
(1712234269.336146) vcan2 5E0#00FFFFFF00008000
(1712234269.336153) vcan2 050#0009E8E1
(1712234269.336156) vcan0 111#01
(1712234269.338875) vcan1 1DA#A5321800000101DF
(1712234269.339054) vcan0 200#FF3FA40A360503
(1712234269.339072) vcan0 600#00
(1712234269.339079) vcan0 201#00
(1712234269.357073) vcan1 11A#04400000C0000072
(1712234269.357079) vcan1 1D4#6E6E000007440128
(1712234269.357081) vcan1 1DA#A5321800000102D5
(1712234269.357083) vcan1 55A#133D3C005F005AE8
(1712234269.357196) vcan2 38A#82028000
(1712234269.357200) vcan2 388#68026A
(1712234269.357202) vcan2 470#000200FF03
(1712234269.357206) vcan2 570#8721FF07
(1712234269.357209) vcan2 5D0#800240A03041
(1712234269.357211) vcan2 5D8#550C000310000000
(1712234269.357283) vcan0 101#010100
(1712234269.357291) vcan0 110#01
(1712234269.357294) vcan0 100#010100
(1712234269.357297) vcan0 111#01
(1712234269.357302) vcan0 200#FF3FA50A580503
(1712234269.357305) vcan0 101#010100
(1712234269.357726) vcan1 1D4#6E6E0000474401EF
(1712234269.357744) vcan1 11A#04400001C00001E1
(1712234269.357747) vcan2 4A0#0000000000000000
(1712234269.357751) vcan2 5A0#0000008E708E192B
(1712234269.357754) vcan2 1A0#00050000FEFE000E
(1712234269.357757) vcan2 5E0#00FFFFFF00008000
(1712234269.357759) vcan0 111#01
(1712234269.357760) vcan2 320#1A007F0100000000
(1712234269.357760) vcan1 1DA#A5721800000103F2
(1712234269.357769) vcan2 050#0009F8F1
(1712234269.357769) vcan0 200#FF3F980A6A0503
(1712234269.357773) vcan0 600#00
(1712234269.359331) vcan0 201#00
(1712234269.362392) vcan0 101#010100
(1712234269.362398) vcan0 110#01
(1712234269.368872) vcan1 1D4#6E6E000087440123
(1712234269.368880) vcan1 11A#04400000C00002FD
(1712234269.368885) vcan1 1DA#A5721800000100F8
(1712234269.368924) vcan2 38A#92029000
(1712234269.368932) vcan2 388#69026B
(1712234269.369013) vcan0 100#010100
(1712234269.369024) vcan0 111#01
(1712234269.369028) vcan0 200#FF3F990A650503
(1712234269.374018) vcan1 1D4#6E6E0000C74401E4
(1712234269.374187) vcan0 101#010100
(1712234269.374200) vcan0 111#01
(1712234269.374237) vcan2 4A0#0000000000000000
(1712234269.374248) vcan2 5A0#00000053788E192B
(1712234269.374253) vcan2 1A0#00050000FEFE000F
(1712234269.374256) vcan2 5E0#00FFFFFF00008000
(1712234269.375967) vcan1 11A#04400001C000036E
(1712234269.375969) vcan1 1DA#A5321800000101DF
(1712234269.376114) vcan2 320#1A007F0100000000
(1712234269.376118) vcan2 050#00090801
(1712234269.376184) vcan0 200#FF3F990A520503
(1712234269.377351) vcan0 600#00
(1712234269.379494) vcan0 201#00
(1712234269.383824) vcan1 11A#04400000C0000072
(1712234269.383886) vcan2 38A#A202A000
(1712234269.384003) vcan0 101#010100
(1712234269.384012) vcan0 100#010100
(1712234269.384014) vcan0 110#01
(1712234269.384017) vcan0 111#01
(1712234269.385206) vcan1 1D4#6E6E000007440128
(1712234269.385315) vcan2 388#6A0268
(1712234269.386650) vcan1 1DA#A5321800000102D5
(1712234269.386810) vcan0 200#FF3FAD0A640503
(1712234269.395316) vcan2 4A0#0000000000000000
(1712234269.395323) vcan2 5A0#00000030808E192B
(1712234269.395326) vcan2 1A0#00050000FEFE0000
(1712234269.395329) vcan2 280#0000040000000000
(1712234269.395334) vcan2 470#000200FF03
(1712234269.395337) vcan2 050#00091811
(1712234269.395339) vcan2 320#1A007F0100000000
(1712234269.395372) vcan0 101#010100
(1712234269.395380) vcan0 111#01
(1712234269.395383) vcan1 50B#000006C0000000
(1712234269.395389) vcan1 1D4#6E6E0000474401EF
(1712234269.395392) vcan1 11A#04400001C00001E1
(1712234269.398835) vcan2 5E0#00FFFFFF00008000
(1712234269.398869) vcan0 200#FF3F9C0A6C0503
(1712234269.398886) vcan0 600#00
(1712234269.398886) vcan1 1DA#A5721800000103F2
(1712234269.400467) vcan0 201#00
(1712234269.401868) vcan0 101#010100
(1712234269.405704) vcan0 110#01
(1712234269.405711) vcan1 11A#04400000C00002FD
(1712234269.405718) vcan2 38A#B202B000
(1712234269.405722) vcan0 100#010100
(1712234269.405735) vcan2 388#6B0269
(1712234269.405735) vcan0 111#01
(1712234269.405741) vcan1 1D4#6E6E000087440123
(1712234269.407188) vcan1 1DA#A5721800000100F8
(1712234269.407217) vcan0 200#FF3FB30A600503
(1712234269.411816) vcan0 101#010100
(1712234269.419026) vcan2 4A0#0000000000000000
(1712234269.419032) vcan0 111#01
(1712234269.419038) vcan2 5A0#000000FA878E192B
(1712234269.419042) vcan2 1A0#00050000FEFE0001
(1712234269.419045) vcan2 320#1A007F0100000000
(1712234269.419048) vcan2 5E0#00FFFFFF00008000
(1712234269.419051) vcan2 050#00092821
(1712234269.419087) vcan1 11A#04400001C000036E
(1712234269.419094) vcan1 1D4#6E6E0000C74401E4
(1712234269.419099) vcan1 390#24003002008E2122
(1712234269.419101) vcan1 393#0010000020000024
(1712234269.420788) vcan1 1DA#A5321800000101DF
(1712234269.420815) vcan0 200#FF3F980A5D0503
(1712234269.420819) vcan0 600#00
(1712234269.420825) vcan0 201#00
(1712234269.422498) vcan0 101#010100
(1712234269.423897) vcan0 110#01
(1712234269.423901) vcan0 100#010100
(1712234269.425739) vcan1 1D4#6E6E000007440128
(1712234269.425743) vcan1 11A#04400000C0000072
(1712234269.425745) vcan1 1DA#A5321800000102D5
(1712234269.425756) vcan0 1A0#FF0101
(1712234269.425760) vcan0 111#01
(1712234269.425780) vcan2 38A#C202C000
(1712234269.425783) vcan2 388#6C026E
(1712234269.428554) vcan0 200#FF3F9F0A5E0503
(1712234269.431797) vcan0 101#010100
(1712234269.439709) vcan2 4A0#0000000000000000
(1712234269.439721) vcan2 5A0#000000C78F8E192B
(1712234269.439724) vcan2 1A0#00050000FEFE0002
(1712234269.441552) vcan2 320#1A007F0100000000
(1712234269.441556) vcan2 5E0#00FFFFFF00008000
(1712234269.441560) vcan2 050#00093831
(1712234269.441564) vcan2 420#828A89FF00008000
(1712234269.441622) vcan1 11A#04400001C00001E1
(1712234269.441630) vcan1 1D4#6E6E0000474401EF
(1712234269.441633) vcan1 1DA#A5721800000103F2
(1712234269.441828) vcan0 111#01
(1712234269.441838) vcan0 200#FF3F9E0A730503
(1712234269.441841) vcan0 600#00
(1712234269.441844) vcan0 201#00
(1712234269.441847) vcan0 101#010100
(1712234269.445808) vcan2 38A#D202D000
(1712234269.445812) vcan2 388#6D026F
(1712234269.445878) vcan0 100#010100
(1712234269.445881) vcan0 110#01
(1712234269.445883) vcan0 111#01
(1712234269.445895) vcan1 1D4#6E6E000087440123
(1712234269.445901) vcan1 11A#04400000C00002FD
(1712234269.448845) vcan2 470#000200FF03
(1712234269.448849) vcan2 570#8721FF07
(1712234269.448852) vcan2 5D0#800240A03041
(1712234269.455543) vcan2 5D8#550C000310000000
(1712234269.455548) vcan2 4A0#0000000000000000
(1712234269.455553) vcan2 5A0#000000A0978E192B
(1712234269.455558) vcan2 1A0#00050000FEFE0003
(1712234269.455563) vcan2 320#1A007F0100000000
(1712234269.455567) vcan2 5E0#00FFFFFF00008000
(1712234269.455568) vcan1 1DA#A5721800000100F8
(1712234269.455571) vcan2 050#00094841
(1712234269.455573) vcan1 55A#1C3D3C005F005AE8
(1712234269.455578) vcan1 1D4#6E6E0000C74401E4
(1712234269.455581) vcan1 11A#04400001C000036E
(1712234269.455669) vcan0 200#FF3FA60A5B0503
(1712234269.455686) vcan0 101#010100
(1712234269.455698) vcan0 111#01
(1712234269.457001) vcan1 1DA#A5321800000101DF
(1712234269.457144) vcan0 200#FF3F940A580503
(1712234269.457148) vcan0 600#00
(1712234269.459491) vcan0 201#00
(1712234269.464329) vcan0 101#010100
(1712234269.464337) vcan0 110#01
(1712234269.464342) vcan0 100#010100
(1712234269.464346) vcan0 111#01
(1712234269.466488) vcan2 38A#E202E000
(1712234269.466501) vcan2 388#6E026C
(1712234269.466530) vcan1 11A#04400000C0000072
(1712234269.466538) vcan0 200#FF3FAC0A5E0503
(1712234269.466543) vcan1 1D4#6E6E000007440128
(1712234269.466550) vcan1 1DA#A5321800000102D5
(1712234269.471883) vcan0 101#010100
(1712234269.473569) vcan2 4A0#0000000000000000
(1712234269.473569) vcan0 111#01
(1712234269.473575) vcan2 5A0#000000679F8E192B
(1712234269.473582) vcan2 1A0#00050000FEFE0004
(1712234269.475276) vcan1 11A#04400001C00001E1
(1712234269.475286) vcan1 1D4#6E6E0000474401EF
(1712234269.475436) vcan2 5E0#00FFFFFF00008000
(1712234269.475451) vcan2 050#00095851
(1712234269.475459) vcan2 320#1A007F0100000000
(1712234269.478492) vcan0 200#FF3F9F0A6C0503
(1712234269.478496) vcan0 600#00
(1712234269.478517) vcan1 1DA#A5721800000103F2
(1712234269.479886) vcan0 201#00
(1712234269.486173) vcan1 11A#04400000C00002FD
(1712234269.486177) vcan0 101#010100
(1712234269.486179) vcan1 1D4#6E6E000087440123
(1712234269.486183) vcan0 100#010100
(1712234269.486187) vcan0 110#01
(1712234269.486190) vcan0 111#01
(1712234269.488075) vcan1 1DA#A5721800000100F8
(1712234269.488097) vcan0 200#FF3F9E0A570503
(1712234269.495351) vcan0 101#010100
(1712234269.497211) vcan0 111#01
(1712234269.497257) vcan1 50B#000006C0000000
(1712234269.497280) vcan1 11A#04400001C000036E
(1712234269.497298) vcan1 1D4#6E6E0000C74401E4
(1712234269.497457) vcan2 38A#F202F000
(1712234269.497466) vcan2 388#6F026D
(1712234269.497471) vcan2 4A0#0000000000000000
(1712234269.497475) vcan2 5A0#00000040A78E192B
(1712234269.497479) vcan2 1A0#00050000FEFE0005
(1712234269.497483) vcan2 280#0000040000000000
(1712234269.497486) vcan2 320#1A007F0100000000
(1712234269.497489) vcan2 470#000200FF03
(1712234269.497493) vcan2 050#00096861
(1712234269.497496) vcan2 5E0#00FFFFFF00008000
(1712234269.498622) vcan0 200#FF3FB30A690503
(1712234269.498626) vcan1 1DA#A5321800000101DF
(1712234269.498635) vcan0 600#00
(1712234269.499934) vcan0 201#00
(1712234269.505716) vcan0 101#010100
(1712234269.505720) vcan0 110#01
(1712234269.505722) vcan0 100#010100
(1712234269.505724) vcan0 111#01
(1712234269.505739) vcan1 11A#04400000C0000072
(1712234269.505778) vcan1 1D4#6E6E000007440128
(1712234269.505945) vcan2 38A#02020000
(1712234269.505955) vcan2 388#700272
(1712234269.507104) vcan0 200#FF3F960A5D0503
(1712234269.507146) vcan1 1DA#A5321800000102D5
(1712234269.516125) vcan0 101#010100
(1712234269.516152) vcan0 111#01
(1712234269.516151) vcan1 11A#04400001C00001E1
(1712234269.516183) vcan1 1D4#6E6E0000474401EF
(1712234269.516351) vcan2 4A0#0000000000000000
(1712234269.516363) vcan2 5A0#00000008AF8E192B
(1712234269.516369) vcan2 1A0#00050000FEFE0006
(1712234269.516374) vcan2 320#1A007F0100000000
(1712234269.517616) vcan0 200#FF3FA00A5F0503
(1712234269.517642) vcan0 600#00
(1712234269.517697) vcan2 5E0#00FFFFFF00008000
(1712234269.517709) vcan2 050#00097871
(1712234269.519844) vcan0 201#00
(1712234269.525101) vcan2 38A#12021000
(1712234269.525140) vcan1 390#24003002008E2133
(1712234269.525149) vcan1 393#0010000020000035
(1712234269.525153) vcan1 1DA#A5721800000103F2
(1712234269.525167) vcan0 101#010100
(1712234269.525183) vcan0 110#01
(1712234269.525192) vcan0 100#010100
(1712234269.525194) vcan0 1A0#FF0102
(1712234269.525197) vcan0 111#01
(1712234269.526543) vcan1 1D4#6E6E000087440123
(1712234269.526550) vcan1 11A#04400000C00002FD
(1712234269.526553) vcan1 1DA#A5721800000100F8
(1712234269.526613) vcan0 200#FF3FA90A640503
(1712234269.526651) vcan2 388#710273
(1712234269.536424) vcan0 101#010100
(1712234269.536437) vcan0 111#01
(1712234269.536463) vcan1 11A#04400001C000036E
(1712234269.536471) vcan1 1D4#6E6E0000C74401E4
(1712234269.536625) vcan2 520#4042019E2C5E4B03
(1712234269.536640) vcan2 4A0#0000000000000000
(1712234269.536648) vcan2 5A0#000000DCB68E192B
(1712234269.536656) vcan2 1A0#00050000FEFE0007
(1712234269.536664) vcan2 320#1A007F0100000000
(1712234269.536670) vcan2 050#00098881
(1712234269.540923) vcan2 5E0#00FFFFFF00008000
(1712234269.542259) vcan0 200#FF3F9C0A620503
(1712234269.542274) vcan0 600#00
(1712234269.542291) vcan0 101#010100
(1712234269.542296) vcan0 201#00
(1712234269.543693) vcan0 100#010100
(1712234269.543698) vcan0 110#01
(1712234269.543703) vcan0 111#01
(1712234269.543710) vcan1 1DA#A5321800000101DF
(1712234269.543718) vcan1 1D4#6E6E000007440128
(1712234269.547224) vcan1 11A#04400000C0000072
(1712234269.547233) vcan1 1DA#A5321800000102D5
(1712234269.547238) vcan1 55A#1E3D3C005F005AE8
(1712234269.547449) vcan2 38A#22022000
(1712234269.547462) vcan2 388#720270
(1712234269.547470) vcan2 470#000200FF03
(1712234269.547476) vcan2 570#8721FF07
(1712234269.547483) vcan2 5D0#800240A03041
(1712234269.547490) vcan2 5D8#550C000310000000
(1712234269.548983) vcan0 200#FF3F9E0A520503
(1712234269.552162) vcan0 101#010100
(1712234269.555866) vcan0 111#01
(1712234269.555891) vcan1 1D4#6E6E0000474401EF
(1712234269.555913) vcan1 11A#04400001C00001E1
(1712234269.555927) vcan1 1DA#A5721800000103F2
(1712234269.556115) vcan2 4A0#0000000000000000
(1712234269.556126) vcan2 5A0#000000B3BE8E192B
(1712234269.556131) vcan2 1A0#00050000FEFE0008
(1712234269.556136) vcan2 320#1A007F0100000000
(1712234269.556140) vcan2 050#00099891
(1712234269.556144) vcan2 5E0#00FFFFFF00008000
(1712234269.557121) vcan0 200#FF3F930A600503
(1712234269.557133) vcan0 600#00
(1712234269.562515) vcan0 201#00
(1712234269.562520) vcan0 101#010100
(1712234269.562522) vcan0 100#010100
(1712234269.562524) vcan0 110#01
(1712234269.564512) vcan0 111#01
(1712234269.564654) vcan1 11A#04400000C00002FD
(1712234269.564662) vcan1 1D4#6E6E000087440123
(1712234269.564664) vcan2 38A#32023000
(1712234269.564672) vcan2 388#730271
(1712234269.566304) vcan1 1DA#A5721800000100F8
(1712234269.566327) vcan0 200#FF3FB70A580503
(1712234269.571914) vcan0 101#010100
(1712234269.573389) vcan2 4A0#0000000000000000
(1712234269.573394) vcan2 5A0#00000078C68E192B
(1712234269.573397) vcan2 1A0#00050000FEFE0009
(1712234269.574884) vcan0 111#01
(1712234269.574896) vcan2 320#1A007F0100000000
(1712234269.574899) vcan1 11A#04400001C000036E
(1712234269.574902) vcan1 1D4#6E6E0000C74401E4
(1712234269.574903) vcan2 5E0#00FFFFFF00008000
(1712234269.574907) vcan2 050#0009A8A1
(1712234269.576358) vcan1 1DA#A5321800000101DF
(1712234269.578704) vcan0 200#FF3F950A4D0503
(1712234269.578721) vcan0 600#00
(1712234269.578723) vcan0 201#00
(1712234269.583689) vcan0 101#010100
(1712234269.583704) vcan0 110#01
(1712234269.583706) vcan0 100#010100
(1712234269.585204) vcan0 111#01
(1712234269.585211) vcan1 11A#04400000C0000072
(1712234269.585217) vcan1 1D4#6E6E000007440128
(1712234269.585268) vcan2 38A#42024000
(1712234269.585273) vcan2 388#740276
(1712234269.586522) vcan0 200#FF3F970A5E0503
(1712234269.586609) vcan1 1DA#A5321800000102D5
(1712234269.591979) vcan0 101#010100
(1712234269.602088) vcan2 4A0#0000000000000000
(1712234269.602085) vcan1 50B#000006C0000000
(1712234269.602097) vcan2 5A0#0000004FCE8E192B
(1712234269.602098) vcan1 1D4#6E6E0000474401EF
(1712234269.602101) vcan2 1A0#00050000FEFE000A
(1712234269.602101) vcan1 11A#04400001C00001E1
(1712234269.602099) vcan0 111#01
(1712234269.602105) vcan1 1DA#A5721800000103F2
(1712234269.602106) vcan2 320#1A007F0100000000
(1712234269.602111) vcan2 280#0000040000000000
(1712234269.602114) vcan2 050#0009B8B1
(1712234269.602118) vcan2 470#000200FF03
(1712234269.602121) vcan2 5E0#00FFFFFF00008000
(1712234269.602121) vcan0 200#FF3F980A6B0503
(1712234269.602127) vcan0 600#00
(1712234269.602129) vcan0 201#00
(1712234269.602131) vcan0 101#010100
(1712234269.604553) vcan1 1D4#6E6E000087440123
(1712234269.604599) vcan0 110#01
(1712234269.604602) vcan2 38A#52025000
(1712234269.604614) vcan0 100#010100
(1712234269.604620) vcan2 388#750277
(1712234269.604626) vcan0 111#01
(1712234269.607802) vcan1 11A#04400000C00002FD
(1712234269.612196) vcan0 200#FF3F9B0A640503
(1712234269.612201) vcan0 101#010100
(1712234269.616835) vcan0 111#01
(1712234269.616864) vcan1 1DA#A5721800000100F8
(1712234269.616872) vcan1 11A#04400001C000036E
(1712234269.616876) vcan1 1D4#6E6E0000C74401E4
(1712234269.616879) vcan1 390#24003002008E2100
(1712234269.616882) vcan1 393#0010000020000002
(1712234269.616909) vcan2 4A0#0000000000000000
(1712234269.616918) vcan2 5A0#00000021D68E192B
(1712234269.616923) vcan2 1A0#00050000FEFE000B
(1712234269.616927) vcan2 320#1A007F0100000000
(1712234269.616931) vcan2 5E0#00FFFFFF00008000
(1712234269.616935) vcan2 050#0009C8C1
(1712234269.618319) vcan0 200#FF3F9C0A650503
(1712234269.618333) vcan0 600#00
(1712234269.618340) vcan1 1DA#A5321800000101DF
(1712234269.619601) vcan0 201#00
(1712234269.627216) vcan0 101#010100
(1712234269.627223) vcan1 11A#04400000C0000072
(1712234269.627234) vcan1 1D4#6E6E000007440128
(1712234269.627236) vcan0 100#010100
(1712234269.627239) vcan1 1DA#A5321800000102D5
(1712234269.627252) vcan0 110#01
(1712234269.627264) vcan0 1A0#FF0103
(1712234269.627267) vcan0 111#01
(1712234269.627269) vcan0 200#FF3F900A5F0503
(1712234269.627409) vcan2 38A#62026000
(1712234269.627419) vcan2 388#760274
(1712234269.634499) vcan1 11A#04400001C00001E1
(1712234269.634506) vcan0 101#010100
(1712234269.634512) vcan0 111#01
(1712234269.634661) vcan2 4A0#0000000000000000
(1712234269.634672) vcan2 5A0#000000F5DD8E192B
(1712234269.634677) vcan2 1A0#00050000FEFE000C
(1712234269.636463) vcan1 1D4#6E6E0000474401EF
(1712234269.636481) vcan1 1DA#A5721800000103F2
(1712234269.636572) vcan2 320#1A007F0100000000
(1712234269.636580) vcan2 5E0#00FFFFFF00008000
(1712234269.636584) vcan2 050#0009D8D1
(1712234269.636588) vcan2 420#828A89FF00008000
(1712234269.637827) vcan0 200#FF3FAA0A610503
(1712234269.637832) vcan0 600#00
(1712234269.640917) vcan0 201#00
(1712234269.643662) vcan0 101#010100
(1712234269.643670) vcan0 110#01
(1712234269.643674) vcan0 100#010100
(1712234269.643677) vcan0 111#01
(1712234269.647240) vcan1 11A#04400000C00002FD
(1712234269.647263) vcan1 1D4#6E6E000087440123
(1712234269.647291) vcan1 1DA#A5721800000100F8
(1712234269.647297) vcan1 55A#133D3C005F005AE8
(1712234269.647306) vcan2 38A#72027000
(1712234269.647314) vcan2 388#770275
(1712234269.647318) vcan2 470#000200FF03
(1712234269.647321) vcan2 570#8721FF07
(1712234269.647325) vcan2 5D0#800240A03041
(1712234269.647323) vcan0 200#FF3F9E0A5A0503
(1712234269.647328) vcan2 5D8#550C000310000000
(1712234269.652462) vcan0 101#010100
(1712234269.654568) vcan2 4A0#0000000000000000
(1712234269.654575) vcan2 5A0#000000BBE58E192B
(1712234269.656841) vcan2 1A0#00050000FEFE000D
(1712234269.656849) vcan2 320#1A007F0100000000
(1712234269.656855) vcan2 5E0#00FFFFFF00008000
(1712234269.656860) vcan2 050#0009E8E1
(1712234269.656905) vcan1 1D4#6E6E0000C74401E4
(1712234269.656916) vcan1 11A#04400001C000036E
(1712234269.656919) vcan1 1DA#A5321800000101DF
(1712234269.657104) vcan0 111#01
(1712234269.657113) vcan0 200#FF3F940A580503
(1712234269.658266) vcan0 600#00
(1712234269.660419) vcan0 201#00
(1712234269.664230) vcan1 11A#04400000C0000072
(1712234269.664238) vcan1 1D4#6E6E000007440128
(1712234269.664260) vcan2 38A#82028000
(1712234269.664412) vcan0 101#010100
(1712234269.664418) vcan0 110#01
(1712234269.664422) vcan0 100#010100
(1712234269.664426) vcan0 111#01
(1712234269.665547) vcan1 1DA#A5321800000102D5
(1712234269.665591) vcan2 388#78027A
(1712234269.667398) vcan0 200#FF3FA50A5A0503
(1712234269.672638) vcan0 101#010100
(1712234269.674107) vcan1 11A#04400001C00001E1
(1712234269.674112) vcan2 4A0#0000000000000000
(1712234269.674121) vcan2 5A0#00000096ED8E192B
(1712234269.674126) vcan2 1A0#00050000FEFE000E
(1712234269.674278) vcan0 111#01
(1712234269.678228) vcan1 1D4#6E6E0000474401EF
(1712234269.678260) vcan1 1DA#A5721800000103F2
(1712234269.678308) vcan2 320#1A007F0100000000
(1712234269.678319) vcan2 5E0#00FFFFFF00008000
(1712234269.678325) vcan2 050#0009F8F1
(1712234269.678327) vcan0 200#FF3FAA0A590503
(1712234269.678336) vcan0 600#00
(1712234269.681379) vcan0 201#00
(1712234269.681389) vcan0 101#010100
(1712234269.690875) vcan2 38A#92029000
(1712234269.690881) vcan0 100#010100
(1712234269.690889) vcan0 110#01
(1712234269.690889) vcan2 388#79027B
(1712234269.690889) vcan1 1D4#6E6E000087440123
(1712234269.690893) vcan0 111#01
(1712234269.690898) vcan0 200#FF3F980A660503
(1712234269.690906) vcan1 11A#04400000C00002FD
(1712234269.690911) vcan1 1DA#A5721800000100F8
(1712234269.692309) vcan0 101#010100
(1712234269.693736) vcan2 4A0#0000000000000000
(1712234269.693744) vcan2 5A0#00000058F58E192B
(1712234269.693747) vcan2 1A0#00050000FEFE000F
(1712234269.693780) vcan0 111#01
(1712234269.701454) vcan2 280#0000040000000000
(1712234269.701460) vcan2 320#1A007F0100000000
(1712234269.701463) vcan2 470#000200FF03
(1712234269.701465) vcan2 050#00090801
(1712234269.701468) vcan2 5E0#00FFFFFF00008000
(1712234269.701557) vcan1 50B#000006C0000000
(1712234269.701576) vcan1 1D4#6E6E0000C74401E4
(1712234269.701586) vcan1 11A#04400001C000036E
(1712234269.703189) vcan0 200#FF3FAD0A620503
(1712234269.703197) vcan0 600#00
(1712234269.703201) vcan0 201#00
(1712234269.703204) vcan0 101#010100
(1712234269.703218) vcan0 110#01
(1712234269.703220) vcan0 100#010100
(1712234269.703373) vcan1 1DA#A5321800000101DF
(1712234269.704775) vcan2 38A#A202A000
(1712234269.704779) vcan2 388#7A0278
(1712234269.704811) vcan0 111#01
(1712234269.704947) vcan1 11A#04400000C0000072
(1712234269.704955) vcan1 1D4#6E6E000007440128
(1712234269.708890) vcan0 200#FF3FBF0A640503
(1712234269.708972) vcan1 1DA#A5321800000102D5
(1712234269.714303) vcan2 4A0#0000000000000000
(1712234269.714313) vcan2 5A0#00000035FD8E192B
(1712234269.714317) vcan2 1A0#00050000FEFE0000
(1712234269.714450) vcan0 101#010100
(1712234269.715929) vcan2 320#1A007F0100000000
(1712234269.715962) vcan2 5E0#00FFFFFF00008000
(1712234269.715965) vcan2 050#00091811
(1712234269.716082) vcan0 111#01
(1712234269.716270) vcan1 11A#04400001C00001E1
(1712234269.716278) vcan1 1D4#6E6E0000474401EF
(1712234269.716281) vcan1 390#24003002008E2111
(1712234269.718470) vcan0 200#FF3F980A5C0503
(1712234269.718480) vcan0 600#00
(1712234269.718687) vcan1 393#0010000020000013
(1712234269.718696) vcan1 1DA#A5721800000103F2
(1712234269.720047) vcan0 201#00
(1712234269.722721) vcan0 101#010100
(1712234269.722727) vcan0 110#01
(1712234269.722730) vcan0 100#010100
(1712234269.724571) vcan0 1A0#FF0100
(1712234269.724581) vcan0 111#01
(1712234269.724816) vcan1 1D4#6E6E000087440123
(1712234269.724824) vcan1 11A#04400000C00002FD
(1712234269.724892) vcan2 520#FB86019E2C5E4B03
(1712234269.724905) vcan2 38A#B202B000
(1712234269.727684) vcan0 200#FF3FA40A5F0503
(1712234269.727697) vcan2 388#7B0279
(1712234269.727854) vcan1 1DA#A5721800000100F8
(1712234269.732460) vcan0 101#010100
(1712234269.733507) vcan2 4A0#0000000000000000
(1712234269.733514) vcan2 5A0#00000006058E192B
(1712234269.733517) vcan2 1A0#00050000FEFE0001
(1712234269.735795) vcan2 320#1A007F0100000000
(1712234269.735800) vcan2 5E0#00FFFFFF00008000
(1712234269.735803) vcan2 050#00092821
(1712234269.736020) vcan0 111#01
(1712234269.736031) vcan1 11A#04400001C000036E
(1712234269.736039) vcan1 1D4#6E6E0000C74401E4
(1712234269.737342) vcan0 200#FF3F9E0A730503
(1712234269.737346) vcan0 600#00
(1712234269.737395) vcan1 1DA#A5321800000101DF
(1712234269.739577) vcan0 201#00
(1712234269.750757) vcan2 38A#C202C000
(1712234269.750766) vcan2 388#7C027E
(1712234269.750770) vcan2 470#000200FF03
(1712234269.750773) vcan2 570#8721FF07
(1712234269.750776) vcan2 5D0#800240A03041
(1712234269.750779) vcan2 5D8#550C000310000000
(1712234269.750818) vcan0 101#010100
(1712234269.750826) vcan0 100#010100
(1712234269.750828) vcan0 110#01
(1712234269.750831) vcan0 111#01
(1712234269.750834) vcan0 200#FF3F9A0A6B0503
(1712234269.750903) vcan1 11A#04400000C0000072
(1712234269.750909) vcan1 1D4#6E6E000007440128
(1712234269.750912) vcan1 1DA#A5321800000102D5
(1712234269.750915) vcan1 55A#1C3D3C005F005B08
(1712234269.753854) vcan2 4A0#0000000000000000
(1712234269.753858) vcan2 5A0#000000C60C8E192B
(1712234269.753861) vcan2 1A0#00050000FEFE0002
(1712234269.754004) vcan0 101#010100
(1712234269.755413) vcan1 11A#04400001C00001E1
(1712234269.755433) vcan2 320#1A007F0100000000
(1712234269.755436) vcan1 1D4#6E6E0000474401EF
(1712234269.755442) vcan2 050#00093831
(1712234269.755445) vcan2 5E0#00FFFFFF00008000
(1712234269.755547) vcan0 111#01
(1712234269.756801) vcan1 1DA#A5721800000103F2
(1712234269.756958) vcan0 200#FF3F9C0A5F0503
(1712234269.756961) vcan0 600#00
(1712234269.759750) vcan0 201#00
(1712234269.762218) vcan0 101#010100
(1712234269.762226) vcan0 110#01
(1712234269.763605) vcan0 100#010100
(1712234269.763620) vcan0 111#01
(1712234269.763664) vcan1 1D4#6E6E000087440123
(1712234269.764975) vcan1 11A#04400000C00002FD
(1712234269.765119) vcan2 38A#D202D000
(1712234269.765128) vcan2 388#7D027F
(1712234269.767694) vcan1 1DA#A5721800000100F8
(1712234269.767757) vcan0 200#FF3F980A5A0503
(1712234269.772746) vcan0 101#010100
(1712234269.772778) vcan2 4A0#0000000000000000
(1712234269.774303) vcan0 111#01
(1712234269.774495) vcan2 5A0#000000A6148E192B
(1712234269.774502) vcan2 1A0#00050000FEFE0003
(1712234269.774506) vcan2 320#1A007F0100000000
(1712234269.774549) vcan1 11A#04400001C000036E
(1712234269.774572) vcan1 1D4#6E6E0000C74401E4
(1712234269.776333) vcan1 1DA#A5321800000101DF
(1712234269.776339) vcan2 5E0#00FFFFFF00008000
(1712234269.776346) vcan2 050#00094841
(1712234269.777942) vcan0 200#FF3F9F0A580503
(1712234269.777952) vcan0 600#00
(1712234269.781181) vcan0 201#00
(1712234269.782487) vcan0 101#010100
(1712234269.782497) vcan0 110#01
(1712234269.782501) vcan0 100#010100
(1712234269.785016) vcan2 38A#E202E000
(1712234269.785026) vcan2 388#7E027C
(1712234269.785042) vcan0 111#01
(1712234269.785071) vcan1 11A#04400000C0000072
(1712234269.785078) vcan1 1D4#6E6E000007440128
(1712234269.788341) vcan0 200#FF3F9F0A590503
(1712234269.788435) vcan1 1DA#A5321800000102D5
(1712234269.792614) vcan0 101#010100
(1712234269.792614) vcan2 4A0#0000000000000000
(1712234269.792623) vcan2 5A0#0000006D1C8E192B
(1712234269.794064) vcan0 111#01
(1712234269.794083) vcan2 1A0#00050000FEFE0004
(1712234269.794088) vcan2 280#0000040000000000
(1712234269.794091) vcan2 320#1A007F0100000000
(1712234269.794129) vcan1 50B#000006C0000000
(1712234269.795594) vcan1 11A#04400001C00001E1
(1712234269.795597) vcan2 470#000200FF03
(1712234269.795601) vcan1 1D4#6E6E0000474401EF
(1712234269.795606) vcan1 1DA#A5721800000103F2
(1712234269.795618) vcan2 050#00095851
(1712234269.795636) vcan2 5E0#00FFFFFF00008000
(1712234269.806592) vcan2 38A#F202F000
(1712234269.806592) vcan1 11A#04400000C00002FD
(1712234269.806609) vcan2 388#7F027D
(1712234269.806607) vcan0 200#FF3F9E0A560503
(1712234269.806612) vcan1 1D4#6E6E000087440123
(1712234269.806616) vcan1 1DA#A5721800000100F8
(1712234269.806619) vcan0 600#00
(1712234269.806623) vcan0 201#00
(1712234269.806626) vcan0 101#010100
(1712234269.806630) vcan0 110#01
(1712234269.806632) vcan0 100#010100
(1712234269.806635) vcan0 111#01
(1712234269.809411) vcan0 200#FF3F980A540503
(1712234269.812261) vcan0 101#010100
(1712234269.814149) vcan2 4A0#0000000000000000
(1712234269.814159) vcan2 5A0#00000041248E192B
(1712234269.814163) vcan2 1A0#00050000FEFE0005
(1712234269.816004) vcan2 320#1A007F0100000000
(1712234269.816010) vcan2 5E0#00FFFFFF00008000
(1712234269.816013) vcan2 050#00096861
(1712234269.816039) vcan1 11A#04400001C000036E
(1712234269.816048) vcan1 1D4#6E6E0000C74401E4
(1712234269.816053) vcan1 390#24003002008E2122
(1712234269.816062) vcan1 393#0010000020000024
(1712234269.816066) vcan1 1DA#A5321800000101DF
(1712234269.816130) vcan0 111#01
(1712234269.819100) vcan0 200#FF3FBB0A670503
(1712234269.819104) vcan0 600#00
(1712234269.819107) vcan0 201#00
(1712234269.824274) vcan0 101#010100
(1712234269.824280) vcan0 110#01
(1712234269.824282) vcan0 100#010100
(1712234269.824285) vcan0 1A0#FF0101
(1712234269.824288) vcan0 111#01
(1712234269.824292) vcan2 38A#02020000
(1712234269.824310) vcan1 11A#04400000C0000072
(1712234269.824314) vcan1 1D4#6E6E000007440128
(1712234269.825561) vcan2 388#800282
(1712234269.825564) vcan1 1DA#A5321800000102D5
(1712234269.827377) vcan0 200#FF3FA30A5A0503
(1712234269.832644) vcan0 101#010100
(1712234269.832678) vcan2 4A0#0000000000000000
(1712234269.832687) vcan2 5A0#000000102C8E192B
(1712234269.834198) vcan0 111#01
(1712234269.834211) vcan2 1A0#00050000FEFE0006
(1712234269.834215) vcan2 320#1A007F0100000000
(1712234269.834218) vcan2 420#828A89FF00008000
(1712234269.834269) vcan1 11A#04400001C00001E1
(1712234269.834277) vcan1 1D4#6E6E0000474401EF
(1712234269.837193) vcan2 050#00097871
(1712234269.837198) vcan2 5E0#00FFFFFF00008000
(1712234269.837251) vcan1 1DA#A5721800000103F2
(1712234269.838662) vcan0 600#00
(1712234269.838667) vcan0 200#FF3FA80A580503
(1712234269.838669) vcan0 201#00
(1712234269.842431) vcan0 101#010100
(1712234269.849323) vcan0 110#01
(1712234269.849323) vcan2 38A#12021000
(1712234269.849334) vcan2 388#810283
(1712234269.849335) vcan0 100#010100
(1712234269.849338) vcan0 111#01
(1712234269.849338) vcan2 470#000200FF03
(1712234269.849338) vcan1 1D4#6E6E000087440123
(1712234269.849342) vcan0 200#FF3F9F0A520503
(1712234269.849343) vcan2 570#8721FF07
(1712234269.849347) vcan2 5D0#800240A03041
(1712234269.849347) vcan1 11A#04400000C00002FD
(1712234269.849351) vcan1 1DA#A5721800000100F8
(1712234269.849352) vcan2 5D8#550C000310000000
(1712234269.849354) vcan1 55A#1E3D3C005F005AE8
(1712234269.852599) vcan2 4A0#0000000000000000
(1712234269.852604) vcan2 5A0#000000D5338E192B
(1712234269.852603) vcan0 101#010100
(1712234269.854136) vcan0 111#01
(1712234269.854148) vcan2 1A0#00050000FEFE0007
(1712234269.854151) vcan2 320#1A007F0100000000
(1712234269.854168) vcan1 11A#04400001C000036E
(1712234269.854190) vcan1 1D4#6E6E0000C74401E4
(1712234269.856374) vcan2 5E0#00FFFFFF00008000
(1712234269.856395) vcan2 050#00098881
(1712234269.858216) vcan1 1DA#A5321800000101DF
(1712234269.858233) vcan0 600#00
(1712234269.858242) vcan0 200#FF3F9E0A580503
(1712234269.859951) vcan0 201#00
(1712234269.862465) vcan0 101#010100
(1712234269.862470) vcan0 100#010100
(1712234269.862472) vcan0 110#01
(1712234269.867014) vcan0 111#01
(1712234269.867071) vcan2 38A#22022000
(1712234269.867078) vcan2 388#820280
(1712234269.867110) vcan1 11A#04400000C0000072
(1712234269.867116) vcan1 1D4#6E6E000007440128
(1712234269.867119) vcan1 1DA#A5321800000102D5
(1712234269.868368) vcan0 200#FF3FA20A5E0503
(1712234269.872357) vcan0 101#010100
(1712234269.874709) vcan2 4A0#0000000000000000
(1712234269.874709) vcan1 11A#04400001C00001E1
(1712234269.874714) vcan1 1D4#6E6E0000474401EF
(1712234269.874715) vcan2 5A0#000000AD3B8E192B
(1712234269.874723) vcan2 1A0#00050000FEFE0008
(1712234269.874727) vcan2 320#1A007F0100000000
(1712234269.874730) vcan2 050#00099891
(1712234269.874825) vcan0 111#01
(1712234269.876052) vcan2 5E0#00FFFFFF00008000
(1712234269.878732) vcan1 1DA#A5721800000103F2
(1712234269.878733) vcan0 600#00
(1712234269.878741) vcan0 200#FF3F9F0A620503
(1712234269.878746) vcan0 201#00
(1712234269.882956) vcan0 101#010100
(1712234269.882968) vcan0 110#01
(1712234269.884451) vcan1 11A#04400000C00002FD
(1712234269.884479) vcan0 100#010100
(1712234269.888485) vcan0 111#01
(1712234269.888493) vcan0 200#FF3F990A650503
(1712234269.892608) vcan0 101#010100
(1712234269.892631) vcan2 38A#32023000
(1712234269.892645) vcan2 388#830281
(1712234269.892652) vcan2 4A0#0000000000000000
(1712234269.892661) vcan2 5A0#00000072438E192B
(1712234269.898067) vcan0 111#01
(1712234269.898076) vcan0 600#00
(1712234269.898080) vcan0 200#FF3F980A610503
(1712234269.898120) vcan1 1D4#6E6E000087440123
(1712234269.898128) vcan1 1DA#A5721800000100F8
(1712234269.898135) vcan1 50B#000006C0000000
(1712234269.898134) vcan2 1A0#00050000FEFE0009
(1712234269.898141) vcan1 11A#04400001C000036E
(1712234269.898143) vcan2 280#0000040000000000
(1712234269.898147) vcan1 1D4#6E6E0000C74401E4
(1712234269.898150) vcan2 320#1A007F0100000000
(1712234269.898151) vcan1 1DA#A5321800000101DF
(1712234269.898157) vcan2 470#000200FF03
(1712234269.898163) vcan2 050#0009A8A1
(1712234269.898168) vcan2 5E0#00FFFFFF00008000
(1712234269.904911) vcan0 201#00
(1712234269.908949) vcan0 101#010100
(1712234269.908955) vcan0 110#01
(1712234269.908958) vcan0 100#010100
(1712234269.908958) vcan2 38A#42024000
(1712234269.908961) vcan0 111#01
(1712234269.908962) vcan1 11A#04400000C0000072
(1712234269.908964) vcan2 388#840286
(1712234269.908965) vcan0 200#FF3F9F0A450503
(1712234269.908969) vcan1 1D4#6E6E000007440128
(1712234269.908973) vcan1 1DA#A5321800000102D5
(1712234269.912692) vcan0 101#010100
(1712234269.914263) vcan0 111#01
(1712234269.914370) vcan1 11A#04400001C00001E1
(1712234269.914373) vcan2 4A0#0000000000000000
(1712234269.914376) vcan1 1D4#6E6E0000474401EF
(1712234269.914378) vcan2 5A0#000000504B8E192B
(1712234269.914383) vcan2 1A0#00050000FEFE000A
(1712234269.914387) vcan2 320#1A007F0100000000
(1712234269.917876) vcan0 600#00
(1712234269.917880) vcan0 200#FF3F940A500503
(1712234269.917919) vcan2 5E0#00FFFFFF00008000
(1712234269.917922) vcan2 050#0009B8B1
(1712234269.917923) vcan1 390#24003002008E2133
(1712234269.917927) vcan1 393#0010000020000035
(1712234269.917930) vcan1 1DA#A5721800000103F2
(1712234269.919814) vcan0 201#00
(1712234269.926196) vcan0 101#010100
(1712234269.926202) vcan0 110#01
(1712234269.926201) vcan2 38A#52025000
(1712234269.926205) vcan0 100#010100
(1712234269.926207) vcan2 520#1DC4019E2C5E4B03
(1712234269.926207) vcan0 1A0#FF0102
(1712234269.926210) vcan2 388#850287
(1712234269.926210) vcan0 111#01
(1712234269.926239) vcan1 1D4#6E6E000087440123
(1712234269.926247) vcan1 11A#04400000C00002FD
(1712234269.926250) vcan1 1DA#A5721800000100F8
(1712234269.927570) vcan0 200#FF3F980A5D0503
(1712234269.932655) vcan0 101#010100
(1712234269.932663) vcan2 4A0#0000000000000000
(1712234269.937366) vcan0 111#01
(1712234269.937373) vcan1 1D4#6E6E0000C74401E4
(1712234269.937379) vcan1 11A#04400001C000036E
(1712234269.937382) vcan1 1DA#A5321800000101DF
(1712234269.937404) vcan2 5A0#0000001D538E192B
(1712234269.937425) vcan2 1A0#00050000FEFE000B
(1712234269.937444) vcan2 320#1A007F0100000000
(1712234269.937468) vcan2 050#0009C8C1
(1712234269.937470) vcan2 5E0#00FFFFFF00008000
(1712234269.938788) vcan0 600#00
(1712234269.938811) vcan0 200#FF3F9B0A650503
(1712234269.938813) vcan0 201#00
(1712234269.979177) vcan0 101#010100
(1712234269.979177) vcan1 11A#04400000C0000072
(1712234269.979196) vcan2 38A#62026000
(1712234269.979212) vcan0 100#010100
(1712234269.979215) vcan1 1D4#6E6E000007440128
(1712234269.979219) vcan2 388#860284
(1712234269.979222) vcan0 110#01
(1712234269.979228) vcan1 1DA#A5321800000102D5
(1712234269.979230) vcan2 470#000200FF03
(1712234269.979231) vcan0 111#01
(1712234269.979240) vcan1 55A#133D3C005F005AE8
(1712234269.979242) vcan2 570#8721FF07
(1712234269.979242) vcan0 200#FF3FA50A5A0503
(1712234269.979249) vcan1 11A#04400001C00001E1
(1712234269.979251) vcan0 101#010100
(1712234269.979252) vcan2 5D0#800240A03041
(1712234269.979260) vcan0 111#01
(1712234269.979263) vcan2 5D8#550C000310000000
(1712234269.979274) vcan2 4A0#0000000000000000
(1712234269.979285) vcan2 5A0#000000E75A8E192B
(1712234269.979294) vcan2 1A0#00050000FEFE000C
(1712234269.980040) vcan1 1D4#6E6E0000474401EF
(1712234269.980051) vcan1 1DA#A5721800000103F2
(1712234269.980071) vcan2 320#1A007F0100000000
(1712234269.980090) vcan2 050#0009D8D1
(1712234269.980099) vcan2 5E0#00FFFFFF00008000
(1712234269.987378) vcan0 600#00
(1712234269.987407) vcan0 200#FF3F8E0A8A0503
(1712234269.987415) vcan0 201#00
(1712234269.987423) vcan0 101#010100
(1712234269.987430) vcan0 110#01
(1712234269.988461) vcan1 11A#04400000C00002FD
(1712234269.988473) vcan1 1D4#6E6E000087440123
(1712234269.988481) vcan1 1DA#A5721800000100F8
(1712234269.988570) vcan2 38A#72027000
(1712234269.988589) vcan2 388#870285
(1712234269.988600) vcan2 4A0#0000000000000000
(1712234269.988610) vcan2 5A0#000000C0628E192B
(1712234269.988619) vcan2 1A0#00050000FEFE000D
(1712234269.988683) vcan0 100#010100
(1712234269.988723) vcan0 111#01
(1712234269.988735) vcan0 200#FF3FA40A660503
(1712234269.988743) vcan0 101#010100
(1712234269.992734) vcan1 11A#04400001C000036E
(1712234269.992757) vcan1 1D4#6E6E0000C74401E4
(1712234269.992769) vcan1 1DA#A5321800000101DF
(1712234269.992891) vcan2 320#1A007F0100000000
(1712234269.992911) vcan2 050#0009E8E1
(1712234269.992921) vcan2 5E0#00FFFFFF00008000
(1712234269.992971) vcan0 111#01
(1712234269.992990) vcan0 600#00
(1712234269.997777) vcan1 11A#04400000C0000072
(1712234269.997787) vcan1 1D4#6E6E000007440128
(1712234269.997795) vcan1 1DA#A5321800000102D5
(1712234269.997803) vcan1 11A#04400001C00001E1
(1712234269.997812) vcan1 50B#000006C0000000
(1712234269.997819) vcan1 1D4#6E6E0000474401EF
(1712234269.997844) vcan2 38A#82028000
(1712234269.997865) vcan2 388#88028A
(1712234269.997880) vcan2 4A0#0000000000000000
(1712234269.997893) vcan2 5A0#000000876A8E192B
(1712234269.997904) vcan2 1A0#00050000FEFE000E
(1712234269.997912) vcan2 280#0000040000000000
(1712234269.997919) vcan2 320#1A007F0100000000
(1712234269.998062) vcan0 200#FF3F830A4A0503
(1712234269.998083) vcan0 201#00
(1712234269.998092) vcan0 101#010100
(1712234269.998101) vcan0 100#010100
(1712234269.998108) vcan0 110#01
(1712234269.998116) vcan0 111#01
(1712234269.998125) vcan0 200#FF3F9C0A5D0503
(1712234269.998132) vcan0 101#010100
(1712234269.998138) vcan0 111#01
(1712234270.008225) vcan1 1DA#A5721800000103F2
(1712234270.008363) vcan2 050#0009F8F1
(1712234270.008373) vcan2 470#000200FF03
(1712234270.008377) vcan2 5E0#00FFFFFF00008000
(1712234270.008512) vcan0 600#00
(1712234270.008526) vcan0 200#FF3F980A5E0503
(1712234270.008535) vcan0 201#00
(1712234270.008539) vcan0 101#010100
(1712234270.014672) vcan1 11A#04400000C00002FD
(1712234270.014679) vcan1 1D4#6E6E000087440123
(1712234270.014681) vcan1 1DA#A5721800000100F8
(1712234270.014725) vcan2 38A#92029000
(1712234270.014733) vcan2 388#89028B
(1712234270.014935) vcan0 100#010100
(1712234270.014943) vcan0 110#01
(1712234270.014947) vcan0 111#01
(1712234270.014951) vcan0 200#FF3F960A580503
(1712234270.014953) vcan0 101#010100
(1712234270.024402) vcan2 4A0#0000000000000000
(1712234270.024414) vcan2 5A0#00000060728E192B
(1712234270.024419) vcan2 1A0#00050000FEFE000F
(1712234270.024423) vcan2 320#1A007F0100000000
(1712234270.024427) vcan2 050#00090801
(1712234270.024433) vcan2 5E0#00FFFFFF00008000
(1712234270.024435) vcan1 11A#04400001C000036E
(1712234270.024444) vcan1 1D4#6E6E0000C74401E4
(1712234270.024449) vcan1 390#24003002008E2100
(1712234270.024453) vcan1 393#0010000020000002
(1712234270.024457) vcan1 1DA#A5321800000101DF
(1712234270.024614) vcan0 111#01
(1712234270.024629) vcan0 600#00
(1712234270.024635) vcan0 200#FF3F870A640503
(1712234270.024640) vcan0 201#00
(1712234270.024647) vcan0 101#010100
(1712234270.024654) vcan0 100#010100
(1712234270.040186) vcan2 38A#A202A000
(1712234270.040192) vcan2 388#8A0288
(1712234270.040241) vcan1 11A#04400000C0000072
(1712234270.040250) vcan1 1D4#6E6E000007440128
(1712234270.040393) vcan0 110#01
(1712234270.040405) vcan0 1A0#FF0103
(1712234270.040409) vcan0 111#01
(1712234270.041524) vcan2 4A0#0000000000000000
(1712234270.041540) vcan2 5A0#0000002A7A8E192B
(1712234270.041544) vcan2 1A0#00050000FEFE0000
(1712234270.041665) vcan0 200#FF3F950A690503
(1712234270.041672) vcan0 101#010100
(1712234270.042238) vcan1 1DA#A5321800000102D5
(1712234270.046831) vcan2 320#1A007F0100000000
(1712234270.046846) vcan2 420#828A8AFF00008000
(1712234270.046850) vcan2 050#00091811
(1712234270.046855) vcan2 5E0#00FFFFFF00008000
(1712234270.046858) vcan2 38A#B202B000
(1712234270.046862) vcan2 388#8B0289
(1712234270.046866) vcan2 470#000200FF03
(1712234270.046869) vcan2 570#8721FF07
(1712234270.046871) vcan2 5D0#800240A03041
(1712234270.046893) vcan0 111#01
(1712234270.046913) vcan0 600#00
(1712234270.046932) vcan0 200#FF3FBA0A4C0503
(1712234270.046935) vcan0 201#00
(1712234270.046938) vcan0 101#010100
(1712234270.046942) vcan0 100#010100
(1712234270.046945) vcan0 110#01
(1712234270.046947) vcan0 111#01
(1712234270.047052) vcan1 1D4#6E6E0000474401EF
(1712234270.047066) vcan1 11A#04400001C00001E1
(1712234270.047071) vcan1 1DA#A5721800000103F2
(1712234270.047076) vcan1 11A#04400000C00002FD
(1712234270.047081) vcan1 1D4#6E6E000087440123
(1712234270.047085) vcan1 1DA#A5721800000100F8
(1712234270.048497) vcan2 5D8#550C000310000000
(1712234270.048607) vcan1 55A#1C3D3C005F005AE8
(1712234270.052870) vcan2 4A0#0000000000000000
(1712234270.052873) vcan0 200#FF3F9D0A5E0503
(1712234270.052877) vcan2 5A0#000000F9818E192B
(1712234270.052879) vcan0 101#010100
(1712234270.056960) vcan0 111#01
(1712234270.056964) vcan2 1A0#00050000FEFE0001
(1712234270.056971) vcan2 320#1A007F0100000000
(1712234270.056975) vcan2 050#00092821
(1712234270.056979) vcan2 5E0#00FFFFFF00008000
(1712234270.057003) vcan1 11A#04400001C000036E
(1712234270.057013) vcan1 1D4#6E6E0000C74401E4
(1712234270.057018) vcan1 1DA#A5321800000101DF
(1712234270.058493) vcan0 600#00
(1712234270.058498) vcan0 200#FF3FC60A500503
(1712234270.059733) vcan0 201#00
(1712234270.063535) vcan0 101#010100
(1712234270.063548) vcan0 110#01
(1712234270.063551) vcan0 100#010100
(1712234270.065252) vcan0 111#01
(1712234270.065278) vcan2 38A#C202C000
(1712234270.065284) vcan2 388#8C028E
(1712234270.065483) vcan1 1D4#6E6E000007440128
(1712234270.065494) vcan1 11A#04400000C0000072
(1712234270.068176) vcan0 200#FF3FA50A710503
(1712234270.068369) vcan1 1DA#A5321800000102D5
(1712234270.072803) vcan0 101#010100
(1712234270.072837) vcan2 4A0#0000000000000000
(1712234270.072843) vcan2 5A0#000000D2898E192B
(1712234270.074396) vcan2 1A0#00050000FEFE0002
(1712234270.074562) vcan1 11A#04400001C00001E1
(1712234270.074571) vcan1 1D4#6E6E0000474401EF
(1712234270.077696) vcan2 320#1A007F0100000000
(1712234270.077702) vcan2 050#00093831
(1712234270.077705) vcan2 5E0#00FFFFFF00008000
(1712234270.077762) vcan0 111#01
(1712234270.077766) vcan0 600#00
(1712234270.077769) vcan0 200#FF3FAC0A600503
(1712234270.077829) vcan1 1DA#A5721800000103F2
(1712234270.079182) vcan0 201#00
(1712234270.082818) vcan0 101#010100
(1712234270.082834) vcan0 110#01
(1712234270.082836) vcan0 100#010100
(1712234270.084722) vcan2 38A#D202D000
(1712234270.084730) vcan2 388#8D028F
(1712234270.084737) vcan0 111#01
(1712234270.084781) vcan1 11A#04400000C00002FD
(1712234270.084788) vcan1 1D4#6E6E000087440123
(1712234270.086265) vcan1 1DA#A5721800000100F8
(1712234270.088031) vcan0 200#FF3FA50A680503
(1712234270.092796) vcan0 101#010100
(1712234270.092826) vcan2 4A0#0000000000000000
(1712234270.092841) vcan2 5A0#00000099918E192B
(1712234270.092845) vcan2 1A0#00050000FEFE0003
(1712234270.097381) vcan0 111#01
(1712234270.097388) vcan1 1D4#6E6E0000C74401E4
(1712234270.097396) vcan1 50B#000006C0000000
(1712234270.097400) vcan1 11A#04400001C000036E
(1712234270.097404) vcan1 1DA#A5321800000101DF
(1712234270.097410) vcan2 280#0000040000000000
(1712234270.097418) vcan2 320#1A007F0100000000
(1712234270.097422) vcan2 050#00094841
(1712234270.097425) vcan2 470#000200FF03
(1712234270.097428) vcan2 5E0#00FFFFFF00008000
(1712234270.098866) vcan0 600#00
(1712234270.098872) vcan0 200#FF3F9D0A500503
(1712234270.100364) vcan0 201#00
(1712234270.102750) vcan0 101#010100
(1712234270.102754) vcan0 110#01
(1712234270.102757) vcan0 100#010100
(1712234270.110034) vcan1 11A#04400000C0000072
(1712234270.110052) vcan1 1D4#6E6E000007440128
(1712234270.110067) vcan0 111#01
(1712234270.113009) vcan2 38A#E202E000
(1712234270.113019) vcan2 388#8E028C
(1712234270.113023) vcan2 4A0#0000000000000000
(1712234270.113027) vcan2 5A0#00000070998E192B
(1712234270.113051) vcan0 200#FF3F990A5F0503
(1712234270.113057) vcan0 101#010100
(1712234270.113167) vcan1 1DA#A5321800000102D5
(1712234270.117517) vcan0 111#01
(1712234270.117530) vcan2 1A0#00050000FEFE0004
(1712234270.117537) vcan2 320#1A007F0100000000
(1712234270.117542) vcan2 050#00095851
(1712234270.117546) vcan2 5E0#00FFFFFF00008000
(1712234270.117597) vcan1 1D4#6E6E0000474401EF
(1712234270.117603) vcan1 11A#04400001C00001E1
(1712234270.117607) vcan1 390#24003002008E2111
(1712234270.117614) vcan1 393#0010000020000013
(1712234270.117617) vcan1 1DA#A5721800000103F2
(1712234270.119081) vcan0 600#00
(1712234270.119088) vcan0 200#FF3FA00A690503
(1712234270.119090) vcan0 201#00
(1712234270.122854) vcan0 101#010100
(1712234270.122860) vcan0 100#010100
(1712234270.122862) vcan0 110#01
(1712234270.126256) vcan2 520#0101019E2C5E4B03
(1712234270.126275) vcan2 38A#F202F000
(1712234270.126279) vcan2 388#8F028D
(1712234270.126371) vcan0 1A0#FF0100
(1712234270.126379) vcan0 111#01
(1712234270.126505) vcan1 1D4#6E6E000087440123
(1712234270.126517) vcan1 11A#04400000C00002FD
(1712234270.126521) vcan1 1DA#A5721800000100F8
(1712234270.128263) vcan0 200#FF3F9E0A540503
(1712234270.132724) vcan2 4A0#0000000000000000
(1712234270.132811) vcan0 101#010100
(1712234270.136306) vcan2 5A0#00000044A18E192B
(1712234270.136318) vcan2 1A0#00050000FEFE0005
(1712234270.136331) vcan2 320#1A007F0100000000
(1712234270.136336) vcan2 050#00096861
(1712234270.136341) vcan2 5E0#00FFFFFF00008000
(1712234270.136404) vcan0 111#01
(1712234270.136514) vcan1 11A#04400001C000036E
(1712234270.136525) vcan1 1D4#6E6E0000C74401E4
(1712234270.136530) vcan1 1DA#A5321800000101DF
(1712234270.137765) vcan0 600#00
(1712234270.137774) vcan0 200#FF3F950A680503
(1712234270.139601) vcan0 201#00
(1712234270.145151) vcan0 101#010100
(1712234270.145171) vcan0 110#01
(1712234270.145177) vcan0 100#010100
(1712234270.145178) vcan0 111#01
(1712234270.145193) vcan1 1D4#6E6E000007440128
(1712234270.145203) vcan1 11A#04400000C0000072
(1712234270.146788) vcan1 1DA#A5321800000102D5
(1712234270.146796) vcan1 55A#1E3D3C005F005AE8
(1712234270.146798) vcan2 38A#02020000
(1712234270.146804) vcan2 388#900292
(1712234270.146808) vcan2 470#000200FF03
(1712234270.146812) vcan2 570#8721FF07
(1712234270.146814) vcan2 5D0#800240A03041
(1712234270.146818) vcan2 5D8#550C000310000000
(1712234270.156370) vcan0 200#FF3F9E0A680503
(1712234270.156387) vcan0 101#010100
(1712234270.156399) vcan0 111#01
(1712234270.156427) vcan1 1D4#6E6E0000474401EF
(1712234270.156436) vcan1 11A#04400001C00001E1
(1712234270.156464) vcan2 4A0#0000000000000000
(1712234270.156473) vcan2 5A0#00000015A98E192B
(1712234270.156478) vcan2 1A0#00050000FEFE0006
(1712234270.156483) vcan2 320#1A007F0100000000
(1712234270.156487) vcan2 050#00097871
(1712234270.156491) vcan2 5E0#00FFFFFF00008000
(1712234270.160042) vcan0 600#00
(1712234270.160056) vcan0 200#FF3FB30A680503
(1712234270.160060) vcan0 201#00
(1712234270.160083) vcan1 1DA#A5721800000103F2
(1712234270.165268) vcan0 101#010100
(1712234270.165287) vcan0 110#01
(1712234270.165293) vcan0 100#010100
(1712234270.165297) vcan0 111#01
(1712234270.165368) vcan1 1D4#6E6E000087440123
(1712234270.165384) vcan1 11A#04400000C00002FD
(1712234270.168132) vcan2 38A#12021000
(1712234270.168149) vcan2 388#910293
(1712234270.168175) vcan1 1DA#A5721800000100F8
(1712234270.169519) vcan0 200#FF3F9E0A5A0503
(1712234270.172866) vcan0 101#010100
(1712234270.172879) vcan2 4A0#0000000000000000
(1712234270.172893) vcan2 5A0#000000DAB08E192B
(1712234270.172899) vcan2 1A0#00050000FEFE0007
(1712234270.175372) vcan0 111#01
(1712234270.175378) vcan2 320#1A007F0100000000
(1712234270.175489) vcan1 1D4#6E6E0000C74401E4
(1712234270.175499) vcan1 11A#04400001C000036E
(1712234270.177226) vcan2 050#00098881
(1712234270.177238) vcan2 5E0#00FFFFFF00008000
(1712234270.177261) vcan1 1DA#A5321800000101DF
(1712234270.184359) vcan0 600#00
(1712234270.184377) vcan0 200#FF3F990A540503
(1712234270.184381) vcan0 201#00
(1712234270.184385) vcan0 101#010100
(1712234270.184388) vcan0 110#01
(1712234270.184392) vcan0 100#010100
(1712234270.186581) vcan2 38A#22022000
(1712234270.186589) vcan0 111#01
(1712234270.186592) vcan2 388#920290
(1712234270.186598) vcan1 11A#04400000C0000072
(1712234270.186617) vcan1 1D4#6E6E000007440128
(1712234270.186622) vcan1 1DA#A5321800000102D5
(1712234270.188518) vcan0 200#FF3FA60A560503
(1712234270.192896) vcan2 4A0#0000000000000000
(1712234270.192908) vcan2 5A0#000000B6B88E192B
(1712234270.192912) vcan0 101#010100
(1712234270.200215) vcan0 111#01
(1712234270.200215) vcan2 1A0#00050000FEFE0008
(1712234270.200229) vcan0 600#00
(1712234270.200230) vcan2 280#0000040000000000
(1712234270.200229) vcan1 50B#000006C0000000
(1712234270.200233) vcan0 200#FF3F9A0A590503
(1712234270.200235) vcan2 320#1A007F0100000000
(1712234270.200238) vcan1 1D4#6E6E0000474401EF
(1712234270.200240) vcan2 050#00099891
(1712234270.200243) vcan1 11A#04400001C00001E1
(1712234270.200244) vcan2 470#000200FF03
(1712234270.200248) vcan1 1DA#A5721800000103F2
(1712234270.200248) vcan2 5E0#00FFFFFF00008000
(1712234270.206300) vcan2 38A#32023000
(1712234270.206307) vcan2 388#930291
(1712234270.206314) vcan0 201#00
(1712234270.206321) vcan0 101#010100
(1712234270.206325) vcan0 110#01
(1712234270.206329) vcan0 100#010100
(1712234270.206332) vcan0 111#01
(1712234270.206337) vcan1 1D4#6E6E000087440123
(1712234270.206346) vcan1 11A#04400000C00002FD
(1712234270.206349) vcan1 1DA#A5721800000100F8
(1712234270.212560) vcan0 200#FF3FAC0A6D0503
(1712234270.214331) vcan2 4A0#0000000000000000
(1712234270.214336) vcan0 101#010100
(1712234270.214344) vcan2 5A0#00000077C08E192B
(1712234270.214349) vcan2 1A0#00050000FEFE0009
(1712234270.216399) vcan0 111#01
(1712234270.216542) vcan1 11A#04400001C000036E
(1712234270.216553) vcan1 1D4#6E6E0000C74401E4
(1712234270.216559) vcan1 390#24003002008E2122
(1712234270.216594) vcan2 320#1A007F0100000000
(1712234270.216608) vcan2 050#0009A8A1
(1712234270.216612) vcan2 5E0#00FFFFFF00008000
(1712234270.218639) vcan1 393#0010000020000024
(1712234270.218650) vcan1 1DA#A5321800000101DF
(1712234270.220455) vcan0 600#00
(1712234270.220466) vcan0 200#FF3FAB0A5E0503
(1712234270.220469) vcan0 201#00
(1712234270.223906) vcan0 101#010100
(1712234270.223913) vcan0 110#01
(1712234270.223919) vcan0 100#010100
(1712234270.223922) vcan0 1A0#FF0101
(1712234270.224050) vcan1 11A#04400000C0000072
(1712234270.227212) vcan0 111#01
(1712234270.227259) vcan1 1D4#6E6E000007440128
(1712234270.227269) vcan1 1DA#A5321800000102D5
(1712234270.227371) vcan2 38A#42024000
(1712234270.227382) vcan2 388#940296
(1712234270.228506) vcan0 200#FF3F980A540503
(1712234270.232913) vcan2 4A0#0000000000000000
(1712234270.232925) vcan2 5A0#00000055C88E192B
(1712234270.232954) vcan0 101#010100
(1712234270.234675) vcan1 11A#04400001C00001E1
(1712234270.234690) vcan1 1D4#6E6E0000474401EF
(1712234270.234685) vcan2 1A0#00050000FEFE000A
(1712234270.234707) vcan2 320#1A007F0100000000
(1712234270.234714) vcan2 420#828A89FF00008000
(1712234270.238474) vcan0 111#01
(1712234270.238481) vcan2 050#0009B8B1
(1712234270.238484) vcan0 600#00
(1712234270.238492) vcan0 200#FF3F970A690503
(1712234270.238493) vcan2 5E0#00FFFFFF00008000
(1712234270.238628) vcan1 1DA#A5721800000103F2
(1712234270.239884) vcan0 201#00
(1712234270.253434) vcan0 101#010100
(1712234270.253447) vcan0 100#010100
(1712234270.253451) vcan0 110#01
(1712234270.253454) vcan0 111#01
(1712234270.253456) vcan0 200#FF3FA60A5F0503
(1712234270.253514) vcan2 38A#52025000
(1712234270.253523) vcan2 388#950297
(1712234270.253527) vcan2 470#000200FF03
(1712234270.253525) vcan1 11A#04400000C00002FD
(1712234270.253531) vcan2 570#8721FF07
(1712234270.253536) vcan2 5D0#800240A03041
(1712234270.253536) vcan1 1D4#6E6E000087440123
(1712234270.253539) vcan2 5D8#550C000310000000
(1712234270.253542) vcan1 1DA#A5721800000100F8
(1712234270.253546) vcan1 55A#133D3C005F005AE8
(1712234270.258024) vcan2 4A0#0000000000000000
(1712234270.258039) vcan2 5A0#00000022D08E192B
(1712234270.258043) vcan2 1A0#00050000FEFE000B
(1712234270.258047) vcan2 320#1A007F0100000000
(1712234270.258109) vcan0 101#010100
(1712234270.258228) vcan1 11A#04400001C000036E
(1712234270.259560) vcan2 050#0009C8C1
(1712234270.259570) vcan2 5E0#00FFFFFF00008000
(1712234270.259604) vcan0 111#01
(1712234270.259612) vcan0 600#00
(1712234270.259616) vcan0 200#FF3FBA0A5B0503
(1712234270.259619) vcan0 201#00
(1712234270.259713) vcan1 1D4#6E6E0000C74401E4
(1712234270.259725) vcan1 1DA#A5321800000101DF
(1712234270.262826) vcan0 101#010100
(1712234270.262833) vcan0 110#01
(1712234270.262835) vcan0 100#010100
(1712234270.266188) vcan0 111#01
(1712234270.266333) vcan2 38A#62026000
(1712234270.266338) vcan1 1D4#6E6E000007440128
(1712234270.266342) vcan2 388#960294
(1712234270.266345) vcan1 11A#04400000C0000072
(1712234270.266350) vcan1 1DA#A5321800000102D5
(1712234270.268549) vcan0 200#FF3F9B0A490503
(1712234270.294300) vcan0 101#010100
(1712234270.294300) vcan1 11A#04400001C00001E1
(1712234270.294324) vcan0 111#01
(1712234270.294326) vcan1 1D4#6E6E0000474401EF
(1712234270.294330) vcan0 600#00
(1712234270.294331) vcan1 1DA#A5721800000103F2
(1712234270.294334) vcan1 1D4#6E6E000087440123
(1712234270.294336) vcan0 200#FF3F9F0A5B0503
(1712234270.294338) vcan1 11A#04400000C00002FD
(1712234270.294340) vcan0 201#00
(1712234270.294342) vcan1 1DA#A5721800000100F8
(1712234270.294344) vcan0 101#010100
(1712234270.294347) vcan0 110#01
(1712234270.294349) vcan0 100#010100
(1712234270.294366) vcan2 4A0#0000000000000000
(1712234270.294379) vcan2 5A0#000000E4D78E192B
(1712234270.294383) vcan2 1A0#00050000FEFE000C
(1712234270.294388) vcan2 320#1A007F0100000000
(1712234270.294392) vcan2 050#0009D8D1
(1712234270.294397) vcan2 5E0#00FFFFFF00008000
(1712234270.319016) vcan0 111#01
(1712234270.319021) vcan2 38A#72027000
(1712234270.319042) vcan2 388#970295
(1712234270.329606) vcan1 50B#000006C0000000
(1712234270.329615) vcan0 200#FF3F900A650503
(1712234270.329627) vcan2 4A0#0000000000000000
(1712234270.329636) vcan1 1D4#6E6E0000C74401E4
(1712234270.329638) vcan0 101#010100
(1712234270.329649) vcan0 111#01
(1712234270.329649) vcan1 11A#04400001C000036E
(1712234270.329653) vcan2 5A0#000000C6DF8E192B
(1712234270.329661) vcan0 600#00
(1712234270.329662) vcan1 1DA#A5321800000101DF
(1712234270.329668) vcan2 1A0#00050000FEFE000D
(1712234270.329673) vcan1 11A#04400000C0000072
(1712234270.329675) vcan0 200#FF3F960A6F0503
(1712234270.329683) vcan2 280#0000040000000000
(1712234270.329685) vcan1 1D4#6E6E000007440128
(1712234270.329686) vcan0 201#00
(1712234270.329696) vcan0 101#010100
(1712234270.329696) vcan2 320#1A007F0100000000
(1712234270.329697) vcan1 1DA#A5321800000102D5
(1712234270.329707) vcan0 110#01
(1712234270.329709) vcan1 11A#04400001C00001E1
(1712234270.329710) vcan2 050#0009E8E1
(1712234270.329717) vcan0 100#010100
(1712234270.329721) vcan1 1D4#6E6E0000474401EF
(1712234270.329722) vcan2 470#000200FF03
(1712234270.329728) vcan0 111#01
(1712234270.329732) vcan1 390#24003002008E2133
(1712234270.329736) vcan2 5E0#00FFFFFF00008000
(1712234270.329740) vcan0 200#FF3F950A5C0503
(1712234270.329743) vcan1 393#0010000020000035
(1712234270.329748) vcan2 38A#82028000
(1712234270.329749) vcan0 101#010100
(1712234270.329754) vcan1 1DA#A5721800000103F2
(1712234270.329758) vcan0 111#01
(1712234270.329759) vcan2 388#98029A
(1712234270.329764) vcan1 11A#04400000C00002FD
(1712234270.329767) vcan0 600#00
(1712234270.329770) vcan2 4A0#0000000000000000
(1712234270.329774) vcan1 1D4#6E6E000087440123
(1712234270.329777) vcan0 200#FF3FA40A6C0503
(1712234270.329782) vcan2 5A0#0000008DE78E192B
(1712234270.329784) vcan1 1DA#A5721800000100F8
(1712234270.329785) vcan0 201#00
(1712234270.329794) vcan2 1A0#00050000FEFE000E
(1712234270.329805) vcan2 320#1A007F0100000000
(1712234270.329816) vcan2 050#0009F8F1
(1712234270.329817) vcan0 101#010100
(1712234270.329827) vcan0 110#01
(1712234270.329830) vcan2 5E0#00FFFFFF00008000
(1712234270.329836) vcan0 100#010100
(1712234270.329844) vcan2 520#4042019E2C5E4B03
(1712234270.329846) vcan0 1A0#FF0102
(1712234270.329854) vcan0 111#01
(1712234270.329856) vcan2 38A#92029000
(1712234270.329866) vcan2 388#99029B
(1712234270.344375) vcan1 1D4#6E6E0000C74401E4
(1712234270.344375) vcan0 200#FF3FA40A5D0503
(1712234270.344404) vcan1 11A#04400001C000036E
(1712234270.344405) vcan0 101#010100
(1712234270.344417) vcan1 1DA#A5321800000101DF
(1712234270.344417) vcan0 111#01
(1712234270.344426) vcan0 600#00
(1712234270.344438) vcan0 200#FF3FA20A660503
(1712234270.344446) vcan0 201#00
(1712234270.344445) vcan2 4A0#0000000000000000
(1712234270.344456) vcan0 101#010100
(1712234270.344465) vcan0 110#01
(1712234270.344472) vcan0 100#010100
(1712234270.344475) vcan2 5A0#00000065EF8E192B
(1712234270.344487) vcan2 1A0#00050000FEFE000F
(1712234270.344509) vcan2 320#1A007F0100000000
(1712234270.344519) vcan2 050#00090801
(1712234270.344530) vcan2 5E0#00FFFFFF00008000
(1712234270.348544) vcan1 1D4#6E6E000007440128
(1712234270.348553) vcan0 111#01
(1712234270.348560) vcan1 11A#04400000C0000072
(1712234270.348569) vcan1 1DA#A5321800000102D5
(1712234270.348578) vcan1 55A#1C3D3C005F005AE8
(1712234270.348685) vcan2 38A#A202A000
(1712234270.348720) vcan2 388#9A0298
(1712234270.348730) vcan2 470#000200FF03
(1712234270.348740) vcan2 570#8721FF07
(1712234270.348749) vcan2 5D0#800240A03041
(1712234270.348761) vcan2 5D8#550C000310000000
(1712234270.350032) vcan0 200#FF3FA50A640503
(1712234270.353593) vcan0 101#010100
(1712234270.353821) vcan2 4A0#0000000000000000
(1712234270.353844) vcan2 5A0#00000030F78E192B
(1712234270.353854) vcan2 1A0#00050000FEFE0000
(1712234270.358264) vcan1 11A#04400001C00001E1
(1712234270.358265) vcan2 320#1A007F0100000000
(1712234270.360419) vcan0 111#01
(1712234270.360426) vcan0 600#00
(1712234270.360433) vcan0 200#FF3FA20A5D0503
(1712234270.360438) vcan0 201#00
(1712234270.360478) vcan2 050#00091811
(1712234270.360496) vcan2 5E0#00FFFFFF00008000
(1712234270.360497) vcan1 1D4#6E6E0000474401EF
(1712234270.360516) vcan1 1DA#A5721800000103F2
(1712234270.362953) vcan0 101#010100
(1712234270.362966) vcan0 100#010100
(1712234270.362970) vcan0 110#01
(1712234270.366656) vcan0 111#01
(1712234270.366849) vcan1 1D4#6E6E000087440123
(1712234270.366860) vcan2 38A#B202B000
(1712234270.366866) vcan1 11A#04400000C00002FD
(1712234270.366874) vcan2 388#9B0299
(1712234270.366875) vcan1 1DA#A5721800000100F8
(1712234270.372626) vcan0 200#FF3F9A0A6A0503
(1712234270.372638) vcan0 101#010100
(1712234270.372792) vcan2 4A0#0000000000000000
(1712234270.372815) vcan2 5A0#000000F4FE8E192B
(1712234270.376617) vcan0 111#01
(1712234270.376659) vcan2 1A0#00050000FEFE0001
(1712234270.376664) vcan2 320#1A007F0100000000
(1712234270.376667) vcan2 050#00092821
(1712234270.376838) vcan1 11A#04400001C000036E
(1712234270.376850) vcan1 1D4#6E6E0000C74401E4
(1712234270.376855) vcan1 1DA#A5321800000101DF
(1712234270.378553) vcan2 5E0#00FFFFFF00008000
(1712234270.378828) vcan0 600#00
(1712234270.378840) vcan0 200#FF3FAF0A540503
(1712234270.379968) vcan0 201#00
(1712234270.383030) vcan0 101#010100
(1712234270.385921) vcan0 110#01
(1712234270.385926) vcan1 11A#04400000C0000072
(1712234270.385932) vcan0 100#010100
(1712234270.385935) vcan1 1D4#6E6E000007440128
(1712234270.385935) vcan0 111#01
(1712234270.387444) vcan2 38A#C202C000
(1712234270.387447) vcan2 388#9C029E
(1712234270.387666) vcan1 1DA#A5321800000102D5
(1712234270.389215) vcan0 200#FF3FA60A650503
(1712234270.392912) vcan2 4A0#0000000000000000
(1712234270.392918) vcan2 5A0#000000CE068E192B
(1712234270.392923) vcan2 1A0#00050000FEFE0002
(1712234270.393024) vcan0 101#010100
(1712234270.399363) vcan2 280#0000040000000000
(1712234270.399369) vcan2 320#1A007F0100000000
(1712234270.399372) vcan2 050#00093831
(1712234270.399375) vcan2 470#000200FF03
(1712234270.399378) vcan2 5E0#00FFFFFF00008000
(1712234270.399516) vcan0 111#01
(1712234270.399525) vcan0 600#00
(1712234270.399530) vcan0 200#FF3F9E0A5C0503
(1712234270.399530) vcan1 11A#04400001C00001E1
(1712234270.399534) vcan0 201#00
(1712234270.399541) vcan1 1D4#6E6E0000474401EF
(1712234270.399546) vcan1 50B#000006C0000000
(1712234270.399550) vcan1 1DA#A5721800000103F2
(1712234270.403222) vcan0 101#010100
(1712234270.403228) vcan0 110#01
(1712234270.403231) vcan0 100#010100
(1712234270.406636) vcan2 38A#D202D000
(1712234270.406645) vcan2 388#9D029F
(1712234270.406843) vcan1 1D4#6E6E000087440123
(1712234270.406855) vcan1 11A#04400000C00002FD
(1712234270.406859) vcan1 1DA#A5721800000100F8
(1712234270.408705) vcan0 111#01
(1712234270.408718) vcan0 200#FF3F9F0A660503
(1712234270.417297) vcan2 4A0#0000000000000000
(1712234270.417303) vcan0 101#010100
(1712234270.417310) vcan2 5A0#000000930E8E192B
(1712234270.419422) vcan2 1A0#00050000FEFE0003
(1712234270.419427) vcan2 320#1A007F0100000000
(1712234270.419431) vcan2 050#00094841
(1712234270.419434) vcan2 5E0#00FFFFFF00008000
(1712234270.419496) vcan0 111#01
(1712234270.419502) vcan0 600#00
(1712234270.419509) vcan0 200#FF3F940A520503
(1712234270.419513) vcan0 201#00
(1712234270.419575) vcan1 1D4#6E6E0000C74401E4
(1712234270.419584) vcan1 11A#04400001C000036E
(1712234270.419588) vcan1 390#24003002008E2100
(1712234270.419592) vcan1 1DA#A5321800000101DF
(1712234270.419596) vcan1 393#0010000020000002
(1712234270.423219) vcan0 101#010100
(1712234270.423226) vcan0 110#01
(1712234270.423230) vcan0 100#010100
(1712234270.425002) vcan0 1A0#FF0103
(1712234270.425004) vcan1 11A#04400000C0000072
(1712234270.425012) vcan0 111#01
(1712234270.425013) vcan1 1D4#6E6E000007440128
(1712234270.426278) vcan2 38A#E202E000
(1712234270.426289) vcan2 388#9E029C
(1712234270.426442) vcan1 1DA#A5321800000102D5
(1712234270.429112) vcan0 200#FF3F9F0A600503
(1712234270.433049) vcan2 4A0#0000000000000000
(1712234270.433070) vcan2 5A0#00000070168E192B
(1712234270.433092) vcan2 1A0#00050000FEFE0004
(1712234270.433104) vcan0 101#010100
(1712234270.436929) vcan1 11A#04400001C00001E1
(1712234270.436940) vcan1 1D4#6E6E0000474401EF
(1712234270.436945) vcan1 1DA#A5721800000103F2
(1712234270.437019) vcan2 320#1A007F0100000000
(1712234270.437026) vcan2 420#828A89FF00008000
(1712234270.437030) vcan2 050#00095851
(1712234270.439033) vcan2 5E0#00FFFFFF00008000
(1712234270.439097) vcan0 111#01
(1712234270.439105) vcan0 600#00
(1712234270.439109) vcan0 200#FF3FBF0A5A0503
(1712234270.439112) vcan0 201#00
(1712234270.443302) vcan0 101#010100
(1712234270.443322) vcan0 110#01
(1712234270.443326) vcan0 100#010100
(1712234270.449320) vcan0 111#01
(1712234270.449320) vcan1 1D4#6E6E000087440123
(1712234270.449333) vcan0 200#FF3F9F0A900503
(1712234270.449333) vcan1 11A#04400000C00002FD
(1712234270.449335) vcan2 38A#F202F000
(1712234270.449338) vcan1 1DA#A5721800000100F8
(1712234270.449342) vcan1 55A#1E3D3C005F005AE8
(1712234270.449344) vcan2 388#9F029D
(1712234270.449347) vcan2 470#000200FF03
(1712234270.449350) vcan2 570#8721FF07
(1712234270.449354) vcan2 5D0#800240A03041
(1712234270.449357) vcan2 5D8#550C000310000000
(1712234270.457215) vcan2 4A0#0000000000000000
(1712234270.457219) vcan2 5A0#000000381E8E192B
(1712234270.457222) vcan2 1A0#00050000FEFE0005
(1712234270.457225) vcan2 320#1A007F0100000000
(1712234270.457228) vcan2 050#00096861
(1712234270.457230) vcan2 5E0#00FFFFFF00008000
(1712234270.457380) vcan0 101#010100
(1712234270.457385) vcan1 1D4#6E6E0000C74401E4
(1712234270.457393) vcan1 11A#04400001C000036E
(1712234270.457398) vcan1 1DA#A5321800000101DF
(1712234270.462335) vcan0 111#01
(1712234270.462347) vcan0 600#00
(1712234270.473127) vcan2 38A#02020000
(1712234270.473133) vcan2 388#A002A2
(1712234270.473135) vcan2 4A0#0000000000000000
(1712234270.473138) vcan2 5A0#00000007268E192B
(1712234270.473309) vcan1 11A#04400000C0000072
(1712234270.473321) vcan1 1D4#6E6E000007440128
(1712234270.473314) vcan0 200#FF3FB60A6D0503
(1712234270.473325) vcan1 1DA#A5321800000102D5
(1712234270.473328) vcan0 201#00
(1712234270.473332) vcan0 101#010100
(1712234270.473338) vcan0 110#01
(1712234270.473342) vcan0 100#010100
(1712234270.473346) vcan0 111#01
(1712234270.473351) vcan0 200#FF3F7F0A440503
(1712234270.473355) vcan0 101#010100
(1712234270.476839) vcan2 1A0#00050000FEFE0006
(1712234270.476852) vcan2 320#1A007F0100000000
(1712234270.476856) vcan2 050#00097871
(1712234270.476860) vcan2 5E0#00FFFFFF00008000
(1712234270.476913) vcan0 111#01
(1712234270.476922) vcan0 600#00
(1712234270.476924) vcan1 11A#04400001C00001E1
(1712234270.476932) vcan1 1D4#6E6E0000474401EF
(1712234270.476939) vcan1 1DA#A5721800000103F2
(1712234270.484270) vcan1 11A#04400000C00002FD
(1712234270.484270) vcan0 200#FF3F970A600503
(1712234270.484286) vcan0 201#00
(1712234270.484293) vcan0 101#010100
(1712234270.484297) vcan0 110#01
(1712234270.484300) vcan0 100#010100
(1712234270.485689) vcan1 1D4#6E6E000087440123
(1712234270.485689) vcan0 111#01
(1712234270.485706) vcan1 1DA#A5721800000100F8
(1712234270.488232) vcan2 38A#12021000
(1712234270.488244) vcan2 388#A102A3
(1712234270.488420) vcan0 200#FF3FB40A580503
(1712234270.493212) vcan2 4A0#0000000000000000
(1712234270.493414) vcan0 101#010100
(1712234270.494979) vcan1 1D4#6E6E0000C74401E4
(1712234270.495021) vcan2 5A0#000000E02D8E192B
(1712234270.495026) vcan2 1A0#00050000FEFE0007
(1712234270.495029) vcan2 280#0000040000000000
(1712234270.495033) vcan2 320#1A007F0100000000
(1712234270.496783) vcan2 050#00098881
(1712234270.496786) vcan2 470#000200FF03
(1712234270.496789) vcan2 5E0#00FFFFFF00008000
(1712234270.496908) vcan0 111#01
(1712234270.496917) vcan1 50B#000006C0000000
(1712234270.496925) vcan1 11A#04400001C000036E
(1712234270.496930) vcan1 1DA#A5321800000101DF
(1712234270.498388) vcan0 600#00
(1712234270.499950) vcan0 200#FF3F980A6A0503
(1712234270.499958) vcan0 201#00
(1712234270.503447) vcan0 101#010100
(1712234270.503455) vcan0 100#010100
(1712234270.503458) vcan0 110#01
(1712234270.504848) vcan1 11A#04400000C0000072
(1712234270.506257) vcan2 38A#22022000
(1712234270.506259) vcan2 388#A202A0
(1712234270.506313) vcan0 111#01
(1712234270.506318) vcan1 1D4#6E6E000007440128
(1712234270.506324) vcan1 1DA#A5321800000102D5
(1712234270.509052) vcan0 200#FF3F9C0A600503
(1712234270.513226) vcan2 4A0#0000000000000000
(1712234270.513236) vcan0 101#010100
(1712234270.519809) vcan2 5A0#000000A7358E192B
(1712234270.519819) vcan2 1A0#00050000FEFE0008
(1712234270.519825) vcan2 320#1A007F0100000000
(1712234270.519896) vcan0 111#01
(1712234270.519905) vcan1 1D4#6E6E0000474401EF
(1712234270.519925) vcan1 11A#04400001C00001E1
(1712234270.521594) vcan2 050#00099891
(1712234270.521602) vcan2 5E0#00FFFFFF00008000
(1712234270.521753) vcan1 390#24003002008E2111
(1712234270.521771) vcan1 1DA#A5721800000103F2
(1712234270.521781) vcan1 393#0010000020000013
(1712234270.525064) vcan2 520#FB86019E2C5E4B03
(1712234270.525253) vcan0 600#00
(1712234270.525276) vcan0 200#FF3F9F0A5A0503
(1712234270.525285) vcan0 201#00
(1712234270.525291) vcan0 101#010100
(1712234270.525298) vcan0 100#010100
(1712234270.525304) vcan0 110#01
(1712234270.525310) vcan0 1A0#FF0100
(1712234270.525317) vcan0 111#01
(1712234270.525340) vcan1 11A#04400000C00002FD
(1712234270.525361) vcan1 1D4#6E6E000087440123
(1712234270.529005) vcan2 38A#32023000
(1712234270.529017) vcan2 388#A302A1
(1712234270.529048) vcan0 200#FF3F980A700503
(1712234270.529122) vcan1 1DA#A5721800000100F8
(1712234270.535270) vcan2 4A0#0000000000000000
(1712234270.535278) vcan2 5A0#000000833D8E192B
(1712234270.535282) vcan2 1A0#00050000FEFE0009
(1712234270.535406) vcan0 101#010100
(1712234270.536904) vcan2 320#1A007F0100000000
(1712234270.536908) vcan2 050#0009A8A1
(1712234270.536912) vcan2 5E0#00FFFFFF00008000
(1712234270.537020) vcan0 111#01
(1712234270.537032) vcan0 600#00
(1712234270.537076) vcan1 1D4#6E6E0000C74401E4
(1712234270.537094) vcan1 11A#04400001C000036E
(1712234270.537100) vcan1 1DA#A5321800000101DF
(1712234270.539386) vcan0 200#FF3FDE0A4C0503
(1712234270.539399) vcan0 201#00
(1712234270.543799) vcan0 101#010100
(1712234270.543820) vcan0 100#010100
(1712234270.543823) vcan0 110#01
(1712234270.547197) vcan2 38A#42024000
(1712234270.547205) vcan2 388#A402A6
(1712234270.547208) vcan2 470#000200FF03
(1712234270.547211) vcan2 570#8721FF07
(1712234270.547213) vcan2 5D0#800240A03041
(1712234270.547241) vcan0 111#01
(1712234270.547372) vcan1 11A#04400000C0000072
(1712234270.547384) vcan1 1D4#6E6E000007440128
(1712234270.547389) vcan1 1DA#A5321800000102D5
(1712234270.547393) vcan1 55A#133D3C005F005AE8
(1712234270.549543) vcan2 5D8#550C000310000000
(1712234270.549651) vcan0 200#FF3F9C0A660503
(1712234270.553253) vcan2 4A0#0000000000000000
(1712234270.553260) vcan2 5A0#0000004A458E192B
(1712234270.553382) vcan0 101#010100
(1712234270.559535) vcan2 1A0#00050000FEFE000A
(1712234270.559684) vcan0 111#01
(1712234270.559692) vcan0 600#00
(1712234270.559696) vcan0 200#FF3FA40A600503
(1712234270.559805) vcan1 11A#04400001C00001E1
(1712234270.559819) vcan1 1D4#6E6E0000474401EF
(1712234270.563195) vcan0 201#00
(1712234270.566137) vcan2 320#1A007F0100000000
(1712234270.566142) vcan2 050#0009B8B1
(1712234270.566144) vcan2 5E0#00FFFFFF00008000
(1712234270.566147) vcan2 38A#52025000
(1712234270.566148) vcan2 388#A502A7
(1712234270.566289) vcan0 101#010100
(1712234270.566295) vcan0 100#010100
(1712234270.566298) vcan0 110#01
(1712234270.566300) vcan0 111#01
(1712234270.569052) vcan0 200#FF3FA30A940503
(1712234270.576933) vcan2 4A0#0000000000000000
(1712234270.576947) vcan2 5A0#000000194D8E192B
(1712234270.576951) vcan2 1A0#00050000FEFE000B
(1712234270.576955) vcan2 320#1A007F0100000000
(1712234270.577017) vcan0 101#010100
(1712234270.577027) vcan0 111#01
(1712234270.577149) vcan1 1DA#A5721800000103F2
(1712234270.577161) vcan1 11A#04400000C00002FD
(1712234270.577167) vcan1 1D4#6E6E000087440123
(1712234270.577171) vcan1 1DA#A5721800000100F8
(1712234270.577176) vcan1 11A#04400001C000036E
(1712234270.577179) vcan1 1D4#6E6E0000C74401E4
(1712234270.580520) vcan2 050#0009C8C1
(1712234270.580524) vcan2 5E0#00FFFFFF00008000
(1712234270.580584) vcan0 600#00
(1712234270.580591) vcan0 200#FF3FA50A630503
(1712234270.580593) vcan0 201#00
(1712234270.580639) vcan1 1DA#A5321800000101DF
(1712234270.584996) vcan0 101#010100
(1712234270.585007) vcan0 100#010100
(1712234270.585011) vcan0 110#01
(1712234270.586783) vcan1 11A#04400000C0000072
(1712234270.586793) vcan1 1D4#6E6E000007440128
(1712234270.588415) vcan2 38A#62026000
(1712234270.588419) vcan2 388#A602A4
(1712234270.588477) vcan1 1DA#A5321800000102D5
(1712234270.590056) vcan0 111#01
(1712234270.590068) vcan0 200#FF3F9C0A700503
(1712234270.593340) vcan2 4A0#0000000000000000
(1712234270.593356) vcan2 5A0#000000F2548E192B
(1712234270.593360) vcan2 1A0#00050000FEFE000C
(1712234270.593400) vcan0 101#010100
(1712234270.594922) vcan2 280#0000040000000000
(1712234270.594930) vcan2 320#1A007F0100000000
(1712234270.595073) vcan1 11A#04400001C00001E1
(1712234270.597551) vcan2 050#0009D8D1
(1712234270.597763) vcan0 111#01
(1712234270.597858) vcan1 50B#000006C0000000
(1712234270.597869) vcan1 1D4#6E6E0000474401EF
(1712234270.597874) vcan1 1DA#A5721800000103F2
(1712234270.599078) vcan2 470#000200FF03
(1712234270.599083) vcan2 5E0#00FFFFFF00008000
(1712234270.599253) vcan0 600#00
(1712234270.599261) vcan0 200#FF3FB70A5D0503
(1712234270.599265) vcan0 201#00
(1712234270.602830) vcan0 101#010100
(1712234270.605850) vcan0 100#010100
(1712234270.605869) vcan0 110#01
(1712234270.605882) vcan0 111#01
(1712234270.606084) vcan1 1D4#6E6E000087440123
(1712234270.606094) vcan1 1DA#A5721800000100F8
(1712234270.606101) vcan1 11A#04400000C00002FD
(1712234270.608618) vcan0 200#FF3F580A6D0503
(1712234270.608632) vcan2 38A#72027000
(1712234270.608639) vcan2 388#A702A5
(1712234270.615602) vcan0 101#010100
(1712234270.615605) vcan2 4A0#0000000000000000
(1712234270.615610) vcan0 111#01
(1712234270.615626) vcan2 5A0#000000B95C8E192B
(1712234270.615651) vcan2 1A0#00050000FEFE000D
(1712234270.615653) vcan2 320#1A007F0100000000
(1712234270.615804) vcan1 1D4#6E6E0000C74401E4
(1712234270.615814) vcan1 11A#04400001C000036E
(1712234270.622745) vcan2 050#0009E8E1
(1712234270.622750) vcan0 600#00
(1712234270.622763) vcan2 5E0#00FFFFFF00008000
(1712234270.622769) vcan0 200#FF3F9F0A5F0503
(1712234270.622949) vcan1 1DA#A5321800000101DF
(1712234270.622958) vcan1 390#24003002008E2122
(1712234270.622962) vcan1 393#0010000020000024
(1712234270.624729) vcan1 11A#04400000C0000072
(1712234270.624734) vcan0 201#00
(1712234270.624745) vcan0 101#010100
(1712234270.624750) vcan0 100#010100
(1712234270.624756) vcan0 110#01
(1712234270.624760) vcan0 1A0#FF0101
(1712234270.626249) vcan0 111#01
(1712234270.626256) vcan2 38A#82028000
(1712234270.626291) vcan2 388#A802AA
(1712234270.626456) vcan1 1D4#6E6E000007440128
(1712234270.626467) vcan1 1DA#A5321800000102D5
(1712234270.629330) vcan0 200#FF3F960A580503
(1712234270.633638) vcan2 4A0#0000000000000000
(1712234270.633639) vcan0 101#010100
(1712234270.633643) vcan2 5A0#00000090648E192B
(1712234270.633647) vcan2 1A0#00050000FEFE000E
(1712234270.635298) vcan2 320#1A007F0100000000
(1712234270.635301) vcan2 420#828A89FF00008000
(1712234270.635361) vcan1 1D4#6E6E0000474401EF
(1712234270.636813) vcan0 111#01
(1712234270.636816) vcan0 600#00
(1712234270.636933) vcan2 050#0009F8F1
(1712234270.636938) vcan2 5E0#00FFFFFF00008000
(1712234270.637041) vcan1 11A#04400001C00001E1
(1712234270.637056) vcan1 1DA#A5721800000103F2
(1712234270.639593) vcan0 200#FF3F9C0A570503
(1712234270.639605) vcan0 201#00
(1712234270.648278) vcan0 101#010100
(1712234270.648295) vcan0 100#010100
(1712234270.648299) vcan0 110#01
(1712234270.648299) vcan2 38A#92029000
(1712234270.648302) vcan0 111#01
(1712234270.648305) vcan2 388#A902AB
(1712234270.648309) vcan2 470#000200FF03
(1712234270.648313) vcan2 570#8721FF07
(1712234270.648318) vcan2 5D0#800240A03041
(1712234270.648321) vcan2 5D8#550C000310000000
(1712234270.648400) vcan1 11A#04400000C00002FD
(1712234270.648417) vcan1 1D4#6E6E000087440123
(1712234270.648423) vcan1 1DA#A5721800000100F8
(1712234270.648428) vcan1 55A#1C3D3C005F005AE8
(1712234270.649535) vcan0 200#FF3FB20A740503
(1712234270.653635) vcan0 101#010100
(1712234270.655357) vcan0 111#01
(1712234270.655481) vcan2 4A0#0000000000000000
(1712234270.655488) vcan2 5A0#000000616C8E192B
(1712234270.655493) vcan2 1A0#00050000FEFE000F
(1712234270.655498) vcan2 320#1A007F0100000000
(1712234270.655587) vcan1 11A#04400001C000036E
(1712234270.655604) vcan1 1D4#6E6E0000C74401E4
(1712234270.656909) vcan2 050#00090801
(1712234270.656931) vcan2 5E0#00FFFFFF00008000
(1712234270.657091) vcan1 1DA#A5321800000101DF
(1712234270.658335) vcan0 600#00
(1712234270.658340) vcan0 200#FF3F8D0A5F0503
(1712234270.660104) vcan0 201#00
(1712234270.664816) vcan0 101#010100
(1712234270.664825) vcan0 100#010100
(1712234270.666823) vcan0 110#01
(1712234270.666826) vcan0 111#01
(1712234270.666862) vcan2 38A#A202A000
(1712234270.667021) vcan1 11A#04400000C0000072
(1712234270.667036) vcan1 1D4#6E6E000007440128
(1712234270.667045) vcan1 1DA#A5321800000102D5
(1712234270.668681) vcan0 200#FF3F8A0A5A0503
(1712234270.668722) vcan2 388#AA02A8
(1712234270.675673) vcan0 101#010100
(1712234270.675678) vcan0 111#01
(1712234270.675715) vcan2 4A0#0000000000000000
(1712234270.675741) vcan2 5A0#00000036748E192B
(1712234270.675746) vcan2 1A0#00050000FEFE0000
(1712234270.675749) vcan2 320#1A007F0100000000
(1712234270.675792) vcan1 11A#04400001C00001E1
(1712234270.675804) vcan1 1D4#6E6E0000474401EF
(1712234270.677060) vcan2 050#00091811
(1712234270.677067) vcan2 5E0#00FFFFFF00008000
(1712234270.677244) vcan1 1DA#A5721800000103F2
(1712234270.679629) vcan0 600#00
(1712234270.679636) vcan0 200#FF3F7B0A5E0503
(1712234270.679638) vcan0 201#00
(1712234270.683379) vcan0 101#010100
(1712234270.683383) vcan0 100#010100
(1712234270.683384) vcan0 110#01
(1712234270.684907) vcan0 111#01
(1712234270.685211) vcan1 11A#04400000C00002FD
(1712234270.685223) vcan1 1D4#6E6E000087440123
(1712234270.686694) vcan2 38A#B202B000
(1712234270.686697) vcan2 388#AB02A9
(1712234270.686843) vcan1 1DA#A5721800000100F8
(1712234270.689925) vcan0 200#FF3FA40A600503
(1712234270.693344) vcan2 4A0#0000000000000000
(1712234270.693350) vcan2 5A0#000000FB7B8E192B
(1712234270.693352) vcan2 1A0#00050000FEFE0001
(1712234270.693359) vcan0 101#010100
(1712234270.706585) vcan0 111#01
(1712234270.706581) vcan2 320#1A007F0100000000
(1712234270.706599) vcan0 600#00
(1712234270.706608) vcan2 280#0000040000000000
(1712234270.706611) vcan0 200#FF3F980A640503
(1712234270.706613) vcan2 050#00092821
(1712234270.706615) vcan0 201#00
(1712234270.706619) vcan0 101#010100
(1712234270.706620) vcan2 470#000200FF03
(1712234270.706622) vcan0 100#010100
(1712234270.706626) vcan2 5E0#00FFFFFF00008000
(1712234270.706626) vcan0 110#01
(1712234270.706628) vcan0 111#01
(1712234270.706639) vcan2 38A#C202C000
(1712234270.706683) vcan1 11A#04400001C000036E
(1712234270.706698) vcan1 50B#000006C0000000
(1712234270.706704) vcan1 1D4#6E6E0000C74401E4
(1712234270.706715) vcan1 1DA#A5321800000101DF
(1712234270.706721) vcan1 11A#04400000C0000072
(1712234270.706726) vcan1 1D4#6E6E000007440128
(1712234270.706730) vcan1 1DA#A5321800000102D5
(1712234270.709538) vcan2 388#AC02AE
(1712234270.709566) vcan0 200#FF3F9D0A5A0503
(1712234270.717055) vcan0 101#010100
(1712234270.717063) vcan0 111#01
(1712234270.717065) vcan0 600#00
(1712234270.717088) vcan2 4A0#0000000000000000
(1712234270.717094) vcan2 5A0#000000D6838E192B
(1712234270.717099) vcan2 1A0#00050000FEFE0002
(1712234270.717102) vcan2 320#1A007F0100000000
(1712234270.717108) vcan2 050#00093831
(1712234270.717118) vcan2 5E0#00FFFFFF00008000
(1712234270.717252) vcan1 1D4#6E6E0000474401EF
(1712234270.717269) vcan1 11A#04400001C00001E1
(1712234270.717274) vcan1 1DA#A5721800000103F2
(1712234270.717278) vcan1 390#24003002008E2133
(1712234270.717283) vcan1 393#0010000020000035
(1712234270.724353) vcan0 200#FF3FBC0A5F0503
(1712234270.724366) vcan0 201#00
(1712234270.731971) vcan0 101#010100
(1712234270.738692) vcan0 110#01
(1712234270.740415) vcan2 520#1DC4019E2C5E4B03
(1712234270.740434) vcan2 38A#D202D000
(1712234270.740446) vcan2 388#AD02AF
(1712234270.740456) vcan0 100#010100
(1712234270.740485) vcan0 1A0#FF0102
(1712234270.740496) vcan0 111#01
(1712234270.740506) vcan0 200#FF3F9E0A620503
(1712234270.740514) vcan0 101#010100
(1712234270.740522) vcan0 111#01
(1712234270.740529) vcan0 600#00
(1712234270.740539) vcan0 200#FF3FA00A600503
(1712234270.740546) vcan0 201#00
(1712234270.767901) vcan2 4A0#0000000000000000
(1712234270.767925) vcan2 5A0#0000009A8B8E192B
(1712234270.767929) vcan2 1A0#00050000FEFE0003
(1712234270.767932) vcan2 320#1A007F0100000000
(1712234270.767941) vcan2 050#00094841
(1712234270.767944) vcan2 5E0#00FFFFFF00008000
(1712234270.767984) vcan0 101#010100
(1712234270.767996) vcan0 100#010100
(1712234270.767992) vcan1 1D4#6E6E000087440123
(1712234270.768000) vcan0 110#01
(1712234270.768006) vcan1 11A#04400000C00002FD
(1712234270.768012) vcan1 1DA#A5721800000100F8
(1712234270.768016) vcan1 11A#04400001C000036E
(1712234270.768020) vcan1 1D4#6E6E0000C74401E4
(1712234270.768023) vcan1 1DA#A5321800000101DF
(1712234270.768026) vcan1 11A#04400000C0000072
(1712234270.768029) vcan1 1D4#6E6E000007440128
(1712234270.770002) vcan2 38A#E202E000
(1712234270.770035) vcan2 388#AE02AC
(1712234270.770040) vcan2 470#000200FF03
(1712234270.770044) vcan2 570#8721FF07
(1712234270.770049) vcan2 5D0#800240A03041
(1712234270.770057) vcan2 5D8#550C000310000000
(1712234270.770061) vcan2 4A0#0000000000000000
(1712234270.770065) vcan2 5A0#00000077938E192B
(1712234270.770068) vcan2 1A0#00050000FEFE0004
(1712234270.770071) vcan2 320#1A007F0100000000
(1712234270.770079) vcan2 050#00095851
(1712234270.770082) vcan2 5E0#00FFFFFF00008000
(1712234270.770084) vcan2 38A#F202F000
(1712234270.770086) vcan2 388#AF02AD
(1712234270.770163) vcan0 111#01
(1712234270.770181) vcan0 200#FF3F980A600503
(1712234270.770186) vcan0 101#010100
(1712234270.770190) vcan0 111#01
(1712234270.770194) vcan0 600#00
(1712234270.770199) vcan0 200#FF3FA50A580503
(1712234270.770202) vcan0 201#00
(1712234270.770206) vcan0 101#010100
(1712234270.770210) vcan0 110#01
(1712234270.770213) vcan0 100#010100
(1712234270.770216) vcan0 111#01
(1712234270.770215) vcan1 1DA#A5321800000102D5
(1712234270.770224) vcan1 55A#1E3D3C005F005AE8
(1712234270.770230) vcan1 11A#04400001C00001E1
(1712234270.770236) vcan1 1D4#6E6E0000474401EF
(1712234270.770240) vcan1 1DA#A5721800000103F2
(1712234270.770249) vcan1 11A#04400000C00002FD
(1712234270.770254) vcan1 1D4#6E6E000087440123
(1712234270.770257) vcan1 1DA#A5721800000100F8
(1712234270.773513) vcan2 4A0#0000000000000000
(1712234270.773544) vcan2 5A0#000000429B8E192B
(1712234270.773546) vcan2 1A0#00050000FEFE0005
(1712234270.773654) vcan0 200#FF3F920A680503
(1712234270.773663) vcan0 101#010100
(1712234270.775235) vcan2 320#1A007F0100000000
(1712234270.775518) vcan1 1D4#6E6E0000C74401E4
(1712234270.777139) vcan2 050#00096861
(1712234270.777164) vcan2 5E0#00FFFFFF00008000
(1712234270.777334) vcan1 11A#04400001C000036E
(1712234270.777346) vcan1 1DA#A5321800000101DF
(1712234270.777366) vcan0 111#01
(1712234270.777382) vcan0 600#00
(1712234270.779463) vcan0 201#00
(1712234270.779470) vcan0 200#FF3F9D0A640503
(1712234270.783959) vcan0 101#010100
(1712234270.783974) vcan0 110#01
(1712234270.783977) vcan0 100#010100
(1712234270.788877) vcan2 38A#02020000
(1712234270.788885) vcan2 388#B002B2
(1712234270.789000) vcan1 11A#04400000C0000072
(1712234270.789012) vcan1 1D4#6E6E000007440128
(1712234270.789016) vcan1 1DA#A5321800000102D5
(1712234270.789013) vcan0 111#01
(1712234270.789025) vcan0 200#FF3F8D0A620503
(1712234270.797873) vcan2 4A0#0000000000000000
(1712234270.797883) vcan2 5A0#00000004A38E192B
(1712234270.797886) vcan2 1A0#00050000FEFE0006
(1712234270.797889) vcan2 280#0000040000000000
(1712234270.797892) vcan2 320#1A007F0100000000
(1712234270.797885) vcan0 101#010100
(1712234270.798104) vcan1 50B#000006C0000000
(1712234270.798114) vcan1 11A#04400001C00001E1
(1712234270.798121) vcan1 1D4#6E6E0000474401EF
(1712234270.798124) vcan1 1DA#A5721800000103F2
(1712234270.799791) vcan2 050#00097871
(1712234270.799799) vcan2 470#000200FF03
(1712234270.799801) vcan2 5E0#00FFFFFF00008000
(1712234270.799927) vcan0 111#01
(1712234270.799937) vcan0 600#00
(1712234270.799940) vcan0 201#00
(1712234270.799945) vcan0 200#FF3F960A5F0503
(1712234270.803460) vcan0 101#010100
(1712234270.803468) vcan0 110#01
(1712234270.803471) vcan0 100#010100
(1712234270.805428) vcan0 111#01
(1712234270.805557) vcan1 11A#04400000C00002FD
(1712234270.805566) vcan1 1D4#6E6E000087440123
(1712234270.806733) vcan2 38A#12021000
(1712234270.806738) vcan2 388#B102B3
(1712234270.806907) vcan1 1DA#A5721800000100F8
(1712234270.809883) vcan0 200#FF3F9F0A200503
(1712234270.813597) vcan0 101#010100
(1712234270.813645) vcan2 4A0#0000000000000000
(1712234270.813654) vcan2 5A0#000000E6AA8E192B
(1712234270.813657) vcan2 1A0#00050000FEFE0007
(1712234270.814917) vcan2 320#1A007F0100000000
(1712234270.815083) vcan0 111#01
(1712234270.815213) vcan1 11A#04400001C000036E
(1712234270.815222) vcan1 1D4#6E6E0000C74401E4
(1712234270.817850) vcan2 050#00098881
(1712234270.818045) vcan0 600#00
(1712234270.818108) vcan1 1DA#A5321800000101DF
(1712234270.818119) vcan1 390#24003002008E2100
(1712234270.818123) vcan1 393#0010000020000002
(1712234270.819259) vcan2 5E0#00FFFFFF00008000
(1712234270.827492) vcan0 201#00
(1712234270.827514) vcan0 200#FF3FA80A6F0503
(1712234270.827518) vcan0 101#010100
(1712234270.827522) vcan0 100#010100
(1712234270.827525) vcan0 110#01
(1712234270.827530) vcan0 1A0#FF0103
(1712234270.827534) vcan0 111#01
(1712234270.827616) vcan1 11A#04400000C0000072
(1712234270.827629) vcan1 1D4#6E6E000007440128
(1712234270.827635) vcan1 1DA#A5321800000102D5
(1712234270.830651) vcan2 38A#22022000
(1712234270.830657) vcan2 388#B202B0
(1712234270.830671) vcan0 200#FF3F9C0A5C0503
(1712234270.837940) vcan2 4A0#0000000000000000
(1712234270.837945) vcan2 5A0#000000ADB28E192B
(1712234270.837948) vcan2 1A0#00050000FEFE0008
(1712234270.837952) vcan2 320#1A007F0100000000
(1712234270.837956) vcan2 420#828A8AFF00008000
(1712234270.838171) vcan0 101#010100
(1712234270.838170) vcan1 1D4#6E6E0000474401EF
(1712234270.838182) vcan1 11A#04400001C00001E1
(1712234270.839662) vcan2 050#00099891
(1712234270.839777) vcan0 111#01
(1712234270.839783) vcan0 600#00
(1712234270.839786) vcan0 201#00
(1712234270.839789) vcan0 200#FF3FB10A590503
(1712234270.839943) vcan1 1DA#A5721800000103F2
(1712234270.843159) vcan0 101#010100
(1712234270.843177) vcan0 110#01
(1712234270.843182) vcan0 100#010100
(1712234270.848244) vcan2 5E0#00FFFFFF00008000
(1712234270.849660) vcan0 111#01
(1712234270.849683) vcan0 200#FF3F990A750503
(1712234270.849807) vcan2 38A#32023000
(1712234270.849813) vcan2 388#B302B1
(1712234270.849816) vcan2 470#000200FF03
(1712234270.849820) vcan2 570#8721FF07
(1712234270.849823) vcan2 5D0#800240A03041
(1712234270.849826) vcan2 5D8#550C000310000000
(1712234270.850023) vcan1 11A#04400000C00002FD
(1712234270.850033) vcan1 1D4#6E6E000087440123
(1712234270.850037) vcan1 1DA#A5721800000100F8
(1712234270.850045) vcan1 55A#133D3C005F005AE8
(1712234270.854224) vcan0 101#010100
(1712234270.856361) vcan0 111#01
(1712234270.856466) vcan2 4A0#0000000000000000
(1712234270.856473) vcan2 5A0#00000081BA8E192B
(1712234270.856476) vcan2 1A0#00050000FEFE0009
(1712234270.856479) vcan2 320#1A007F0100000000
(1712234270.856686) vcan1 1D4#6E6E0000C74401E4
(1712234270.856704) vcan1 11A#04400001C000036E
(1712234270.856730) vcan1 1DA#A5321800000101DF
(1712234270.860083) vcan0 600#00
(1712234270.860100) vcan0 201#00
(1712234270.860117) vcan0 200#FF3FB20A6E0503
(1712234270.860208) vcan2 050#0009A8A1
(1712234270.860224) vcan2 5E0#00FFFFFF00008000
(1712234270.863524) vcan0 101#010100
(1712234270.863536) vcan0 100#010100
(1712234270.863539) vcan0 110#01
(1712234270.864986) vcan0 111#01
(1712234270.865174) vcan1 11A#04400000C0000072
(1712234270.865180) vcan1 1D4#6E6E000007440128
(1712234270.866611) vcan1 1DA#A5321800000102D5
(1712234270.871717) vcan0 200#FF3FB30A7F0503
(1712234270.871892) vcan2 38A#42024000
(1712234270.871911) vcan2 388#B402B6
(1712234270.873546) vcan0 101#010100
(1712234270.873699) vcan2 4A0#0000000000000000
(1712234270.873720) vcan2 5A0#00000050C28E192B
(1712234270.873730) vcan2 1A0#00050000FEFE000A
(1712234270.875018) vcan0 111#01
(1712234270.875071) vcan2 320#1A007F0100000000
(1712234270.875083) vcan1 1D4#6E6E0000474401EF
(1712234270.875105) vcan1 11A#04400001C00001E1
(1712234270.876746) vcan0 600#00
(1712234270.876776) vcan1 1DA#A5721800000103F2
(1712234270.876780) vcan2 050#0009B8B1
(1712234270.876799) vcan2 5E0#00FFFFFF00008000
(1712234270.881241) vcan0 201#00
(1712234270.881253) vcan0 200#FF3F9A0A560503
(1712234270.883563) vcan0 100#010100
(1712234270.883571) vcan0 101#010100
(1712234270.883576) vcan0 110#01
(1712234270.886009) vcan0 111#01
(1712234270.886067) vcan1 11A#04400000C00002FD
(1712234270.886077) vcan1 1D4#6E6E000087440123
(1712234270.886083) vcan1 1DA#A5721800000100F8
(1712234270.887569) vcan2 38A#52025000
(1712234270.887584) vcan2 388#B502B7
(1712234270.889619) vcan0 200#FF3FA00A580503
(1712234270.895970) vcan0 101#010100
(1712234270.896014) vcan2 4A0#0000000000000000
(1712234270.896027) vcan2 5A0#00000015CA8E192B
(1712234270.897502) vcan1 11A#04400001C000036E
(1712234270.897507) vcan1 50B#000006C0000000
(1712234270.897511) vcan1 1D4#6E6E0000C74401E4
(1712234270.897602) vcan0 111#01
(1712234270.897608) vcan2 1A0#00050000FEFE000B
(1712234270.897612) vcan0 600#00
(1712234270.897618) vcan2 280#0000040000000000
(1712234270.897623) vcan2 320#1A007F0100000000
(1712234270.897629) vcan2 050#0009C8C1
(1712234270.897633) vcan2 470#000200FF03
(1712234270.897637) vcan2 5E0#00FFFFFF00008000
(1712234270.899561) vcan0 201#00
(1712234270.899570) vcan0 200#FF3F960A580503
(1712234270.904835) vcan0 110#01
(1712234270.904840) vcan0 101#010100
(1712234270.904842) vcan0 100#010100
(1712234270.904857) vcan1 1DA#A5321800000101DF
(1712234270.904864) vcan1 11A#04400000C0000072
(1712234270.904867) vcan1 1D4#6E6E000007440128
(1712234270.906426) vcan1 1DA#A5321800000102D5
(1712234270.906466) vcan0 111#01
(1712234270.906513) vcan2 38A#62026000
(1712234270.906521) vcan2 388#B602B4
(1712234270.911615) vcan0 200#FF3FA20A860503
(1712234270.914038) vcan0 101#010100
(1712234270.914157) vcan2 4A0#0000000000000000
(1712234270.914166) vcan2 5A0#000000EED18E192B
(1712234270.914171) vcan2 1A0#00050000FEFE000C
(1712234270.917952) vcan0 111#01
(1712234270.917979) vcan2 320#1A007F0100000000
(1712234270.917986) vcan2 050#0009D8D1
(1712234270.918116) vcan1 11A#04400001C00001E1
(1712234270.918123) vcan1 1D4#6E6E0000474401EF
(1712234270.918126) vcan1 1DA#A5721800000103F2
(1712234270.918129) vcan1 390#24003002008E2111
(1712234270.918132) vcan1 393#0010000020000013
(1712234270.919293) vcan0 600#00
