(1752240934.683046) can0 7DF#02010D0000000000
(1752240934.686553) can0 7E8#03410D0000000000
(1752240934.702925) can0 7DF#02010C0000000000
(1752240934.706106) can0 7E8#04410C0000000000
(1752240934.722865) can0 7DF#02010D0000000000
(1752240934.726118) can0 7E8#03410D0000000000
(1752240934.743013) can0 7DF#02010C0000000000
(1752240934.746150) can0 7E8#04410C0000000000
(1752240934.762957) can0 7DF#02010D0000000000
(1752240934.766377) can0 7E8#03410D0000000000
(1752240934.783062) can0 7DF#02010C0000000000
(1752240934.786128) can0 7E8#04410C0000000000
(1752240934.803009) can0 7DF#02010D0000000000
(1752240934.806329) can0 7E8#03410D0000000000
(1752240934.822837) can0 7DF#02010C0000000000
(1752240934.826343) can0 7E8#04410C0000000000
(1752240934.843158) can0 7DF#02010D0000000000
(1752240934.846149) can0 7E8#03410D0000000000
(1752240934.862875) can0 7DF#02010C0000000000
(1752240934.866172) can0 7E8#04410C0000000000
(1752240934.882863) can0 7DF#02010D0000000000
(1752240934.886312) can0 7E8#03410D0000000000
(1752240934.903092) can0 7DF#02010C0000000000
(1752240934.906345) can0 7E8#04410C0000000000
(1752240934.922908) can0 7DF#02010D0000000000
(1752240934.926332) can0 7E8#03410D0000000000
(1752240934.942910) can0 7DF#02010C0000000000
(1752240934.946147) can0 7E8#04410C0000000000
(1752240934.962983) can0 7DF#02010D0000000000
(1752240934.966178) can0 7E8#03410D0000000000
(1752240934.982936) can0 7DF#02010C0000000000
(1752240934.986336) can0 7E8#04410C0000000000
(1752240935.002889) can0 7DF#02010D0000000000
(1752240935.006145) can0 7E8#03410D0000000000
(1752240935.023157) can0 7DF#02010C0000000000
(1752240935.026320) can0 7E8#04410C0000000000
(1752240935.042975) can0 7DF#02010D0000000000
(1752240935.046198) can0 7E8#03410D0000000000
(1752240935.063136) can0 7DF#02010C0000000000
(1752240935.066151) can0 7E8#04410C0000000000
(1752240935.082991) can0 7DF#02010D0000000000
(1752240935.086342) can0 7E8#03410D0000000000
(1752240935.102701) can0 7DF#02010C0000000000
(1752240935.106312) can0 7E8#04410C0000000000
(1752240935.123127) can0 7DF#02010D0000000000
(1752240935.126111) can0 7E8#03410D0000000000
(1752240935.142981) can0 7DF#02010C0000000000
(1752240935.146162) can0 7E8#04410C0000000000
(1752240935.150127) can0 17F00010#2010000000000000
(1752240935.162857) can0 7DF#02010D0000000000
(1752240935.166169) can0 7E8#03410D0000000000
(1752240935.182938) can0 7DF#02010C0000000000
(1752240935.186062) can0 7E8#04410C0000000000
(1752240935.202928) can0 7DF#02010D0000000000
(1752240935.206088) can0 7E8#03410D0000000000
(1752240935.222857) can0 7DF#02010C0000000000
(1752240935.226101) can0 7E8#04410C0000000000
(1752240935.243068) can0 7DF#02010D0000000000
(1752240935.246163) can0 7E8#03410D0000000000
(1752240935.262929) can0 7DF#02010C0000000000
(1752240935.266069) can0 7E8#04410C0000000000
(1752240935.282800) can0 7DF#02010D0000000000
(1752240935.286089) can0 7E8#03410D0000000000
(1752240935.302778) can0 7DF#02010C0000000000
(1752240935.306047) can0 7E8#04410C0000000000
(1752240935.322897) can0 7DF#02010D0000000000
(1752240935.326111) can0 7E8#03410D0000000000
(1752240935.343047) can0 7DF#02010C0000000000
(1752240935.346158) can0 7E8#04410C0000000000
(1752240935.363008) can0 7DF#02010D0000000000
(1752240935.366125) can0 7E8#03410D0000000000
(1752240935.382879) can0 7DF#02010C0000000000
(1752240935.386153) can0 7E8#04410C0000000000
(1752240935.403002) can0 7DF#02010D0000000000
(1752240935.406182) can0 7E8#03410D0000000000
(1752240935.423021) can0 7DF#02010C0000000000
(1752240935.426140) can0 7E8#04410C0000000000
(1752240935.442966) can0 7DF#02010D0000000000
(1752240935.446158) can0 7E8#03410D0000000000
(1752240935.462968) can0 7DF#02010C0000000000
(1752240935.466370) can0 7E8#04410C0000000000
(1752240935.482871) can0 7DF#02010D0000000000
(1752240935.486147) can0 7E8#03410D0000000000
(1752240935.502848) can0 7DF#02010C0000000000
(1752240935.506139) can0 7E8#04410C0000000000
(1752240935.523192) can0 7DF#02010D0000000000
(1752240935.526297) can0 7E8#03410D0000000000
(1752240935.542988) can0 7DF#02010C0000000000
(1752240935.546325) can0 7E8#04410C0000000000
(1752240935.562976) can0 7DF#02010D0000000000
(1752240935.566154) can0 7E8#03410D0000000000
(1752240935.583041) can0 7DF#02010C0000000000
(1752240935.586148) can0 7E8#04410C0000000000
(1752240935.602942) can0 7DF#02010D0000000000
(1752240935.606305) can0 7E8#03410D0000000000
(1752240935.623049) can0 7DF#02010C0000000000
(1752240935.626134) can0 7E8#04410C0000000000
(1752240935.642942) can0 7DF#02010D0000000000
(1752240935.646215) can0 7E8#03410D0000000000
(1752240935.650024) can0 17F00010#2010000000000000
(1752240935.662865) can0 7DF#02010C0000000000
(1752240935.666252) can0 7E8#04410C0000000000
(1752240935.683158) can0 7DF#02010D0000000000
(1752240935.686145) can0 7E8#03410D0000000000
(1752240935.703098) can0 7DF#02010C0000000000
(1752240935.706308) can0 7E8#04410C0000000000
(1752240935.722920) can0 7DF#02010D0000000000
(1752240935.726146) can0 7E8#03410D0000000000
(1752240935.743043) can0 7DF#02010C0000000000
(1752240935.746251) can0 7E8#04410C0000000000
(1752240935.762925) can0 7DF#02010D0000000000
(1752240935.766218) can0 7E8#03410D0000000000
(1752240935.782872) can0 7DF#02010C0000000000
(1752240935.786152) can0 7E8#04410C0000000000
(1752240935.803070) can0 7DF#02010D0000000000
(1752240935.806315) can0 7E8#03410D0000000000
(1752240935.822966) can0 7DF#02010C0000000000
(1752240935.826299) can0 7E8#04410C0000000000
(1752240935.843034) can0 7DF#02010D0000000000
(1752240935.846137) can0 7E8#03410D0000000000
(1752240935.863015) can0 7DF#02010C0000000000
(1752240935.866156) can0 7E8#04410C0000000000
(1752240935.882902) can0 7DF#02010D0000000000
(1752240935.886131) can0 7E8#03410D0000000000
(1752240935.903083) can0 7DF#02010C0000000000
(1752240935.906163) can0 7E8#04410C0000000000
(1752240935.922940) can0 7DF#02010D0000000000
(1752240935.926329) can0 7E8#03410D0000000000
(1752240935.942876) can0 7DF#02010C0000000000
(1752240935.946344) can0 7E8#04410C0000000000
(1752240935.963098) can0 7DF#02010D0000000000
(1752240935.966117) can0 7E8#03410D0000000000
(1752240935.982972) can0 7DF#02010C0000000000
(1752240935.986123) can0 7E8#04410C0000000000
(1752240936.002913) can0 7DF#02010D0000000000
(1752240936.006300) can0 7E8#03410D0000000000
(1752240936.023186) can0 7DF#02010C0000000000
(1752240936.026359) can0 7E8#04410C0000000000
(1752240936.042986) can0 7DF#02010D0000000000
(1752240936.046113) can0 7E8#03410D0000000000
(1752240936.062962) can0 7DF#02010C0000000000
(1752240936.066145) can0 7E8#04410C0000000000
(1752240936.083089) can0 7DF#02010D0000000000
(1752240936.086151) can0 7E8#03410D0000000000
(1752240936.103013) can0 7DF#02010C0000000000
(1752240936.106323) can0 7E8#04410C0000000000
(1752240936.123178) can0 7DF#02010D0000000000
(1752240936.126120) can0 7E8#03410D0000000000
(1752240936.143035) can0 7DF#02010C0000000000
(1752240936.146154) can0 7E8#04410C0000000000
(1752240936.150123) can0 17F00010#2010000000000000
(1752240936.163036) can0 7DF#02010D0000000000
(1752240936.166142) can0 7E8#03410D0000000000
(1752240936.182954) can0 7DF#02010C0000000000
(1752240936.186134) can0 7E8#04410C0000000000
(1752240936.202811) can0 7DF#02010D0000000000
(1752240936.206311) can0 7E8#03410D0000000000
(1752240936.222960) can0 7DF#02010C0000000000
(1752240936.226291) can0 7E8#04410C0000000000
(1752240936.242978) can0 7DF#02010D0000000000
(1752240936.246149) can0 7E8#03410D0000000000
(1752240936.262998) can0 7DF#02010C0000000000
(1752240936.266140) can0 7E8#04410C0000000000
(1752240936.282823) can0 7DF#02010D0000000000
(1752240936.286270) can0 7E8#03410D0000000000
(1752240936.302998) can0 7DF#02010C0000000000
(1752240936.306211) can0 7E8#04410C0000000000
(1752240936.323029) can0 7DF#02010D0000000000
(1752240936.326227) can0 7E8#03410D0000000000
(1752240936.342858) can0 7DF#02010C0000000000
(1752240936.346110) can0 7E8#04410C0000000000
(1752240936.363081) can0 7DF#02010D0000000000
(1752240936.366150) can0 7E8#03410D0000000000
(1752240936.382865) can0 7DF#02010C0000000000
(1752240936.386150) can0 7E8#04410C0000000000
(1752240936.402846) can0 7DF#02010D0000000000
(1752240936.406104) can0 7E8#03410D0000000000
(1752240936.423128) can0 7DF#02010C0000000000
(1752240936.426345) can0 7E8#04410C0000000000
(1752240936.442913) can0 7DF#02010D0000000000
(1752240936.446295) can0 7E8#03410D0000000000
(1752240936.463031) can0 7DF#02010C0000000000
(1752240936.466152) can0 7E8#04410C0000000000
(1752240936.482862) can0 7DF#02010D0000000000
(1752240936.486137) can0 7E8#03410D0000000000
(1752240936.502955) can0 7DF#02010C0000000000
(1752240936.506111) can0 7E8#04410C0000000000
(1752240936.523142) can0 7DF#02010D0000000000
(1752240936.526115) can0 7E8#03410D0000000000
(1752240936.543013) can0 7DF#02010C0000000000
(1752240936.546119) can0 7E8#04410C0000000000
(1752240936.562889) can0 7DF#02010D0000000000
(1752240936.566307) can0 7E8#03410D0000000000
(1752240936.582937) can0 7DF#02010C0000000000
(1752240936.586133) can0 7E8#04410C0000000000
(1752240936.602993) can0 7DF#02010D0000000000
(1752240936.606296) can0 7E8#03410D0000000000
(1752240936.622891) can0 7DF#02010C0000000000
(1752240936.626102) can0 7E8#04410C0000000000
(1752240936.643166) can0 7DF#02010D0000000000
(1752240936.646060) can0 7E8#03410D0000000000
(1752240936.649999) can0 17F00010#2010000000000000
(1752240936.663003) can0 7DF#02010C0000000000
(1752240936.666179) can0 7E8#04410C0000000000
(1752240936.682985) can0 7DF#02010D0000000000
(1752240936.686131) can0 7E8#03410D0000000000
(1752240936.703014) can0 7DF#02010C0000000000
(1752240936.706361) can0 7E8#04410C0000000000
(1752240936.722926) can0 7DF#02010D0000000000
(1752240936.726318) can0 7E8#03410D0000000000
(1752240936.743115) can0 7DF#02010C0000000000
(1752240936.746046) can0 7E8#04410C0000000000
(1752240936.762820) can0 7DF#02010D0000000000
(1752240936.766140) can0 7E8#03410D0000000000
(1752240936.782880) can0 7DF#02010C0000000000
(1752240936.786319) can0 7E8#04410C0000000000
(1752240936.802896) can0 7DF#02010D0000000000
(1752240936.806182) can0 7E8#03410D0000000000
(1752240936.822947) can0 7DF#02010C0000000000
(1752240936.826099) can0 7E8#04410C0000000000
(1752240936.842957) can0 7DF#02010D0000000000
(1752240936.846130) can0 7E8#03410D0000000000
(1752240936.862972) can0 7DF#02010C0000000000
(1752240936.866149) can0 7E8#04410C0000000000
(1752240936.882900) can0 7DF#02010D0000000000
(1752240936.886151) can0 7E8#03410D0000000000
(1752240936.902852) can0 7DF#02010C0000000000
(1752240936.906096) can0 7E8#04410C0000000000
(1752240936.923143) can0 7DF#02010D0000000000
(1752240936.926173) can0 7E8#03410D0000000000
(1752240936.942917) can0 7DF#02010C0000000000
(1752240936.946165) can0 7E8#04410C0000000000
(1752240936.963002) can0 7DF#02010D0000000000
(1752240936.966167) can0 7E8#03410D0000000000
(1752240936.982966) can0 7DF#02010C0000000000
(1752240936.986352) can0 7E8#04410C0000000000
(1752240937.002890) can0 7DF#02010D0000000000
(1752240937.006131) can0 7E8#03410D0000000000
(1752240937.023020) can0 7DF#02010C0000000000
(1752240937.026114) can0 7E8#04410C0000000000
(1752240937.042933) can0 7DF#02010D0000000000
(1752240937.046324) can0 7E8#03410D0000000000
(1752240937.062875) can0 7DF#02010C0000000000
(1752240937.066348) can0 7E8#04410C0000000000
(1752240937.082872) can0 7DF#02010D0000000000
(1752240937.086366) can0 7E8#03410D0000000000
(1752240937.103318) can0 7DF#02010C0000000000
(1752240937.106131) can0 7E8#04410C0000000000
(1752240937.122950) can0 7DF#02010D0000000000
(1752240937.126123) can0 7E8#03410D0000000000
(1752240937.143160) can0 7DF#02010C0000000000
(1752240937.146325) can0 7E8#04410C0000000000
(1752240937.150043) can0 17F00010#2010000000000000
(1752240937.162946) can0 7DF#02010D0000000000
(1752240937.166135) can0 7E8#03410D0000000000
(1752240937.182932) can0 7DF#02010C0000000000
(1752240937.186121) can0 7E8#04410C0000000000
(1752240937.203096) can0 7DF#02010D0000000000
(1752240937.206293) can0 7E8#03410D0000000000
(1752240937.222980) can0 7DF#02010C0000000000
(1752240937.226275) can0 7E8#04410C0000000000
(1752240937.243122) can0 7DF#02010D0000000000
(1752240937.246124) can0 7E8#03410D0000000000
(1752240937.262982) can0 7DF#02010C0000000000
(1752240937.266144) can0 7E8#04410C0000000000
(1752240937.282848) can0 7DF#02010D0000000000
(1752240937.286355) can0 7E8#03410D0000000000
(1752240937.303840) can0 7DF#02010C0000000000
(1752240937.306349) can0 7E8#04410C0000000000
(1752240937.322923) can0 7DF#02010D0000000000
(1752240937.326286) can0 7E8#03410D0000000000
(1752240937.342970) can0 7DF#02010C0000000000
(1752240937.346117) can0 7E8#04410C0000000000
(1752240937.362996) can0 7DF#02010D0000000000
(1752240937.366176) can0 7E8#03410D0000000000
(1752240937.382869) can0 7DF#02010C0000000000
(1752240937.386052) can0 7E8#04410C0000000000
(1752240937.402832) can0 7DF#02010D0000000000
(1752240937.406018) can0 7E8#03410D0000000000
(1752240937.423192) can0 7DF#02010C0000000000
(1752240937.426183) can0 7E8#04410C0000000000
(1752240937.442996) can0 7DF#02010D0000000000
(1752240937.446124) can0 7E8#03410D0000000000
(1752240937.463329) can0 7DF#02010C0000000000
(1752240937.466149) can0 7E8#04410C0000000000
(1752240937.483117) can0 7DF#02010D0000000000
(1752240937.486332) can0 7E8#03410D0000000000
(1752240937.502752) can0 7DF#02010C0000000000
(1752240937.506307) can0 7E8#04410C0000000000
(1752240937.523061) can0 7DF#02010D0000000000
(1752240937.526113) can0 7E8#03410D0000000000
(1752240937.542970) can0 7DF#02010C0000000000
(1752240937.546136) can0 7E8#04410C0000000000
(1752240937.562927) can0 7DF#02010D0000000000
(1752240937.566171) can0 7E8#03410D0000000000
(1752240937.582973) can0 7DF#02010C0000000000
(1752240937.586340) can0 7E8#04410C0000000000
(1752240937.602971) can0 7DF#02010D0000000000
(1752240937.606215) can0 7E8#03410D0000000000
(1752240937.622972) can0 7DF#02010C0000000000
(1752240937.626088) can0 7E8#04410C0000000000
(1752240937.643081) can0 7DF#02010D0000000000
(1752240937.646330) can0 7E8#03410D0000000000
(1752240937.649953) can0 17F00010#2010000000000000
(1752240937.662851) can0 7DF#02010C0000000000
(1752240937.666343) can0 7E8#04410C0000000000
(1752240937.682930) can0 7DF#02010D0000000000
(1752240937.686122) can0 7E8#03410D0000000000
(1752240937.703116) can0 7DF#02010C0000000000
(1752240937.706353) can0 7E8#04410C0000000000
(1752240937.722930) can0 7DF#02010D0000000000
(1752240937.726269) can0 7E8#03410D0000000000
(1752240937.742933) can0 7DF#02010C0000000000
(1752240937.746136) can0 7E8#04410C0000000000
(1752240937.762972) can0 7DF#02010D0000000000
(1752240937.766163) can0 7E8#03410D0000000000
(1752240937.782906) can0 7DF#02010C0000000000
(1752240937.786350) can0 7E8#04410C0000000000
(1752240937.803161) can0 7DF#02010D0000000000
(1752240937.806119) can0 7E8#03410D0000000000
(1752240937.822961) can0 7DF#02010C0000000000
(1752240937.826158) can0 7E8#04410C0000000000
(1752240937.842898) can0 7DF#02010D0000000000
(1752240937.846194) can0 7E8#03410D0000000000
(1752240937.863025) can0 7DF#02010C0000000000
(1752240937.866157) can0 7E8#04410C0000000000
(1752240937.883021) can0 7DF#02010D0000000000
(1752240937.886338) can0 7E8#03410D0000000000
(1752240937.902921) can0 7DF#02010C0000000000
(1752240937.906131) can0 7E8#04410C0000000000
(1752240937.923160) can0 7DF#02010D0000000000
(1752240937.926319) can0 7E8#03410D0000000000
(1752240937.942981) can0 7DF#02010C0000000000
(1752240937.946312) can0 7E8#04410C0000000000
(1752240937.962988) can0 7DF#02010D0000000000
(1752240937.966134) can0 7E8#03410D0000000000
(1752240937.983086) can0 7DF#02010C0000000000
(1752240937.986326) can0 7E8#04410C0000000000
(1752240938.002991) can0 7DF#02010D0000000000
(1752240938.006301) can0 7E8#03410D0000000000
(1752240938.022947) can0 7DF#02010C0000000000
(1752240938.026133) can0 7E8#04410C0000000000
(1752240938.042966) can0 7DF#02010D0000000000
(1752240938.046218) can0 7E8#03410D0000000000
(1752240938.062851) can0 7DF#02010C0000000000
(1752240938.066338) can0 7E8#04410C0000000000
(1752240938.082973) can0 7DF#02010D0000000000
(1752240938.086335) can0 7E8#03410D0000000000
(1752240938.103007) can0 7DF#02010C0000000000
(1752240938.106324) can0 7E8#04410C0000000000
(1752240938.122974) can0 7DF#02010D0000000000
(1752240938.126088) can0 7E8#03410D0000000000
(1752240938.142972) can0 7DF#02010C0000000000
(1752240938.146316) can0 7E8#04410C0000000000
(1752240938.150133) can0 17F00010#2010000000000000
(1752240938.162861) can0 7DF#02010D0000000000
(1752240938.166150) can0 7E8#03410D0000000000
(1752240938.183020) can0 7DF#02010C0000000000
(1752240938.186120) can0 7E8#04410C0000000000
(1752240938.203051) can0 7DF#02010D0000000000
(1752240938.206333) can0 7E8#03410D0000000000
(1752240938.222968) can0 7DF#02010C0000000000
(1752240938.226280) can0 7E8#04410C0000000000
(1752240938.242952) can0 7DF#02010D0000000000
(1752240938.246106) can0 7E8#03410D0000000000
(1752240938.263018) can0 7DF#02010C0000000000
(1752240938.266152) can0 7E8#04410C0000000000
(1752240938.283022) can0 7DF#02010D0000000000
(1752240938.286123) can0 7E8#03410D0000000000
(1752240938.302994) can0 7DF#02010C0000000000
(1752240938.306128) can0 7E8#04410C0000000000
(1752240938.322980) can0 7DF#02010D0000000000
(1752240938.326171) can0 7E8#03410D0000000000
(1752240938.342891) can0 7DF#02010C0000000000
(1752240938.346321) can0 7E8#04410C0000000000
(1752240938.363087) can0 7DF#02010D0000000000
(1752240938.366145) can0 7E8#03410D0000000000
(1752240938.382817) can0 7DF#02010C0000000000
(1752240938.386339) can0 7E8#04410C0000000000
(1752240938.402865) can0 7DF#02010D0000000000
(1752240938.406122) can0 7E8#03410D0000000000
(1752240938.423289) can0 7DF#02010C0000000000
(1752240938.426351) can0 7E8#04410C0000000000
(1752240938.442993) can0 7DF#02010D0000000000
(1752240938.446121) can0 7E8#03410D0000000000
(1752240938.463046) can0 7DF#02010C0000000000
(1752240938.466128) can0 7E8#04410C0000000000
(1752240938.482948) can0 7DF#02010D0000000000
(1752240938.486329) can0 7E8#03410D0000000000
(1752240938.502972) can0 7DF#02010C0000000000
(1752240938.506126) can0 7E8#04410C0000000000
(1752240938.523323) can0 7DF#02010D0000000000
(1752240938.526128) can0 7E8#03410D0000000000
(1752240938.542972) can0 7DF#02010C0000000000
(1752240938.546148) can0 7E8#04410C0000000000
(1752240938.562901) can0 7DF#02010D0000000000
(1752240938.566357) can0 7E8#03410D0000000000
(1752240938.583205) can0 7DF#02010C0000000000
(1752240938.586172) can0 7E8#04410C0000000000
(1752240938.603093) can0 7DF#02010D0000000000
(1752240938.606218) can0 7E8#03410D0000000000
(1752240938.622986) can0 7DF#02010C0000000000
(1752240938.626298) can0 7E8#04410C0000000000
(1752240938.643215) can0 7DF#02010D0000000000
(1752240938.646350) can0 7E8#03410D0000000000
(1752240938.649901) can0 17F00010#2010000000000000
(1752240938.663091) can0 7DF#02010C0000000000
(1752240938.666106) can0 7E8#04410C0000000000
(1752240938.682946) can0 7DF#02010D0000000000
(1752240938.686154) can0 7E8#03410D0000000000
(1752240938.703073) can0 7DF#02010C0000000000
(1752240938.706281) can0 7E8#04410C0000000000
(1752240938.722910) can0 7DF#02010D0000000000
(1752240938.726298) can0 7E8#03410D0000000000
(1752240938.743073) can0 7DF#02010C0000000000
(1752240938.746148) can0 7E8#04410C0000000000
(1752240938.763073) can0 7DF#02010D0000000000
(1752240938.766163) can0 7E8#03410D0000000000
(1752240938.783047) can0 7DF#02010C0000000000
(1752240938.786317) can0 7E8#04410C0000000000
(1752240938.803090) can0 7DF#02010D0000000000
(1752240938.806105) can0 7E8#03410D0000000000
(1752240938.823167) can0 7DF#02010C0000000000
(1752240938.826120) can0 7E8#04410C0000000000
(1752240938.842856) can0 7DF#02010D0000000000
(1752240938.846316) can0 7E8#03410D0000000000
(1752240938.862946) can0 7DF#02010C0000000000
(1752240938.866123) can0 7E8#04410C0000000000
(1752240938.882946) can0 7DF#02010D0000000000
(1752240938.886353) can0 7E8#03410D0000000000
(1752240938.902903) can0 7DF#02010C0000000000
(1752240938.906143) can0 7E8#04410C0000000000
(1752240938.923151) can0 7DF#02010D0000000000
(1752240938.926308) can0 7E8#03410D0000000000
(1752240938.942976) can0 7DF#02010C0000000000
(1752240938.946122) can0 7E8#04410C0000000000
(1752240938.962873) can0 7DF#02010D0000000000
(1752240938.966117) can0 7E8#03410D0000000000
(1752240938.983011) can0 7DF#02010C0000000000
(1752240938.986345) can0 7E8#04410C0000000000
(1752240939.002957) can0 7DF#02010D0000000000
(1752240939.006218) can0 7E8#03410D0000000000
(1752240939.023002) can0 7DF#02010C0000000000
(1752240939.026124) can0 7E8#04410C0000000000
(1752240939.042976) can0 7DF#02010D0000000000
(1752240939.046154) can0 7E8#03410D0000000000
(1752240939.062965) can0 7DF#02010C0000000000
(1752240939.066156) can0 7E8#04410C0000000000
(1752240939.082829) can0 7DF#02010D0000000000
(1752240939.086110) can0 7E8#03410D0000000000
(1752240939.102943) can0 7DF#02010C0000000000
(1752240939.106261) can0 7E8#04410C0000000000
(1752240939.122837) can0 7DF#02010D0000000000
(1752240939.126313) can0 7E8#03410D0000000000
(1752240939.142927) can0 7DF#02010C0000000000
(1752240939.146248) can0 7E8#04410C0000000000
(1752240939.150242) can0 17F00010#2010000000000000
(1752240939.162994) can0 7DF#02010D0000000000
(1752240939.166152) can0 7E8#03410D0000000000
(1752240939.183077) can0 7DF#02010C0000000000
(1752240939.186343) can0 7E8#04410C0000000000
(1752240939.203036) can0 7DF#02010D0000000000
(1752240939.206149) can0 7E8#03410D0000000000
(1752240939.223009) can0 7DF#02010C0000000000
(1752240939.226219) can0 7E8#04410C0000000000
(1752240939.242995) can0 7DF#02010D0000000000
(1752240939.246143) can0 7E8#03410D0000000000
(1752240939.262986) can0 7DF#02010C0000000000
(1752240939.266148) can0 7E8#04410C0000000000
(1752240939.282930) can0 7DF#02010D0000000000
(1752240939.286111) can0 7E8#03410D0000000000
(1752240939.302996) can0 7DF#02010C0000000000
(1752240939.306198) can0 7E8#04410C0000000000
(1752240939.323164) can0 7DF#02010D0000000000
(1752240939.326316) can0 7E8#03410D0000000000
(1752240939.342925) can0 7DF#02010C0000000000
(1752240939.346299) can0 7E8#04410C0000000000
(1752240939.362959) can0 7DF#02010D0000000000
(1752240939.366154) can0 7E8#03410D0000000000
(1752240939.382926) can0 7DF#02010C0000000000
(1752240939.386312) can0 7E8#04410C0000000000
(1752240939.402810) can0 7DF#02010D0000000000
(1752240939.406331) can0 7E8#03410D0000000000
(1752240939.422986) can0 7DF#02010C0000000000
(1752240939.426108) can0 7E8#04410C0000000000
(1752240939.443089) can0 7DF#02010D0000000000
(1752240939.446366) can0 7E8#03410D0000000000
(1752240939.462847) can0 7DF#02010C0000000000
(1752240939.466201) can0 7E8#04410C0000000000
(1752240939.483095) can0 7DF#02010D0000000000
(1752240939.486349) can0 7E8#03410D0000000000
(1752240939.502987) can0 7DF#02010C0000000000
(1752240939.506349) can0 7E8#04410C0000000000
(1752240939.522867) can0 7DF#02010D0000000000
(1752240939.526113) can0 7E8#03410D0000000000
(1752240939.543076) can0 7DF#02010C0000000000
(1752240939.546363) can0 7E8#04410C0000000000
(1752240939.562944) can0 7DF#02010D0000000000
(1752240939.566352) can0 7E8#03410D0000000000
(1752240939.582903) can0 7DF#02010C0000000000
(1752240939.586145) can0 7E8#04410C0000000000
(1752240939.603072) can0 7DF#02010D0000000000
(1752240939.606128) can0 7E8#03410D0000000000
(1752240939.622827) can0 7DF#02010C0000000000
(1752240939.626280) can0 7E8#04410C0000000000
(1752240939.643068) can0 7DF#02010D0000000000
(1752240939.646158) can0 7E8#03410D0000000000
(1752240939.649949) can0 17F00010#2010000000000000
(1752240939.662970) can0 7DF#02010C0000000000
(1752240939.666366) can0 7E8#04410C0000000000
(1752240939.682888) can0 7DF#02010D0000000000
(1752240939.686127) can0 7E8#03410D0000000000
(1752240939.702781) can0 7DF#02010C0000000000
(1752240939.706066) can0 7E8#04410C0000000000
(1752240939.722621) can0 7DF#02010D0000000000
(1752240939.726011) can0 7E8#03410D0000000000
(1752240939.742776) can0 7DF#02010C0000000000
(1752240939.746140) can0 7E8#04410C0000000000
(1752240939.762946) can0 7DF#02010D0000000000
(1752240939.766310) can0 7E8#03410D0000000000
(1752240939.783025) can0 7DF#02010C0000000000
(1752240939.786354) can0 7E8#04410C0000000000
(1752240939.803008) can0 7DF#02010D0000000000
(1752240939.806353) can0 7E8#03410D0000000000
(1752240939.822991) can0 7DF#02010C0000000000
(1752240939.826344) can0 7E8#04410C0000000000
(1752240939.842757) can0 7DF#02010D0000000000
(1752240939.846243) can0 7E8#03410D0000000000
(1752240939.863059) can0 7DF#02010C0000000000
(1752240939.866327) can0 7E8#04410C0000000000
(1752240939.883084) can0 7DF#02010D0000000000
(1752240939.886344) can0 7E8#03410D0000000000
(1752240939.902974) can0 7DF#02010C0000000000
(1752240939.906417) can0 7E8#04410C0000000000
(1752240939.922882) can0 7DF#02010D0000000000
(1752240939.926300) can0 7E8#03410D0000000000
(1752240939.943085) can0 7DF#02010C0000000000
(1752240939.946359) can0 7E8#04410C0000000000
(1752240939.963042) can0 7DF#02010D0000000000
(1752240939.966377) can0 7E8#03410D0000000000
(1752240939.982959) can0 7DF#02010C0000000000
(1752240939.986143) can0 7E8#04410C0000000000
(1752240940.003064) can0 7DF#02010D0000000000
(1752240940.006215) can0 7E8#03410D0000000000
(1752240940.023071) can0 7DF#02010C0000000000
(1752240940.026226) can0 7E8#04410C0000000000
(1752240940.043208) can0 7DF#02010D0000000000
(1752240940.046179) can0 7E8#03410D0000000000
(1752240940.063078) can0 7DF#02010C0000000000
(1752240940.066353) can0 7E8#04410C0000000000
(1752240940.083088) can0 7DF#02010D0000000000
(1752240940.086372) can0 7E8#03410D0000000000
(1752240940.103063) can0 7DF#02010C0000000000
(1752240940.106151) can0 7E8#04410C0000000000
(1752240940.123013) can0 7DF#02010D0000000000
(1752240940.126277) can0 7E8#03410D0000000000
(1752240940.143068) can0 7DF#02010C0000000000
(1752240940.146131) can0 7E8#04410C0000000000
(1752240940.149995) can0 17F00010#2010000000000000
(1752240940.163053) can0 7DF#02010D0000000000
(1752240940.166303) can0 7E8#03410D0000000000
(1752240940.183582) can0 7DF#02010C0000000000
(1752240940.186347) can0 7E8#04410C0000000000
(1752240940.202955) can0 7DF#02010D0000000000
(1752240940.206185) can0 7E8#03410D0000000000
(1752240940.222987) can0 7DF#02010C0000000000
(1752240940.226320) can0 7E8#04410C0000000000
(1752240940.242919) can0 7DF#02010D0000000000
(1752240940.246263) can0 7E8#03410D0000000000
(1752240940.262985) can0 7DF#02010C0000000000
(1752240940.266163) can0 7E8#04410C0000000000
(1752240940.283034) can0 7DF#02010D0000000000
(1752240940.286219) can0 7E8#03410D0000000000
(1752240940.302923) can0 7DF#02010C0000000000
(1752240940.306193) can0 7E8#04410C0000000000
(1752240940.323027) can0 7DF#02010D0000000000
(1752240940.326183) can0 7E8#03410D0000000000
(1752240940.343085) can0 7DF#02010C0000000000
(1752240940.346189) can0 7E8#04410C0000000000
(1752240940.363070) can0 7DF#02010D0000000000
(1752240940.366189) can0 7E8#03410D0000000000
(1752240940.383022) can0 7DF#02010C0000000000
(1752240940.386211) can0 7E8#04410C0000000000
(1752240940.403003) can0 7DF#02010D0000000000
(1752240940.406349) can0 7E8#03410D0000000000
(1752240940.422887) can0 7DF#02010C0000000000
(1752240940.426295) can0 7E8#04410C0000000000
(1752240940.443028) can0 7DF#02010D0000000000
(1752240940.446350) can0 7E8#03410D0000000000
(1752240940.462981) can0 7DF#02010C0000000000
(1752240940.466362) can0 7E8#04410C0000000000
(1752240940.483013) can0 7DF#02010D0000000000
(1752240940.486165) can0 7E8#03410D0000000000
(1752240940.503001) can0 7DF#02010C0000000000
(1752240940.506339) can0 7E8#04410C0000000000
(1752240940.523075) can0 7DF#02010D0000000000
(1752240940.526300) can0 7E8#03410D0000000000
(1752240940.543024) can0 7DF#02010C0000000000
(1752240940.546109) can0 7E8#04410C0000000000
(1752240940.563000) can0 7DF#02010D0000000000
(1752240940.566332) can0 7E8#03410D0000000000
(1752240940.582957) can0 7DF#02010C0000000000
(1752240940.586344) can0 7E8#04410C0000000000
(1752240940.602838) can0 7DF#02010D0000000000
(1752240940.606099) can0 7E8#03410D0000000000
(1752240940.622777) can0 7DF#02010C0000000000
(1752240940.626060) can0 7E8#04410C0000000000
(1752240940.642686) can0 7DF#02010D0000000000
(1752240940.646035) can0 7E8#03410D0000000000
(1752240940.649815) can0 17F00010#2010000000000000
(1752240940.662708) can0 7DF#02010C0000000000
(1752240940.666016) can0 7E8#04410C0000000000
(1752240940.682730) can0 7DF#02010D0000000000
(1752240940.685996) can0 7E8#03410D0000000000
(1752240940.702652) can0 7DF#02010C0000000000
(1752240940.706007) can0 7E8#04410C0000000000
(1752240940.722796) can0 7DF#02010D0000000000
(1752240940.725954) can0 7E8#03410D0000000000
(1752240940.742728) can0 7DF#02010C0000000000
(1752240940.746037) can0 7E8#04410C0000000000
(1752240940.762919) can0 7DF#02010D0000000000
(1752240940.765984) can0 7E8#03410D0000000000
(1752240940.782858) can0 7DF#02010C0000000000
(1752240940.786040) can0 7E8#04410C0000000000
(1752240940.802727) can0 7DF#02010D0000000000
(1752240940.806099) can0 7E8#03410D0000000000
(1752240940.822963) can0 7DF#02010C0000000000
(1752240940.826116) can0 7E8#04410C0000000000
(1752240940.842768) can0 7DF#02010D0000000000
(1752240940.846105) can0 7E8#03410D0000000000
(1752240940.862749) can0 7DF#02010C0000000000
(1752240940.866077) can0 7E8#04410C0000000000
(1752240940.882789) can0 7DF#02010D0000000000
(1752240940.886134) can0 7E8#03410D0000000000
(1752240940.903076) can0 7DF#02010C0000000000
(1752240940.906162) can0 7E8#04410C0000000000
(1752240940.923009) can0 7DF#02010D0000000000
(1752240940.926139) can0 7E8#03410D0000000000
(1752240940.943035) can0 7DF#02010C0000000000
(1752240940.946156) can0 7E8#04410C0000000000
(1752240940.963007) can0 7DF#02010D0000000000
(1752240940.966158) can0 7E8#03410D0000000000
(1752240940.983047) can0 7DF#02010C0000000000
(1752240940.986160) can0 7E8#04410C0000000000
(1752240941.002930) can0 7DF#02010D0000000000
(1752240941.006158) can0 7E8#03410D0000000000
(1752240941.022978) can0 7DF#02010C0000000000
(1752240941.026145) can0 7E8#04410C0000000000
(1752240941.043024) can0 7DF#02010D0000000000
(1752240941.046205) can0 7E8#03410D0000000000
(1752240941.063051) can0 7DF#02010C0000000000
(1752240941.066145) can0 7E8#04410C0000000000
(1752240941.083086) can0 7DF#02010D0000000000
(1752240941.086346) can0 7E8#03410D0000000000
(1752240941.103019) can0 7DF#02010C0000000000
(1752240941.106143) can0 7E8#04410C0000000000
(1752240941.123118) can0 7DF#02010D0000000000
(1752240941.126333) can0 7E8#03410D0000000000
(1752240941.143083) can0 7DF#02010C0000000000
(1752240941.146344) can0 7E8#04410C0000000000
(1752240941.150026) can0 17F00010#2010000000000000
(1752240941.162844) can0 7DF#02010D0000000000
(1752240941.166327) can0 7E8#03410D0000000000
(1752240941.183108) can0 7DF#02010C0000000000
(1752240941.186156) can0 7E8#04410C0000000000
(1752240941.203016) can0 7DF#02010D0000000000
(1752240941.206358) can0 7E8#03410D0000000000
(1752240941.223091) can0 7DF#02010C0000000000
(1752240941.226293) can0 7E8#04410C0000000000
(1752240941.242975) can0 7DF#02010D0000000000
(1752240941.246133) can0 7E8#03410D0000000000
(1752240941.262749) can0 7DF#02010C0000000000
(1752240941.266095) can0 7E8#04410C0000000000
(1752240941.282752) can0 7DF#02010D0000000000
(1752240941.286133) can0 7E8#03410D0000000000
(1752240941.303057) can0 7DF#02010C0000000000
(1752240941.306344) can0 7E8#04410C0000000000
(1752240941.323113) can0 7DF#02010D0000000000
(1752240941.326345) can0 7E8#03410D0000000000
(1752240941.343108) can0 7DF#02010C0000000000
(1752240941.346373) can0 7E8#04410C0000000000
(1752240941.363001) can0 7DF#02010D0000000000
(1752240941.366333) can0 7E8#03410D0000000000
(1752240941.382868) can0 7DF#02010C0000000000
(1752240941.386084) can0 7E8#04410C0000000000
(1752240941.403010) can0 7DF#02010D0000000000
(1752240941.406345) can0 7E8#03410D0000000000
(1752240941.423010) can0 7DF#02010C0000000000
(1752240941.426340) can0 7E8#04410C0000000000
(1752240941.443052) can0 7DF#02010D0000000000
(1752240941.446386) can0 7E8#03410D0000000000
(1752240941.463098) can0 7DF#02010C0000000000
(1752240941.466372) can0 7E8#04410C0000000000
(1752240941.483018) can0 7DF#02010D0000000000
(1752240941.486323) can0 7E8#03410D0000000000
(1752240941.502962) can0 7DF#02010C0000000000
(1752240941.506311) can0 7E8#04410C0000000000
(1752240941.522982) can0 7DF#02010D0000000000
(1752240941.526332) can0 7E8#03410D0000000000
(1752240941.542925) can0 7DF#02010C0000000000
(1752240941.546105) can0 7E8#04410C0000000000
(1752240941.563078) can0 7DF#02010D0000000000
(1752240941.566316) can0 7E8#03410D0000000000
(1752240941.582825) can0 7DF#02010C0000000000
(1752240941.586332) can0 7E8#04410C0000000000
(1752240941.602949) can0 7DF#02010D0000000000
(1752240941.606329) can0 7E8#03410D0000000000
(1752240941.623015) can0 7DF#02010C0000000000
(1752240941.626326) can0 7E8#04410C0000000000
(1752240941.643019) can0 7DF#02010D0000000000
(1752240941.646323) can0 7E8#03410D0000000000
(1752240941.649984) can0 17F00010#2010000000000000
(1752240941.662914) can0 7DF#02010C0000000000
(1752240941.666368) can0 7E8#04410C0000000000
(1752240941.682964) can0 7DF#02010D0000000000
(1752240941.686340) can0 7E8#03410D0000000000
(1752240941.703017) can0 7DF#02010C0000000000
(1752240941.706345) can0 7E8#04410C0000000000
(1752240941.723075) can0 7DF#02010D0000000000
(1752240941.726125) can0 7E8#03410D0000000000
(1752240941.743040) can0 7DF#02010C0000000000
(1752240941.746172) can0 7E8#04410C0000000000
(1752240941.763018) can0 7DF#02010D0000000000
(1752240941.766317) can0 7E8#03410D0000000000
(1752240941.783037) can0 7DF#02010C0000000000
(1752240941.786365) can0 7E8#04410C0000000000
(1752240941.803096) can0 7DF#02010D0000000000
(1752240941.806321) can0 7E8#03410D0000000000
(1752240941.823043) can0 7DF#02010C0000000000
(1752240941.826316) can0 7E8#04410C0000000000
(1752240941.843072) can0 7DF#02010D0000000000
(1752240941.846220) can0 7E8#03410D0000000000
(1752240941.862959) can0 7DF#02010C0000000000
(1752240941.866338) can0 7E8#04410C0000000000
(1752240941.883102) can0 7DF#02010D0000000000
(1752240941.886351) can0 7E8#03410D0000000000
(1752240941.903029) can0 7DF#02010C0000000000
(1752240941.906329) can0 7E8#04410C0000000000
(1752240941.923085) can0 7DF#02010D0000000000
(1752240941.926333) can0 7E8#03410D0000000000
(1752240941.943097) can0 7DF#02010C0000000000
(1752240941.946164) can0 7E8#04410C0000000000
(1752240941.963008) can0 7DF#02010D0000000000
(1752240941.966325) can0 7E8#03410D0000000000
(1752240941.983082) can0 7DF#02010C0000000000
(1752240941.986331) can0 7E8#04410C0000000000
(1752240942.002810) can0 7DF#02010D0000000000
(1752240942.006377) can0 7E8#03410D0000000000
(1752240942.023109) can0 7DF#02010C0000000000
(1752240942.026324) can0 7E8#04410C0000000000
(1752240942.043047) can0 7DF#02010D0000000000
(1752240942.046355) can0 7E8#03410D0000000000
(1752240942.063007) can0 7DF#02010C0000000000
(1752240942.066336) can0 7E8#04410C0000000000
(1752240942.083006) can0 7DF#02010D0000000000
(1752240942.086309) can0 7E8#03410D0000000000
(1752240942.102981) can0 7DF#02010C0000000000
(1752240942.106326) can0 7E8#04410C0000000000
(1752240942.122997) can0 7DF#02010D0000000000
(1752240942.126333) can0 7E8#03410D0000000000
(1752240942.142997) can0 7DF#02010C0000000000
(1752240942.146203) can0 7E8#04410C0000000000
(1752240942.150015) can0 17F00010#2010000000000000
(1752240942.163046) can0 7DF#02010D0000000000
(1752240942.166332) can0 7E8#03410D0000000000
(1752240942.183018) can0 7DF#02010C0000000000
(1752240942.186357) can0 7E8#04410C0000000000
(1752240942.203043) can0 7DF#02010D0000000000
(1752240942.206356) can0 7E8#03410D0000000000
(1752240942.223101) can0 7DF#02010C0000000000
(1752240942.226114) can0 7E8#04410C0000000000
(1752240942.243000) can0 7DF#02010D0000000000
(1752240942.246325) can0 7E8#03410D0000000000
(1752240942.262856) can0 7DF#02010C0000000000
(1752240942.266112) can0 7E8#04410C0000000000
(1752240942.282774) can0 7DF#02010D0000000000
(1752240942.286079) can0 7E8#03410D0000000000
(1752240942.302891) can0 7DF#02010C0000000000
(1752240942.306380) can0 7E8#04410C0000000000
(1752240942.322949) can0 7DF#02010D0000000000
(1752240942.326130) can0 7E8#03410D0000000000
(1752240942.342958) can0 7DF#02010C0000000000
(1752240942.346296) can0 7E8#04410C0000000000
(1752240942.362951) can0 7DF#02010D0000000000
(1752240942.366327) can0 7E8#03410D0000000000
(1752240942.382986) can0 7DF#02010C0000000000
(1752240942.386326) can0 7E8#04410C0000000000
(1752240942.402936) can0 7DF#02010D0000000000
(1752240942.406351) can0 7E8#03410D0000000000
(1752240942.423047) can0 7DF#02010C0000000000
(1752240942.426307) can0 7E8#04410C0000000000
(1752240942.442929) can0 7DF#02010D0000000000
(1752240942.446330) can0 7E8#03410D0000000000
(1752240942.462951) can0 7DF#02010C0000000000
(1752240942.466304) can0 7E8#04410C0000000000
(1752240942.483016) can0 7DF#02010D0000000000
(1752240942.486135) can0 7E8#03410D0000000000
(1752240942.502993) can0 7DF#02010C0000000000
(1752240942.506360) can0 7E8#04410C0000000000
(1752240942.522985) can0 7DF#02010D0000000000
(1752240942.526320) can0 7E8#03410D0000000000
(1752240942.542999) can0 7DF#02010C0000000000
(1752240942.546363) can0 7E8#04410C0000000000
(1752240942.563030) can0 7DF#02010D0000000000
(1752240942.566155) can0 7E8#03410D0000000000
(1752240942.582963) can0 7DF#02010C0000000000
(1752240942.586126) can0 7E8#04410C0000000000
(1752240942.602967) can0 7DF#02010D0000000000
(1752240942.606364) can0 7E8#03410D0000000000
(1752240942.622982) can0 7DF#02010C0000000000
(1752240942.626338) can0 7E8#04410C02DA000000
(1752240942.643095) can0 7DF#02010D0000000000
(1752240942.646326) can0 7E8#03410D0000000000
(1752240942.649929) can0 17F00010#2010000000000000
(1752240942.662852) can0 7DF#02010C0000000000
(1752240942.666333) can0 7E8#04410C02DA000000
(1752240942.682977) can0 7DF#02010D0000000000
(1752240942.686353) can0 7E8#03410D0000000000
(1752240942.702897) can0 7DF#02010C0000000000
(1752240942.706121) can0 7E8#04410C02DA000000
(1752240942.723002) can0 7DF#02010D0000000000
(1752240942.726173) can0 7E8#03410D0000000000
(1752240942.743070) can0 7DF#02010C0000000000
(1752240942.746345) can0 7E8#04410C02DA000000
(1752240942.763047) can0 7DF#02010D0000000000
(1752240942.766369) can0 7E8#03410D0000000000
(1752240942.783119) can0 7DF#02010C0000000000
(1752240942.786364) can0 7E8#04410C02DA000000
(1752240942.803026) can0 7DF#02010D0000000000
(1752240942.806364) can0 7E8#03410D0000000000
(1752240942.822989) can0 7DF#02010C0000000000
(1752240942.826333) can0 7E8#04410C0500000000
(1752240942.843033) can0 7DF#02010D0000000000
(1752240942.846363) can0 7E8#03410D0000000000
(1752240942.862973) can0 7DF#02010C0000000000
(1752240942.866325) can0 7E8#04410C0500000000
(1752240942.882877) can0 7DF#02010D0000000000
(1752240942.886339) can0 7E8#03410D0000000000
(1752240942.903086) can0 7DF#02010C0000000000
(1752240942.906332) can0 7E8#04410C0500000000
(1752240942.923081) can0 7DF#02010D0000000000
(1752240942.926143) can0 7E8#03410D0000000000
(1752240942.943049) can0 7DF#02010C0000000000
(1752240942.946434) can0 7E8#04410C0500000000
(1752240942.963102) can0 7DF#02010D0000000000
(1752240942.966449) can0 7E8#03410D0000000000
(1752240942.983085) can0 7DF#02010C0000000000
(1752240942.986345) can0 7E8#04410C0500000000
(1752240943.002924) can0 7DF#02010D0000000000
(1752240943.006351) can0 7E8#03410D0000000000
(1752240943.022996) can0 7DF#02010C0000000000
(1752240943.026335) can0 7E8#04410C0F42000000
(1752240943.043019) can0 7DF#02010D0000000000
(1752240943.046622) can0 7E8#03410D0000000000
(1752240943.063065) can0 7DF#02010C0000000000
(1752240943.066222) can0 7E8#04410C0F42000000
(1752240943.083019) can0 7DF#02010D0000000000
(1752240943.086197) can0 7E8#03410D0000000000
(1752240943.103089) can0 7DF#02010C0000000000
(1752240943.106189) can0 7E8#04410C0F42000000
(1752240943.123010) can0 7DF#02010D0000000000
(1752240943.126160) can0 7E8#03410D0000000000
(1752240943.142889) can0 7DF#02010C0000000000
(1752240943.146142) can0 7E8#04410C0F42000000
(1752240943.150217) can0 17F00010#2010000000000000
(1752240943.162940) can0 7DF#02010D0000000000
(1752240943.166363) can0 7E8#03410D0000000000
(1752240943.182973) can0 7DF#02010C0000000000
(1752240943.186199) can0 7E8#04410C0F42000000
(1752240943.202984) can0 7DF#02010D0000000000
(1752240943.206380) can0 7E8#03410D0000000000
(1752240943.223114) can0 7DF#02010C0000000000
(1752240943.226366) can0 7E8#04410C14E8000000
(1752240943.242990) can0 7DF#02010D0000000000
(1752240943.246387) can0 7E8#03410D0000000000
(1752240943.262845) can0 7DF#02010C0000000000
(1752240943.266364) can0 7E8#04410C14E8000000
(1752240943.282992) can0 7DF#02010D0000000000
(1752240943.286219) can0 7E8#03410D0000000000
(1752240943.302865) can0 7DF#02010C0000000000
(1752240943.306350) can0 7E8#04410C14E8000000
(1752240943.323026) can0 7DF#02010D0000000000
(1752240943.326180) can0 7E8#03410D0000000000
(1752240943.343016) can0 7DF#02010C0000000000
(1752240943.346143) can0 7E8#04410C14E8000000
(1752240943.363075) can0 7DF#02010D0000000000
(1752240943.366355) can0 7E8#03410D0000000000
(1752240943.383042) can0 7DF#02010C0000000000
(1752240943.386345) can0 7E8#04410C14E8000000
(1752240943.402981) can0 7DF#02010D0000000000
(1752240943.406364) can0 7E8#03410D0000000000
(1752240943.423034) can0 7DF#02010C0000000000
(1752240943.426365) can0 7E8#04410C1718000000
(1752240943.442920) can0 7DF#02010D0000000000
(1752240943.446389) can0 7E8#03410D0000000000
(1752240943.463027) can0 7DF#02010C0000000000
(1752240943.466166) can0 7E8#04410C1718000000
(1752240943.483050) can0 7DF#02010D0000000000
(1752240943.486351) can0 7E8#03410D0000000000
(1752240943.502970) can0 7DF#02010C0000000000
(1752240943.506379) can0 7E8#04410C1718000000
(1752240943.523007) can0 7DF#02010D0000000000
(1752240943.526175) can0 7E8#03410D0000000000
(1752240943.543072) can0 7DF#02010C0000000000
(1752240943.546367) can0 7E8#04410C1718000000
(1752240943.562972) can0 7DF#02010D0000000000
(1752240943.566207) can0 7E8#03410D0000000000
(1752240943.583024) can0 7DF#02010C0000000000
(1752240943.586549) can0 7E8#04410C1718000000
(1752240943.602938) can0 7DF#02010D0000000000
(1752240943.606470) can0 7E8#03410D0000000000
(1752240943.622986) can0 7DF#02010C0000000000
(1752240943.626398) can0 7E8#04410C1730000000
(1752240943.643090) can0 7DF#02010D0000000000
(1752240943.646550) can0 7E8#03410D0000000000
(1752240943.650022) can0 17F00010#2010000000000000
(1752240943.662890) can0 7DF#02010C0000000000
(1752240943.666548) can0 7E8#04410C1730000000
(1752240943.682826) can0 7DF#02010D0000000000
(1752240943.686241) can0 7E8#03410D0000000000
(1752240943.703165) can0 7DF#02010C0000000000
(1752240943.706458) can0 7E8#04410C1730000000
(1752240943.723101) can0 7DF#02010D0000000000
(1752240943.726271) can0 7E8#03410D0000000000
(1752240943.742962) can0 7DF#02010C0000000000
(1752240943.746371) can0 7E8#04410C1730000000
(1752240943.762916) can0 7DF#02010D0000000000
(1752240943.766390) can0 7E8#03410D0000000000
(1752240943.783002) can0 7DF#02010C0000000000
(1752240943.786349) can0 7E8#04410C1730000000
(1752240943.803000) can0 7DF#02010D0000000000
(1752240943.806390) can0 7E8#03410D0000000000
(1752240943.823031) can0 7DF#02010C0000000000
(1752240943.826304) can0 7E8#04410C15D0000000
(1752240943.843000) can0 7DF#02010D0000000000
(1752240943.846360) can0 7E8#03410D0000000000
(1752240943.862964) can0 7DF#02010C0000000000
(1752240943.866440) can0 7E8#04410C15D0000000
(1752240943.883099) can0 7DF#02010D0000000000
(1752240943.886359) can0 7E8#03410D0000000000
(1752240943.902966) can0 7DF#02010C0000000000
(1752240943.906288) can0 7E8#04410C15D0000000
(1752240943.922981) can0 7DF#02010D0000000000
(1752240943.926238) can0 7E8#03410D0000000000
(1752240943.943062) can0 7DF#02010C0000000000
(1752240943.946415) can0 7E8#04410C15D0000000
(1752240943.963077) can0 7DF#02010D0000000000
(1752240943.966181) can0 7E8#03410D0000000000
(1752240943.983073) can0 7DF#02010C0000000000
(1752240943.986417) can0 7E8#04410C15D0000000
(1752240944.003021) can0 7DF#02010D0000000000
(1752240944.006425) can0 7E8#03410D0000000000
(1752240944.023006) can0 7DF#02010C0000000000
(1752240944.026452) can0 7E8#04410C14FE000000
(1752240944.043024) can0 7DF#02010D0000000000
(1752240944.046496) can0 7E8#03410D0000000000
(1752240944.063020) can0 7DF#02010C0000000000
(1752240944.066351) can0 7E8#04410C14FE000000
(1752240944.082940) can0 7DF#02010D0000000000
(1752240944.086335) can0 7E8#03410D0000000000
(1752240944.102888) can0 7DF#02010C0000000000
(1752240944.106137) can0 7E8#04410C14FE000000
(1752240944.123139) can0 7DF#02010D0000000000
(1752240944.126170) can0 7E8#03410D0000000000
(1752240944.143005) can0 7DF#02010C0000000000
(1752240944.146331) can0 7E8#04410C14FE000000
(1752240944.150145) can0 17F00010#2010000000000000
(1752240944.163052) can0 7DF#02010D0000000000
(1752240944.166385) can0 7E8#03410D0000000000
(1752240944.183075) can0 7DF#02010C0000000000
(1752240944.186423) can0 7E8#04410C14FE000000
(1752240944.203067) can0 7DF#02010D0000000000
(1752240944.206367) can0 7E8#03410D0000000000
(1752240944.222935) can0 7DF#02010C0000000000
(1752240944.226393) can0 7E8#04410C13FC000000
(1752240944.242898) can0 7DF#02010D0000000000
(1752240944.246263) can0 7E8#03410D0000000000
(1752240944.262931) can0 7DF#02010C0000000000
(1752240944.266257) can0 7E8#04410C13FC000000
(1752240944.283003) can0 7DF#02010D0000000000
(1752240944.286244) can0 7E8#03410D0000000000
(1752240944.303024) can0 7DF#02010C0000000000
(1752240944.306217) can0 7E8#04410C13FC000000
(1752240944.323009) can0 7DF#02010D0000000000
(1752240944.326143) can0 7E8#03410D0000000000
(1752240944.342928) can0 7DF#02010C0000000000
(1752240944.346356) can0 7E8#04410C13FC000000
(1752240944.363069) can0 7DF#02010D0000000000
(1752240944.366363) can0 7E8#03410D0000000000
(1752240944.383048) can0 7DF#02010C0000000000
(1752240944.386479) can0 7E8#04410C13FC000000
(1752240944.403070) can0 7DF#02010D0000000000
(1752240944.406348) can0 7E8#03410D0000000000
(1752240944.422997) can0 7DF#02010C0000000000
(1752240944.426327) can0 7E8#04410C1314000000
(1752240944.442957) can0 7DF#02010D0000000000
(1752240944.446366) can0 7E8#03410D0000000000
(1752240944.463033) can0 7DF#02010C0000000000
(1752240944.466193) can0 7E8#04410C1314000000
(1752240944.482989) can0 7DF#02010D0000000000
(1752240944.486488) can0 7E8#03410D0000000000
(1752240944.502953) can0 7DF#02010C0000000000
(1752240944.506402) can0 7E8#04410C1314000000
(1752240944.522995) can0 7DF#02010D0000000000
(1752240944.526402) can0 7E8#03410D0000000000
(1752240944.543036) can0 7DF#02010C0000000000
(1752240944.546389) can0 7E8#04410C1314000000
(1752240944.563043) can0 7DF#02010D0000000000
(1752240944.566469) can0 7E8#03410D0000000000
(1752240944.582950) can0 7DF#02010C0000000000
(1752240944.586413) can0 7E8#04410C1314000000
(1752240944.603007) can0 7DF#02010D0000000000
(1752240944.607019) can0 7E8#03410D0000000000
(1752240944.622974) can0 7DF#02010C0000000000
(1752240944.626336) can0 7E8#04410C1246000000
(1752240944.643017) can0 7DF#02010D0000000000
(1752240944.646189) can0 7E8#03410D0000000000
(1752240944.649962) can0 17F00010#2010000000000000
(1752240944.662721) can0 7DF#02010C0000000000
(1752240944.666326) can0 7E8#04410C1246000000
(1752240944.682951) can0 7DF#02010D0000000000
(1752240944.686154) can0 7E8#03410D0000000000
(1752240944.703068) can0 7DF#02010C0000000000
(1752240944.706383) can0 7E8#04410C1246000000
(1752240944.723157) can0 7DF#02010D0000000000
(1752240944.726530) can0 7E8#03410D0000000000
(1752240944.742953) can0 7DF#02010C0000000000
(1752240944.746382) can0 7E8#04410C1246000000
(1752240944.763055) can0 7DF#02010D0000000000
(1752240944.766427) can0 7E8#03410D0000000000
(1752240944.783008) can0 7DF#02010C0000000000
(1752240944.786454) can0 7E8#04410C1246000000
(1752240944.802988) can0 7DF#02010D0000000000
(1752240944.806417) can0 7E8#03410D0000000000
(1752240944.823012) can0 7DF#02010C0000000000
(1752240944.826428) can0 7E8#04410C11CE000000
(1752240944.843020) can0 7DF#02010D0000000000
(1752240944.846456) can0 7E8#03410D0000000000
(1752240944.863053) can0 7DF#02010C0000000000
(1752240944.866215) can0 7E8#04410C11CE000000
(1752240944.882983) can0 7DF#02010D0000000000
(1752240944.886351) can0 7E8#03410D0000000000
(1752240944.903040) can0 7DF#02010C0000000000
(1752240944.906351) can0 7E8#04410C11CE000000
(1752240944.923064) can0 7DF#02010D0000000000
(1752240944.926208) can0 7E8#03410D0000000000
(1752240944.943025) can0 7DF#02010C0000000000
(1752240944.946325) can0 7E8#04410C11CE000000
(1752240944.963060) can0 7DF#02010D0000000000
(1752240944.966330) can0 7E8#03410D0000000000
(1752240944.983037) can0 7DF#02010C0000000000
(1752240944.986384) can0 7E8#04410C11CE000000
(1752240945.002992) can0 7DF#02010D0000000000
(1752240945.006384) can0 7E8#03410D0000000000
(1752240945.022988) can0 7DF#02010C0000000000
(1752240945.026367) can0 7E8#04410C1116000000
(1752240945.042956) can0 7DF#02010D0000000000
(1752240945.046225) can0 7E8#03410D0000000000
(1752240945.063042) can0 7DF#02010C0000000000
(1752240945.066199) can0 7E8#04410C1116000000
(1752240945.082851) can0 7DF#02010D0000000000
(1752240945.086312) can0 7E8#03410D0000000000
(1752240945.103013) can0 7DF#02010C0000000000
(1752240945.106335) can0 7E8#04410C1116000000
(1752240945.123063) can0 7DF#02010D0000000000
(1752240945.126415) can0 7E8#03410D0000000000
(1752240945.143028) can0 7DF#02010C0000000000
(1752240945.146173) can0 7E8#04410C1116000000
(1752240945.150046) can0 17F00010#2010000000000000
(1752240945.163034) can0 7DF#02010D0000000000
(1752240945.166346) can0 7E8#03410D0000000000
(1752240945.183028) can0 7DF#02010C0000000000
(1752240945.186340) can0 7E8#04410C1116000000
(1752240945.203030) can0 7DF#02010D0000000000
(1752240945.206143) can0 7E8#03410D0000000000
(1752240945.222758) can0 7DF#02010C0000000000
(1752240945.226325) can0 7E8#04410C1074000000
(1752240945.243028) can0 7DF#02010D0000000000
(1752240945.246393) can0 7E8#03410D0000000000
(1752240945.262958) can0 7DF#02010C0000000000
(1752240945.266384) can0 7E8#04410C1074000000
(1752240945.283009) can0 7DF#02010D0000000000
(1752240945.286391) can0 7E8#03410D0000000000
(1752240945.302862) can0 7DF#02010C0000000000
(1752240945.306167) can0 7E8#04410C1074000000
(1752240945.322764) can0 7DF#02010D0000000000
(1752240945.326228) can0 7E8#03410D0000000000
(1752240945.343042) can0 7DF#02010C0000000000
(1752240945.346451) can0 7E8#04410C1074000000
(1752240945.362866) can0 7DF#02010D0000000000
(1752240945.366330) can0 7E8#03410D0000000000
(1752240945.383121) can0 7DF#02010C0000000000
(1752240945.386338) can0 7E8#04410C1074000000
(1752240945.403081) can0 7DF#02010D0000000000
(1752240945.406347) can0 7E8#03410D0000000000
(1752240945.423112) can0 7DF#02010C0000000000
(1752240945.426314) can0 7E8#04410C0FF6000000
(1752240945.443107) can0 7DF#02010D0000000000
(1752240945.446513) can0 7E8#03410D0000000000
(1752240945.462982) can0 7DF#02010C0000000000
(1752240945.466527) can0 7E8#04410C0FF6000000
(1752240945.482973) can0 7DF#02010D0000000000
(1752240945.486438) can0 7E8#03410D0000000000
(1752240945.502840) can0 7DF#02010C0000000000
(1752240945.506271) can0 7E8#04410C0FF6000000
(1752240945.523049) can0 7DF#02010D0000000000
(1752240945.526325) can0 7E8#03410D0000000000
(1752240945.542972) can0 7DF#02010C0000000000
(1752240945.546337) can0 7E8#04410C0FF6000000
(1752240945.563017) can0 7DF#02010D0000000000
(1752240945.566672) can0 7E8#03410D0000000000
(1752240945.582927) can0 7DF#02010C0000000000
(1752240945.586381) can0 7E8#04410C0FF6000000
(1752240945.603217) can0 7DF#02010D0000000000
(1752240945.606457) can0 7E8#03410D0000000000
(1752240945.623027) can0 7DF#02010C0000000000
(1752240945.626380) can0 7E8#04410C10AC000000
(1752240945.643031) can0 7DF#02010D0000000000
(1752240945.646509) can0 7E8#03410D0000000000
(1752240945.650162) can0 17F00010#2010000000000000
(1752240945.662914) can0 7DF#02010C0000000000
(1752240945.666852) can0 7E8#04410C10AC000000
(1752240945.683029) can0 7DF#02010D0000000000
(1752240945.686385) can0 7E8#03410D0000000000
(1752240945.702957) can0 7DF#02010C0000000000
(1752240945.706350) can0 7E8#04410C10AC000000
(1752240945.722997) can0 7DF#02010D0000000000
(1752240945.726265) can0 7E8#03410D0000000000
(1752240945.743078) can0 7DF#02010C0000000000
(1752240945.746341) can0 7E8#04410C10AC000000
(1752240945.763024) can0 7DF#02010D0000000000
(1752240945.766258) can0 7E8#03410D0000000000
(1752240945.782989) can0 7DF#02010C0000000000
(1752240945.786656) can0 7E8#04410C10AC000000
(1752240945.802989) can0 7DF#02010D0000000000
(1752240945.806323) can0 7E8#03410D0000000000
(1752240945.823034) can0 7DF#02010C0000000000
(1752240945.826232) can0 7E8#04410C15B0000000
(1752240945.843024) can0 7DF#02010D0000000000
(1752240945.846260) can0 7E8#03410D0000000000
(1752240945.863080) can0 7DF#02010C0000000000
(1752240945.866309) can0 7E8#04410C15B0000000
(1752240945.883005) can0 7DF#02010D0000000000
(1752240945.886230) can0 7E8#03410D0000000000
(1752240945.903012) can0 7DF#02010C0000000000
(1752240945.906265) can0 7E8#04410C15B0000000
(1752240945.922967) can0 7DF#02010D0000000000
(1752240945.926788) can0 7E8#03410D0000000000
(1752240945.943002) can0 7DF#02010C0000000000
(1752240945.946317) can0 7E8#04410C15B0000000
(1752240945.963155) can0 7DF#02010D0000000000
(1752240945.966504) can0 7E8#03410D0000000000
(1752240945.982904) can0 7DF#02010C0000000000
(1752240945.986458) can0 7E8#04410C15B0000000
(1752240946.003104) can0 7DF#02010D0000000000
(1752240946.006504) can0 7E8#03410D0000000000
(1752240946.022863) can0 7DF#02010C0000000000
(1752240946.026452) can0 7E8#04410C1E2A000000
(1752240946.043067) can0 7DF#02010D0000000000
(1752240946.046436) can0 7E8#03410D0000000000
(1752240946.062851) can0 7DF#02010C0000000000
(1752240946.066293) can0 7E8#04410C1E2A000000
(1752240946.083065) can0 7DF#02010D0000000000
(1752240946.086236) can0 7E8#03410D0000000000
(1752240946.103050) can0 7DF#02010C0000000000
(1752240946.106411) can0 7E8#04410C1E2A000000
(1752240946.122940) can0 7DF#02010D0000000000
(1752240946.126515) can0 7E8#03410D0000000000
(1752240946.143105) can0 7DF#02010C0000000000
(1752240946.146507) can0 7E8#04410C1E2A000000
(1752240946.150012) can0 17F00010#2010000000000000
(1752240946.163004) can0 7DF#02010D0000000000
(1752240946.167027) can0 7E8#03410D0000000000
(1752240946.183050) can0 7DF#02010C0000000000
(1752240946.186520) can0 7E8#04410C1E2A000000
(1752240946.203061) can0 7DF#02010D0000000000
(1752240946.206441) can0 7E8#03410D0000000000
(1752240946.223001) can0 7DF#02010C0000000000
(1752240946.226441) can0 7E8#04410C223C000000
(1752240946.243017) can0 7DF#02010D0000000000
(1752240946.246439) can0 7E8#03410D0000000000
(1752240946.262879) can0 7DF#02010C0000000000
(1752240946.266755) can0 7E8#04410C223C000000
(1752240946.282931) can0 7DF#02010D0000000000
(1752240946.286792) can0 7E8#03410D0000000000
(1752240946.303092) can0 7DF#02010C0000000000
(1752240946.306326) can0 7E8#04410C223C000000
(1752240946.323059) can0 7DF#02010D0000000000
(1752240946.326315) can0 7E8#03410D0000000000
(1752240946.342968) can0 7DF#02010C0000000000
(1752240946.346511) can0 7E8#04410C223C000000
(1752240946.362987) can0 7DF#02010D0000000000
(1752240946.366979) can0 7E8#03410D0000000000
(1752240946.383000) can0 7DF#02010C0000000000
(1752240946.386316) can0 7E8#04410C223C000000
(1752240946.403044) can0 7DF#02010D0000000000
(1752240946.406494) can0 7E8#03410D0000000000
(1752240946.423015) can0 7DF#02010C0000000000
(1752240946.426418) can0 7E8#04410C2298000000
(1752240946.443002) can0 7DF#02010D0000000000
(1752240946.446462) can0 7E8#03410D0000000000
(1752240946.463049) can0 7DF#02010C0000000000
(1752240946.466740) can0 7E8#04410C2298000000
(1752240946.482866) can0 7DF#02010D0000000000
(1752240946.486486) can0 7E8#03410D0000000000
(1752240946.503070) can0 7DF#02010C0000000000
(1752240946.506591) can0 7E8#04410C2298000000
(1752240946.523050) can0 7DF#02010D0000000000
(1752240946.526432) can0 7E8#03410D0000000000
(1752240946.543065) can0 7DF#02010C0000000000
(1752240946.546336) can0 7E8#04410C2298000000
(1752240946.563076) can0 7DF#02010D0000000000
(1752240946.566523) can0 7E8#03410D0000000000
(1752240946.582987) can0 7DF#02010C0000000000
(1752240946.586235) can0 7E8#04410C2298000000
(1752240946.602967) can0 7DF#02010D0000000000
(1752240946.606232) can0 7E8#03410D0000000000
(1752240946.622835) can0 7DF#02010C0000000000
(1752240946.626709) can0 7E8#04410C2244000000
(1752240946.642961) can0 7DF#02010D0000000000
(1752240946.646708) can0 7E8#03410D0000000000
(1752240946.650084) can0 17F00010#2010000000000000
(1752240946.663026) can0 7DF#02010C0000000000
(1752240946.666694) can0 7E8#04410C2244000000
(1752240946.682973) can0 7DF#02010D0000000000
(1752240946.686689) can0 7E8#03410D0000000000
(1752240946.703042) can0 7DF#02010C0000000000
(1752240946.706305) can0 7E8#04410C2244000000
(1752240946.722989) can0 7DF#02010D0000000000
(1752240946.726705) can0 7E8#03410D0000000000
(1752240946.743124) can0 7DF#02010C0000000000
(1752240946.746498) can0 7E8#04410C2244000000
(1752240946.763054) can0 7DF#02010D0000000000
(1752240946.766493) can0 7E8#03410D0000000000
(1752240946.782978) can0 7DF#02010C0000000000
(1752240946.786439) can0 7E8#04410C2244000000
(1752240946.802974) can0 7DF#02010D0000000000
(1752240946.806730) can0 7E8#03410D0000000000
(1752240946.822961) can0 7DF#02010C0000000000
(1752240946.826481) can0 7E8#04410C20EC000000
(1752240946.843083) can0 7DF#02010D0000000000
(1752240946.846704) can0 7E8#03410D0000000000
(1752240946.862991) can0 7DF#02010C0000000000
(1752240946.866703) can0 7E8#04410C20EC000000
(1752240946.883006) can0 7DF#02010D0000000000
(1752240946.886505) can0 7E8#03410D0000000000
(1752240946.902817) can0 7DF#02010C0000000000
(1752240946.906490) can0 7E8#04410C20EC000000
(1752240946.923006) can0 7DF#02010D0000000000
(1752240946.926241) can0 7E8#03410D0100000000
(1752240946.943090) can0 7DF#02010C0000000000
(1752240946.946712) can0 7E8#04410C20EC000000
(1752240946.962892) can0 7DF#02010D0000000000
(1752240946.966672) can0 7E8#03410D0100000000
(1752240946.982896) can0 7DF#02010C0000000000
(1752240946.986464) can0 7E8#04410C20EC000000
(1752240947.003111) can0 7DF#02010D0000000000
(1752240947.006886) can0 7E8#03410D0100000000
(1752240947.023150) can0 7DF#02010C0000000000
(1752240947.026261) can0 7E8#04410C1DAA000000
(1752240947.043025) can0 7DF#02010D0000000000
(1752240947.046336) can0 7E8#03410D0100000000
(1752240947.062901) can0 7DF#02010C0000000000
(1752240947.066366) can0 7E8#04410C1DAA000000
(1752240947.083006) can0 7DF#02010D0000000000
(1752240947.086154) can0 7E8#03410D0100000000
(1752240947.103033) can0 7DF#02010C0000000000
(1752240947.106364) can0 7E8#04410C1DAA000000
(1752240947.122959) can0 7DF#02010D0000000000
(1752240947.127019) can0 7E8#03410D0200000000
(1752240947.143155) can0 7DF#02010C0000000000
(1752240947.146387) can0 7E8#04410C1DAA000000
(1752240947.150029) can0 17F00010#2010000000000000
(1752240947.163026) can0 7DF#02010D0000000000
(1752240947.166376) can0 7E8#03410D0200000000
(1752240947.182965) can0 7DF#02010C0000000000
(1752240947.186354) can0 7E8#04410C1DAA000000
(1752240947.203048) can0 7DF#02010D0000000000
(1752240947.206167) can0 7E8#03410D0200000000
(1752240947.223061) can0 7DF#02010C0000000000
(1752240947.226354) can0 7E8#04410C1AA8000000
(1752240947.242921) can0 7DF#02010D0000000000
(1752240947.246345) can0 7E8#03410D0200000000
(1752240947.262982) can0 7DF#02010C0000000000
(1752240947.266155) can0 7E8#04410C1AA8000000
(1752240947.283060) can0 7DF#02010D0000000000
(1752240947.286370) can0 7E8#03410D0200000000
(1752240947.303025) can0 7DF#02010C0000000000
(1752240947.306356) can0 7E8#04410C1AA8000000
(1752240947.322921) can0 7DF#02010D0000000000
(1752240947.326303) can0 7E8#03410D0200000000
(1752240947.343006) can0 7DF#02010C0000000000
(1752240947.346633) can0 7E8#04410C1AA8000000
(1752240947.363006) can0 7DF#02010D0000000000
(1752240947.366344) can0 7E8#03410D0300000000
(1752240947.382959) can0 7DF#02010C0000000000
(1752240947.386908) can0 7E8#04410C1AA8000000
(1752240947.403000) can0 7DF#02010D0000000000
(1752240947.406160) can0 7E8#03410D0300000000
(1752240947.422978) can0 7DF#02010C0000000000
(1752240947.426154) can0 7E8#04410C1A00000000
(1752240947.442969) can0 7DF#02010D0000000000
(1752240947.446436) can0 7E8#03410D0300000000
(1752240947.462920) can0 7DF#02010C0000000000
(1752240947.466395) can0 7E8#04410C1A00000000
(1752240947.482936) can0 7DF#02010D0000000000
(1752240947.486390) can0 7E8#03410D0300000000
(1752240947.503074) can0 7DF#02010C0000000000
(1752240947.506150) can0 7E8#04410C1A00000000
(1752240947.523063) can0 7DF#02010D0000000000
(1752240947.526632) can0 7E8#03410D0300000000
(1752240947.543010) can0 7DF#02010C0000000000
(1752240947.546595) can0 7E8#04410C1A00000000
(1752240947.563093) can0 7DF#02010D0000000000
(1752240947.566592) can0 7E8#03410D0400000000
(1752240947.583074) can0 7DF#02010C0000000000
(1752240947.586620) can0 7E8#04410C1A00000000
(1752240947.602849) can0 7DF#02010D0000000000
(1752240947.606378) can0 7E8#03410D0400000000
(1752240947.623034) can0 7DF#02010C0000000000
(1752240947.626588) can0 7E8#04410C1BF6000000
(1752240947.642991) can0 7DF#02010D0000000000
(1752240947.646606) can0 7E8#03410D0400000000
(1752240947.650048) can0 17F00010#2010000000000000
(1752240947.662995) can0 7DF#02010C0000000000
(1752240947.666578) can0 7E8#04410C1BF6000000
(1752240947.683069) can0 7DF#02010D0000000000
(1752240947.686587) can0 7E8#03410D0400000000
(1752240947.703168) can0 7DF#02010C0000000000
(1752240947.706576) can0 7E8#04410C1BF6000000
(1752240947.722993) can0 7DF#02010D0000000000
(1752240947.726284) can0 7E8#03410D0400000000
(1752240947.742879) can0 7DF#02010C0000000000
(1752240947.746571) can0 7E8#04410C1BF6000000
(1752240947.762962) can0 7DF#02010D0000000000
(1752240947.766629) can0 7E8#03410D0500000000
(1752240947.783014) can0 7DF#02010C0000000000
(1752240947.786605) can0 7E8#04410C1BF6000000
(1752240947.803024) can0 7DF#02010D0000000000
(1752240947.806846) can0 7E8#03410D0500000000
(1752240947.822928) can0 7DF#02010C0000000000
(1752240947.826359) can0 7E8#04410C1CE4000000
(1752240947.843130) can0 7DF#02010D0000000000
(1752240947.846350) can0 7E8#03410D0500000000
(1752240947.863035) can0 7DF#02010C0000000000
(1752240947.866564) can0 7E8#04410C1CE4000000
(1752240947.882884) can0 7DF#02010D0000000000
(1752240947.886584) can0 7E8#03410D0500000000
(1752240947.902960) can0 7DF#02010C0000000000
(1752240947.906392) can0 7E8#04410C1CE4000000
(1752240947.923059) can0 7DF#02010D0000000000
(1752240947.926528) can0 7E8#03410D0500000000
(1752240947.943030) can0 7DF#02010C0000000000
(1752240947.946584) can0 7E8#04410C1CE4000000
(1752240947.963116) can0 7DF#02010D0000000000
(1752240947.966439) can0 7E8#03410D0500000000
(1752240947.983045) can0 7DF#02010C0000000000
(1752240947.986669) can0 7E8#04410C1CE4000000
(1752240948.002932) can0 7DF#02010D0000000000
(1752240948.006545) can0 7E8#03410D0600000000
(1752240948.022969) can0 7DF#02010C0000000000
(1752240948.026543) can0 7E8#04410C1CF0000000
(1752240948.043072) can0 7DF#02010D0000000000
(1752240948.046558) can0 7E8#03410D0600000000
(1752240948.063020) can0 7DF#02010C0000000000
(1752240948.066526) can0 7E8#04410C1CF0000000
(1752240948.083017) can0 7DF#02010D0000000000
(1752240948.086536) can0 7E8#03410D0600000000
(1752240948.102986) can0 7DF#02010C0000000000
(1752240948.106279) can0 7E8#04410C1CF0000000
(1752240948.123013) can0 7DF#02010D0000000000
(1752240948.126534) can0 7E8#03410D0600000000
(1752240948.143110) can0 7DF#02010C0000000000
(1752240948.146495) can0 7E8#04410C1CF0000000
(1752240948.150006) can0 17F00010#2010000000000000
(1752240948.163055) can0 7DF#02010D0000000000
(1752240948.166527) can0 7E8#03410D0600000000
(1752240948.183049) can0 7DF#02010C0000000000
(1752240948.186821) can0 7E8#04410C1CF0000000
(1752240948.203021) can0 7DF#02010D0000000000
(1752240948.206480) can0 7E8#03410D0700000000
(1752240948.223014) can0 7DF#02010C0000000000
(1752240948.226477) can0 7E8#04410C1BAE000000
(1752240948.243019) can0 7DF#02010D0000000000
(1752240948.246280) can0 7E8#03410D0700000000
(1752240948.263059) can0 7DF#02010C0000000000
(1752240948.266328) can0 7E8#04410C1BAE000000
(1752240948.282950) can0 7DF#02010D0000000000
(1752240948.286298) can0 7E8#03410D0700000000
(1752240948.302811) can0 7DF#02010C0000000000
(1752240948.306172) can0 7E8#04410C1BAE000000
(1752240948.322884) can0 7DF#02010D0000000000
(1752240948.326301) can0 7E8#03410D0700000000
(1752240948.343022) can0 7DF#02010C0000000000
(1752240948.346301) can0 7E8#04410C1BAE000000
(1752240948.362994) can0 7DF#02010D0000000000
(1752240948.366490) can0 7E8#03410D0700000000
(1752240948.383015) can0 7DF#02010C0000000000
(1752240948.386825) can0 7E8#04410C1BAE000000
(1752240948.402894) can0 7DF#02010D0000000000
(1752240948.406472) can0 7E8#03410D0800000000
(1752240948.422993) can0 7DF#02010C0000000000
(1752240948.426842) can0 7E8#04410C1B5E000000
(1752240948.442801) can0 7DF#02010D0000000000
(1752240948.446282) can0 7E8#03410D0800000000
(1752240948.463047) can0 7DF#02010C0000000000
(1752240948.466300) can0 7E8#04410C1B5E000000
(1752240948.483041) can0 7DF#02010D0000000000
(1752240948.486298) can0 7E8#03410D0800000000
(1752240948.503042) can0 7DF#02010C0000000000
(1752240948.506284) can0 7E8#04410C1B5E000000
(1752240948.522830) can0 7DF#02010D0000000000
(1752240948.526285) can0 7E8#03410D0800000000
(1752240948.542976) can0 7DF#02010C0000000000
(1752240948.546296) can0 7E8#04410C1B5E000000
(1752240948.563026) can0 7DF#02010D0000000000
(1752240948.566742) can0 7E8#03410D0800000000
(1752240948.583051) can0 7DF#02010C0000000000
(1752240948.586475) can0 7E8#04410C1B5E000000
(1752240948.602993) can0 7DF#02010D0000000000
(1752240948.606481) can0 7E8#03410D0800000000
(1752240948.623010) can0 7DF#02010C0000000000
(1752240948.626492) can0 7E8#04410C19E0000000
(1752240948.643047) can0 7DF#02010D0000000000
(1752240948.646431) can0 7E8#03410D0900000000
(1752240948.649950) can0 17F00010#2010000000000000
(1752240948.663082) can0 7DF#02010C0000000000
(1752240948.666469) can0 7E8#04410C19E0000000
(1752240948.683153) can0 7DF#02010D0000000000
(1752240948.686389) can0 7E8#03410D0900000000
(1752240948.702897) can0 7DF#02010C0000000000
(1752240948.706353) can0 7E8#04410C19E0000000
(1752240948.722883) can0 7DF#02010D0000000000
(1752240948.726380) can0 7E8#03410D0900000000
(1752240948.743079) can0 7DF#02010C0000000000
(1752240948.746333) can0 7E8#04410C19E0000000
(1752240948.762876) can0 7DF#02010D0000000000
(1752240948.766501) can0 7E8#03410D0900000000
(1752240948.783019) can0 7DF#02010C0000000000
(1752240948.786277) can0 7E8#04410C19E0000000
(1752240948.802818) can0 7DF#02010D0000000000
(1752240948.806270) can0 7E8#03410D0900000000
(1752240948.822887) can0 7DF#02010C0000000000
(1752240948.826460) can0 7E8#04410C160C000000
(1752240948.842987) can0 7DF#02010D0000000000
(1752240948.846645) can0 7E8#03410D0900000000
(1752240948.862852) can0 7DF#02010C0000000000
(1752240948.866267) can0 7E8#04410C160C000000
(1752240948.883002) can0 7DF#02010D0000000000
(1752240948.886468) can0 7E8#03410D0900000000
(1752240948.903805) can0 7DF#02010C0000000000
(1752240948.906380) can0 7E8#04410C160C000000
(1752240948.923013) can0 7DF#02010D0000000000
(1752240948.926470) can0 7E8#03410D0A00000000
(1752240948.943057) can0 7DF#02010C0000000000
(1752240948.946403) can0 7E8#04410C160C000000
(1752240948.963078) can0 7DF#02010D0000000000
(1752240948.966329) can0 7E8#03410D0900000000
(1752240948.983136) can0 7DF#02010C0000000000
(1752240948.986328) can0 7E8#04410C160C000000
(1752240949.003004) can0 7DF#02010D0000000000
(1752240949.006329) can0 7E8#03410D0A00000000
(1752240949.023238) can0 7DF#02010C0000000000
(1752240949.026392) can0 7E8#04410C1862000000
(1752240949.042867) can0 7DF#02010D0000000000
(1752240949.046553) can0 7E8#03410D0900000000
(1752240949.062999) can0 7DF#02010C0000000000
(1752240949.066300) can0 7E8#04410C1862000000
(1752240949.083013) can0 7DF#02010D0000000000
(1752240949.086279) can0 7E8#03410D0A00000000
(1752240949.102986) can0 7DF#02010C0000000000
(1752240949.106277) can0 7E8#04410C1862000000
(1752240949.123061) can0 7DF#02010D0000000000
(1752240949.126477) can0 7E8#03410D0A00000000
(1752240949.142735) can0 7DF#02010C0000000000
(1752240949.146270) can0 7E8#04410C1862000000
(1752240949.150141) can0 17F00010#2010000000000000
(1752240949.162991) can0 7DF#02010D0000000000
(1752240949.166772) can0 7E8#03410D0A00000000
(1752240949.183000) can0 7DF#02010C0000000000
(1752240949.186471) can0 7E8#04410C1862000000
(1752240949.202910) can0 7DF#02010D0000000000
(1752240949.206457) can0 7E8#03410D0A00000000
(1752240949.222997) can0 7DF#02010C0000000000
(1752240949.226536) can0 7E8#04410C182C000000
(1752240949.242971) can0 7DF#02010D0000000000
(1752240949.246472) can0 7E8#03410D0A00000000
(1752240949.262947) can0 7DF#02010C0000000000
(1752240949.266480) can0 7E8#04410C182C000000
(1752240949.282786) can0 7DF#02010D0000000000
(1752240949.286274) can0 7E8#03410D0A00000000
(1752240949.303000) can0 7DF#02010C0000000000
(1752240949.306470) can0 7E8#04410C182C000000
(1752240949.323074) can0 7DF#02010D0000000000
(1752240949.326293) can0 7E8#03410D0A00000000
(1752240949.343100) can0 7DF#02010C0000000000
(1752240949.346474) can0 7E8#04410C182C000000
(1752240949.363046) can0 7DF#02010D0000000000
(1752240949.366479) can0 7E8#03410D0A00000000
(1752240949.383042) can0 7DF#02010C0000000000
(1752240949.386529) can0 7E8#04410C182C000000
(1752240949.402989) can0 7DF#02010D0000000000
(1752240949.406469) can0 7E8#03410D0A00000000
(1752240949.422826) can0 7DF#02010C0000000000
(1752240949.426264) can0 7E8#04410C178A000000
(1752240949.442853) can0 7DF#02010D0000000000
(1752240949.446467) can0 7E8#03410D0A00000000
(1752240949.462989) can0 7DF#02010C0000000000
(1752240949.466470) can0 7E8#04410C178A000000
(1752240949.483022) can0 7DF#02010D0000000000
(1752240949.486467) can0 7E8#03410D0A00000000
(1752240949.503117) can0 7DF#02010C0000000000
(1752240949.506483) can0 7E8#04410C178A000000
(1752240949.523037) can0 7DF#02010D0000000000
(1752240949.526356) can0 7E8#03410D0A00000000
(1752240949.543065) can0 7DF#02010C0000000000
(1752240949.546480) can0 7E8#04410C178A000000
(1752240949.562932) can0 7DF#02010D0000000000
(1752240949.566271) can0 7E8#03410D0A00000000
(1752240949.583015) can0 7DF#02010C0000000000
(1752240949.586605) can0 7E8#04410C178A000000
(1752240949.602975) can0 7DF#02010D0000000000
(1752240949.606477) can0 7E8#03410D0A00000000
(1752240949.622991) can0 7DF#02010C0000000000
(1752240949.626484) can0 7E8#04410C1650000000
(1752240949.642938) can0 7DF#02010D0000000000
(1752240949.646463) can0 7E8#03410D0A00000000
(1752240949.650026) can0 17F00010#2010000000000000
(1752240949.663083) can0 7DF#02010C0000000000
(1752240949.666469) can0 7E8#04410C1650000000
(1752240949.683017) can0 7DF#02010D0000000000
(1752240949.686468) can0 7E8#03410D0A00000000
(1752240949.702889) can0 7DF#02010C0000000000
(1752240949.706253) can0 7E8#04410C1650000000
(1752240949.723143) can0 7DF#02010D0000000000
(1752240949.726376) can0 7E8#03410D0A00000000
(1752240949.743066) can0 7DF#02010C0000000000
(1752240949.746517) can0 7E8#04410C1650000000
(1752240949.762989) can0 7DF#02010D0000000000
(1752240949.766461) can0 7E8#03410D0900000000
(1752240949.782985) can0 7DF#02010C0000000000
(1752240949.786455) can0 7E8#04410C1650000000
(1752240949.802899) can0 7DF#02010D0000000000
(1752240949.806504) can0 7E8#03410D0900000000
(1752240949.823000) can0 7DF#02010C0000000000
(1752240949.826686) can0 7E8#04410C14C2000000
(1752240949.842877) can0 7DF#02010D0000000000
(1752240949.846260) can0 7E8#03410D0900000000
(1752240949.862841) can0 7DF#02010C0000000000
(1752240949.866416) can0 7E8#04410C14C2000000
(1752240949.883028) can0 7DF#02010D0000000000
(1752240949.886466) can0 7E8#03410D0900000000
(1752240949.902891) can0 7DF#02010C0000000000
(1752240949.906469) can0 7E8#04410C14C2000000
(1752240949.923047) can0 7DF#02010D0000000000
(1752240949.926268) can0 7E8#03410D0900000000
(1752240949.943144) can0 7DF#02010C0000000000
(1752240949.946485) can0 7E8#04410C14C2000000
(1752240949.962998) can0 7DF#02010D0000000000
(1752240949.966504) can0 7E8#03410D0900000000
(1752240949.983007) can0 7DF#02010C0000000000
(1752240949.986447) can0 7E8#04410C14C2000000
(1752240950.002870) can0 7DF#02010D0000000000
(1752240950.006474) can0 7E8#03410D0900000000
(1752240950.022992) can0 7DF#02010C0000000000
(1752240950.026529) can0 7E8#04410C1354000000
(1752240950.043043) can0 7DF#02010D0000000000
(1752240950.046467) can0 7E8#03410D0900000000
(1752240950.063135) can0 7DF#02010C0000000000
(1752240950.066270) can0 7E8#04410C1354000000
(1752240950.082929) can0 7DF#02010D0000000000
(1752240950.086460) can0 7E8#03410D0900000000
(1752240950.103139) can0 7DF#02010C0000000000
(1752240950.106659) can0 7E8#04410C1354000000
(1752240950.122981) can0 7DF#02010D0000000000
(1752240950.126457) can0 7E8#03410D0900000000
(1752240950.143068) can0 7DF#02010C0000000000
(1752240950.146485) can0 7E8#04410C1354000000
(1752240950.150011) can0 17F00010#2010000000000000
(1752240950.162984) can0 7DF#02010D0000000000
(1752240950.166476) can0 7E8#03410D0900000000
(1752240950.183011) can0 7DF#02010C0000000000
(1752240950.186279) can0 7E8#04410C1354000000
(1752240950.203020) can0 7DF#02010D0000000000
(1752240950.206275) can0 7E8#03410D0900000000
(1752240950.223012) can0 7DF#02010C0000000000
(1752240950.226458) can0 7E8#04410C1168000000
(1752240950.243058) can0 7DF#02010D0000000000
(1752240950.246455) can0 7E8#03410D0900000000
(1752240950.262946) can0 7DF#02010C0000000000
(1752240950.266246) can0 7E8#04410C1168000000
(1752240950.282859) can0 7DF#02010D0000000000
(1752240950.286333) can0 7E8#03410D0900000000
(1752240950.303051) can0 7DF#02010C0000000000
(1752240950.306337) can0 7E8#04410C1168000000
(1752240950.323155) can0 7DF#02010D0000000000
(1752240950.326317) can0 7E8#03410D0900000000
(1752240950.343055) can0 7DF#02010C0000000000
(1752240950.346448) can0 7E8#04410C1168000000
(1752240950.363007) can0 7DF#02010D0000000000
(1752240950.366453) can0 7E8#03410D0900000000
(1752240950.382943) can0 7DF#02010C0000000000
(1752240950.386530) can0 7E8#04410C1168000000
(1752240950.402926) can0 7DF#02010D0000000000
(1752240950.406331) can0 7E8#03410D0800000000
(1752240950.422976) can0 7DF#02010C0000000000
(1752240950.426358) can0 7E8#04410C1020000000
(1752240950.442932) can0 7DF#02010D0000000000
(1752240950.446333) can0 7E8#03410D0800000000
(1752240950.463053) can0 7DF#02010C0000000000
(1752240950.466459) can0 7E8#04410C1020000000
(1752240950.482967) can0 7DF#02010D0000000000
(1752240950.486149) can0 7E8#03410D0800000000
(1752240950.503043) can0 7DF#02010C0000000000
(1752240950.506388) can0 7E8#04410C1020000000
(1752240950.522985) can0 7DF#02010D0000000000
(1752240950.526372) can0 7E8#03410D0800000000
(1752240950.543029) can0 7DF#02010C0000000000
(1752240950.546344) can0 7E8#04410C1020000000
(1752240950.563004) can0 7DF#02010D0000000000
(1752240950.566239) can0 7E8#03410D0800000000
(1752240950.583025) can0 7DF#02010C0000000000
(1752240950.586340) can0 7E8#04410C1020000000
(1752240950.603013) can0 7DF#02010D0000000000
(1752240950.606375) can0 7E8#03410D0800000000
(1752240950.622976) can0 7DF#02010C0000000000
(1752240950.626159) can0 7E8#04410C103E000000
(1752240950.642792) can0 7DF#02010D0000000000
(1752240950.646255) can0 7E8#03410D0800000000
(1752240950.649851) can0 17F00010#2010000000000000
(1752240950.663062) can0 7DF#02010C0000000000
(1752240950.666160) can0 7E8#04410C103E000000
(1752240950.682846) can0 7DF#02010D0000000000
(1752240950.686149) can0 7E8#03410D0700000000
(1752240950.703078) can0 7DF#02010C0000000000
(1752240950.706217) can0 7E8#04410C103E000000
(1752240950.723060) can0 7DF#02010D0000000000
(1752240950.726190) can0 7E8#03410D0700000000
(1752240950.743050) can0 7DF#02010C0000000000
(1752240950.746352) can0 7E8#04410C103E000000
(1752240950.763098) can0 7DF#02010D0000000000
(1752240950.766133) can0 7E8#03410D0700000000
(1752240950.782943) can0 7DF#02010C0000000000
(1752240950.786359) can0 7E8#04410C103E000000
(1752240950.803133) can0 7DF#02010D0000000000
(1752240950.806337) can0 7E8#03410D0700000000
(1752240950.822990) can0 7DF#02010C0000000000
(1752240950.826492) can0 7E8#04410C1020000000
(1752240950.842960) can0 7DF#02010D0000000000
(1752240950.846350) can0 7E8#03410D0700000000
(1752240950.863015) can0 7DF#02010C0000000000
(1752240950.866354) can0 7E8#04410C1020000000
(1752240950.883024) can0 7DF#02010D0000000000
(1752240950.886362) can0 7E8#03410D0700000000
(1752240950.903007) can0 7DF#02010C0000000000
(1752240950.906191) can0 7E8#04410C1020000000
(1752240950.923105) can0 7DF#02010D0000000000
(1752240950.926158) can0 7E8#03410D0700000000
(1752240950.943045) can0 7DF#02010C0000000000
(1752240950.946336) can0 7E8#04410C1020000000
(1752240950.962958) can0 7DF#02010D0000000000
(1752240950.966389) can0 7E8#03410D0700000000
(1752240950.983007) can0 7DF#02010C0000000000
(1752240950.986365) can0 7E8#04410C1020000000
(1752240951.003050) can0 7DF#02010D0000000000
(1752240951.006339) can0 7E8#03410D0700000000
(1752240951.023007) can0 7DF#02010C0000000000
(1752240951.026231) can0 7E8#04410C1014000000
(1752240951.043053) can0 7DF#02010D0000000000
(1752240951.046347) can0 7E8#03410D0700000000
(1752240951.062983) can0 7DF#02010C0000000000
(1752240951.066343) can0 7E8#04410C1014000000
(1752240951.083026) can0 7DF#02010D0000000000
(1752240951.086385) can0 7E8#03410D0700000000
(1752240951.102756) can0 7DF#02010C0000000000
(1752240951.106069) can0 7E8#04410C1014000000
(1752240951.123058) can0 7DF#02010D0000000000
(1752240951.126356) can0 7E8#03410D0600000000
(1752240951.143047) can0 7DF#02010C0000000000
(1752240951.146355) can0 7E8#04410C1014000000
(1752240951.149964) can0 17F00010#2010000000000000
(1752240951.163019) can0 7DF#02010D0000000000
(1752240951.166359) can0 7E8#03410D0600000000
(1752240951.182993) can0 7DF#02010C0000000000
(1752240951.186267) can0 7E8#04410C1014000000
(1752240951.202913) can0 7DF#02010D0000000000
(1752240951.206155) can0 7E8#03410D0600000000
(1752240951.222946) can0 7DF#02010C0000000000
(1752240951.226648) can0 7E8#04410C0FF0000000
(1752240951.242875) can0 7DF#02010D0000000000
(1752240951.246428) can0 7E8#03410D0600000000
(1752240951.263058) can0 7DF#02010C0000000000
(1752240951.266199) can0 7E8#04410C0FF0000000
(1752240951.283031) can0 7DF#02010D0000000000
(1752240951.286203) can0 7E8#03410D0600000000
(1752240951.303107) can0 7DF#02010C0000000000
(1752240951.306115) can0 7E8#04410C0FF0000000
(1752240951.323006) can0 7DF#02010D0000000000
(1752240951.326332) can0 7E8#03410D0600000000
(1752240951.343027) can0 7DF#02010C0000000000
(1752240951.346159) can0 7E8#04410C0FF0000000
(1752240951.363003) can0 7DF#02010D0000000000
(1752240951.366325) can0 7E8#03410D0600000000
(1752240951.383011) can0 7DF#02010C0000000000
(1752240951.386365) can0 7E8#04410C0FF0000000
(1752240951.402996) can0 7DF#02010D0000000000
(1752240951.406198) can0 7E8#03410D0600000000
(1752240951.423028) can0 7DF#02010C0000000000
(1752240951.426332) can0 7E8#04410C0FB2000000
(1752240951.442918) can0 7DF#02010D0000000000
(1752240951.446377) can0 7E8#03410D0600000000
(1752240951.462987) can0 7DF#02010C0000000000
(1752240951.466082) can0 7E8#04410C0FB2000000
(1752240951.482972) can0 7DF#02010D0000000000
(1752240951.486300) can0 7E8#03410D0600000000
(1752240951.503070) can0 7DF#02010C0000000000
(1752240951.506120) can0 7E8#04410C0FB2000000
(1752240951.523068) can0 7DF#02010D0000000000
(1752240951.526453) can0 7E8#03410D0600000000
(1752240951.543065) can0 7DF#02010C0000000000
(1752240951.546349) can0 7E8#04410C0FB2000000
(1752240951.562994) can0 7DF#02010D0000000000
(1752240951.566459) can0 7E8#03410D0600000000
(1752240951.582972) can0 7DF#02010C0000000000
(1752240951.586360) can0 7E8#04410C0FB2000000
(1752240951.603048) can0 7DF#02010D0000000000
(1752240951.606341) can0 7E8#03410D0600000000
(1752240951.623121) can0 7DF#02010C0000000000
(1752240951.626344) can0 7E8#04410C0F76000000
(1752240951.643025) can0 7DF#02010D0000000000
(1752240951.646449) can0 7E8#03410D0600000000
(1752240951.649951) can0 17F00010#2010000000000000
(1752240951.662859) can0 7DF#02010C0000000000
(1752240951.666828) can0 7E8#04410C0F76000000
(1752240951.682912) can0 7DF#02010D0000000000
(1752240951.686322) can0 7E8#03410D0600000000
(1752240951.702828) can0 7DF#02010C0000000000
(1752240951.706340) can0 7E8#04410C0F76000000
(1752240951.722986) can0 7DF#02010D0000000000
(1752240951.726209) can0 7E8#03410D0600000000
(1752240951.743115) can0 7DF#02010C0000000000
(1752240951.746345) can0 7E8#04410C0F76000000
(1752240951.763012) can0 7DF#02010D0000000000
(1752240951.766459) can0 7E8#03410D0600000000
(1752240951.783064) can0 7DF#02010C0000000000
(1752240951.786348) can0 7E8#04410C0F76000000
(1752240951.802935) can0 7DF#02010D0000000000
(1752240951.806224) can0 7E8#03410D0600000000
(1752240951.823116) can0 7DF#02010C0000000000
(1752240951.826354) can0 7E8#04410C0F50000000
(1752240951.843067) can0 7DF#02010D0000000000
(1752240951.846453) can0 7E8#03410D0600000000
(1752240951.862970) can0 7DF#02010C0000000000
(1752240951.866226) can0 7E8#04410C0F50000000
(1752240951.883006) can0 7DF#02010D0000000000
(1752240951.886247) can0 7E8#03410D0600000000
(1752240951.903093) can0 7DF#02010C0000000000
(1752240951.906244) can0 7E8#04410C0F50000000
(1752240951.922995) can0 7DF#02010D0000000000
(1752240951.926261) can0 7E8#03410D0600000000
(1752240951.943097) can0 7DF#02010C0000000000
(1752240951.946353) can0 7E8#04410C0F50000000
(1752240951.963040) can0 7DF#02010D0000000000
(1752240951.966495) can0 7E8#03410D0500000000
(1752240951.983107) can0 7DF#02010C0000000000
(1752240951.986455) can0 7E8#04410C0F50000000
(1752240952.002967) can0 7DF#02010D0000000000
(1752240952.006425) can0 7E8#03410D0500000000
(1752240952.023025) can0 7DF#02010C0000000000
(1752240952.026174) can0 7E8#04410C0F42000000
(1752240952.042978) can0 7DF#02010D0000000000
(1752240952.046240) can0 7E8#03410D0500000000
(1752240952.063013) can0 7DF#02010C0000000000
(1752240952.066441) can0 7E8#04410C0F42000000
(1752240952.082732) can0 7DF#02010D0000000000
(1752240952.086436) can0 7E8#03410D0500000000
(1752240952.102908) can0 7DF#02010C0000000000
(1752240952.106478) can0 7E8#04410C0F42000000
(1752240952.123003) can0 7DF#02010D0000000000
(1752240952.126436) can0 7E8#03410D0500000000
(1752240952.143023) can0 7DF#02010C0000000000
(1752240952.146587) can0 7E8#04410C0F42000000
(1752240952.150097) can0 17F00010#2010000000000000
(1752240952.163023) can0 7DF#02010D0000000000
(1752240952.166601) can0 7E8#03410D0500000000
(1752240952.182813) can0 7DF#02010C0000000000
(1752240952.186365) can0 7E8#04410C0F42000000
(1752240952.203018) can0 7DF#02010D0000000000
(1752240952.206580) can0 7E8#03410D0500000000
(1752240952.222954) can0 7DF#02010C0000000000
(1752240952.226595) can0 7E8#04410C0F4A000000
(1752240952.242964) can0 7DF#02010D0000000000
(1752240952.246504) can0 7E8#03410D0500000000
(1752240952.263032) can0 7DF#02010C0000000000
(1752240952.266467) can0 7E8#04410C0F4A000000
(1752240952.282963) can0 7DF#02010D0000000000
(1752240952.286398) can0 7E8#03410D0500000000
(1752240952.302968) can0 7DF#02010C0000000000
(1752240952.306299) can0 7E8#04410C0F4A000000
(1752240952.323087) can0 7DF#02010D0000000000
(1752240952.326453) can0 7E8#03410D0500000000
(1752240952.343024) can0 7DF#02010C0000000000
(1752240952.346477) can0 7E8#04410C0F4A000000
(1752240952.362980) can0 7DF#02010D0000000000
(1752240952.366575) can0 7E8#03410D0500000000
(1752240952.383006) can0 7DF#02010C0000000000
(1752240952.386653) can0 7E8#04410C0F4A000000
(1752240952.403045) can0 7DF#02010D0000000000
(1752240952.406441) can0 7E8#03410D0500000000
(1752240952.422869) can0 7DF#02010C0000000000
(1752240952.426568) can0 7E8#04410C0F34000000
(1752240952.442976) can0 7DF#02010D0000000000
(1752240952.446583) can0 7E8#03410D0500000000
(1752240952.463001) can0 7DF#02010C0000000000
(1752240952.466888) can0 7E8#04410C0F34000000
(1752240952.482998) can0 7DF#02010D0000000000
(1752240952.486588) can0 7E8#03410D0500000000
(1752240952.502717) can0 7DF#02010C0000000000
(1752240952.506672) can0 7E8#04410C0F34000000
(1752240952.523031) can0 7DF#02010D0000000000
(1752240952.526579) can0 7E8#03410D0500000000
(1752240952.542946) can0 7DF#02010C0000000000
(1752240952.546672) can0 7E8#04410C0F34000000
(1752240952.562973) can0 7DF#02010D0000000000
(1752240952.567142) can0 7E8#03410D0500000000
(1752240952.582912) can0 7DF#02010C0000000000
(1752240952.586671) can0 7E8#04410C0F34000000
(1752240952.602996) can0 7DF#02010D0000000000
(1752240952.606596) can0 7E8#03410D0500000000
(1752240952.622997) can0 7DF#02010C0000000000
(1752240952.626617) can0 7E8#04410C0F46000000
(1752240952.642978) can0 7DF#02010D0000000000
(1752240952.646596) can0 7E8#03410D0500000000
(1752240952.649933) can0 17F00010#2010000000000000
(1752240952.662977) can0 7DF#02010C0000000000
(1752240952.666900) can0 7E8#04410C0F46000000
(1752240952.683030) can0 7DF#02010D0000000000
(1752240952.686530) can0 7E8#03410D0500000000
(1752240952.702975) can0 7DF#02010C0000000000
(1752240952.706600) can0 7E8#04410C0F46000000
(1752240952.723066) can0 7DF#02010D0000000000
(1752240952.726371) can0 7E8#03410D0500000000
(1752240952.743000) can0 7DF#02010C0000000000
(1752240952.746883) can0 7E8#04410C0F46000000
(1752240952.763063) can0 7DF#02010D0000000000
(1752240952.766596) can0 7E8#03410D0500000000
(1752240952.783043) can0 7DF#02010C0000000000
(1752240952.786863) can0 7E8#04410C0F46000000
(1752240952.803155) can0 7DF#02010D0000000000
(1752240952.806614) can0 7E8#03410D0600000000
(1752240952.822997) can0 7DF#02010C0000000000
(1752240952.826617) can0 7E8#04410C0F32000000
(1752240952.842984) can0 7DF#02010D0000000000
(1752240952.846607) can0 7E8#03410D0500000000
(1752240952.863096) can0 7DF#02010C0000000000
(1752240952.866380) can0 7E8#04410C0F32000000
(1752240952.883156) can0 7DF#02010D0000000000
(1752240952.886622) can0 7E8#03410D0500000000
(1752240952.903081) can0 7DF#02010C0000000000
(1752240952.906574) can0 7E8#04410C0F32000000
(1752240952.922940) can0 7DF#02010D0000000000
(1752240952.926840) can0 7E8#03410D0500000000
(1752240952.942953) can0 7DF#02010C0000000000
(1752240952.946580) can0 7E8#04410C0F32000000
(1752240952.962994) can0 7DF#02010D0000000000
(1752240952.966593) can0 7E8#03410D0500000000
(1752240952.983039) can0 7DF#02010C0000000000
(1752240952.986591) can0 7E8#04410C0F32000000
(1752240953.002998) can0 7DF#02010D0000000000
(1752240953.006620) can0 7E8#03410D0500000000
(1752240953.022992) can0 7DF#02010C0000000000
(1752240953.026586) can0 7E8#04410C0F1A000000
(1752240953.043172) can0 7DF#02010D0000000000
(1752240953.046601) can0 7E8#03410D0500000000
(1752240953.062979) can0 7DF#02010C0000000000
(1752240953.066435) can0 7E8#04410C0F1A000000
(1752240953.083112) can0 7DF#02010D0000000000
(1752240953.086606) can0 7E8#03410D0600000000
(1752240953.103030) can0 7DF#02010C0000000000
(1752240953.106597) can0 7E8#04410C0F1A000000
(1752240953.122998) can0 7DF#02010D0000000000
(1752240953.126424) can0 7E8#03410D0600000000
(1752240953.142919) can0 7DF#02010C0000000000
(1752240953.146367) can0 7E8#04410C0F1A000000
(1752240953.150097) can0 17F00010#2010000000000000
(1752240953.163008) can0 7DF#02010D0000000000
(1752240953.166638) can0 7E8#03410D0600000000
(1752240953.183153) can0 7DF#02010C0000000000
(1752240953.186415) can0 7E8#04410C0F1A000000
(1752240953.203027) can0 7DF#02010D0000000000
(1752240953.206608) can0 7E8#03410D0600000000
(1752240953.222971) can0 7DF#02010C0000000000
(1752240953.227140) can0 7E8#04410C0F24000000
(1752240953.242983) can0 7DF#02010D0000000000
(1752240953.246858) can0 7E8#03410D0600000000
(1752240953.263087) can0 7DF#02010C0000000000
(1752240953.266621) can0 7E8#04410C0F24000000
(1752240953.283000) can0 7DF#02010D0000000000
(1752240953.286830) can0 7E8#03410D0600000000
(1752240953.303103) can0 7DF#02010C0000000000
(1752240953.306570) can0 7E8#04410C0F24000000
(1752240953.323076) can0 7DF#02010D0000000000
(1752240953.326912) can0 7E8#03410D0500000000
(1752240953.343044) can0 7DF#02010C0000000000
(1752240953.346825) can0 7E8#04410C0F24000000
(1752240953.362947) can0 7DF#02010D0000000000
(1752240953.366807) can0 7E8#03410D0600000000
(1752240953.383067) can0 7DF#02010C0000000000
(1752240953.386796) can0 7E8#04410C0F24000000
(1752240953.402965) can0 7DF#02010D0000000000
(1752240953.406804) can0 7E8#03410D0600000000
(1752240953.422961) can0 7DF#02010C0000000000
(1752240953.427024) can0 7E8#04410C0F4A000000
(1752240953.443063) can0 7DF#02010D0000000000
(1752240953.446823) can0 7E8#03410D0600000000
(1752240953.462945) can0 7DF#02010C0000000000
(1752240953.466791) can0 7E8#04410C0F4A000000
(1752240953.482873) can0 7DF#02010D0000000000
(1752240953.486914) can0 7E8#03410D0600000000
(1752240953.503041) can0 7DF#02010C0000000000
(1752240953.506792) can0 7E8#04410C0F4A000000
(1752240953.523087) can0 7DF#02010D0000000000
(1752240953.526928) can0 7E8#03410D0600000000
(1752240953.542975) can0 7DF#02010C0000000000
(1752240953.546801) can0 7E8#04410C0F4A000000
(1752240953.562817) can0 7DF#02010D0000000000
(1752240953.566794) can0 7E8#03410D0600000000
(1752240953.582987) can0 7DF#02010C0000000000
(1752240953.587051) can0 7E8#04410C0F4A000000
(1752240953.602936) can0 7DF#02010D0000000000
(1752240953.606796) can0 7E8#03410D0600000000
(1752240953.623019) can0 7DF#02010C0000000000
(1752240953.626981) can0 7E8#04410C0F46000000
(1752240953.643021) can0 7DF#02010D0000000000
(1752240953.646791) can0 7E8#03410D0600000000
(1752240953.649994) can0 17F00010#2010000000000000
(1752240953.662965) can0 7DF#02010C0000000000
(1752240953.666746) can0 7E8#04410C0F46000000
(1752240953.683040) can0 7DF#02010D0000000000
(1752240953.686733) can0 7E8#03410D0600000000
(1752240953.702809) can0 7DF#02010C0000000000
(1752240953.706778) can0 7E8#04410C0F46000000
(1752240953.723091) can0 7DF#02010D0000000000
(1752240953.726874) can0 7E8#03410D0600000000
(1752240953.743001) can0 7DF#02010C0000000000
(1752240953.746753) can0 7E8#04410C0F46000000
(1752240953.762960) can0 7DF#02010D0000000000
(1752240953.766684) can0 7E8#03410D0600000000
(1752240953.783095) can0 7DF#02010C0000000000
(1752240953.787044) can0 7E8#04410C0F46000000
(1752240953.803008) can0 7DF#02010D0000000000
(1752240953.806410) can0 7E8#03410D0600000000
(1752240953.823030) can0 7DF#02010C0000000000
(1752240953.826361) can0 7E8#04410C0F44000000
(1752240953.842960) can0 7DF#02010D0000000000
(1752240953.846420) can0 7E8#03410D0600000000
(1752240953.863058) can0 7DF#02010C0000000000
(1752240953.866398) can0 7E8#04410C0F44000000
(1752240953.883072) can0 7DF#02010D0000000000
(1752240953.886414) can0 7E8#03410D0600000000
(1752240953.902962) can0 7DF#02010C0000000000
(1752240953.906257) can0 7E8#04410C0F44000000
(1752240953.923014) can0 7DF#02010D0000000000
(1752240953.926220) can0 7E8#03410D0600000000
(1752240953.943062) can0 7DF#02010C0000000000
(1752240953.946195) can0 7E8#04410C0F44000000
(1752240953.963101) can0 7DF#02010D0000000000
(1752240953.966412) can0 7E8#03410D0600000000
(1752240953.983004) can0 7DF#02010C0000000000
(1752240953.986426) can0 7E8#04410C0F44000000
(1752240954.003092) can0 7DF#02010D0000000000
(1752240954.006401) can0 7E8#03410D0600000000
(1752240954.023003) can0 7DF#02010C0000000000
(1752240954.026397) can0 7E8#04410C0F3A000000
(1752240954.042864) can0 7DF#02010D0000000000
(1752240954.046411) can0 7E8#03410D0600000000
(1752240954.062968) can0 7DF#02010C0000000000
(1752240954.066452) can0 7E8#04410C0F3A000000
(1752240954.083068) can0 7DF#02010D0000000000
(1752240954.086879) can0 7E8#03410D0600000000
(1752240954.103105) can0 7DF#02010C0000000000
(1752240954.106423) can0 7E8#04410C0F3A000000
(1752240954.122980) can0 7DF#02010D0000000000
(1752240954.126205) can0 7E8#03410D0600000000
(1752240954.143061) can0 7DF#02010C0000000000
(1752240954.146404) can0 7E8#04410C0F3A000000
(1752240954.150207) can0 17F00010#2010000000000000
(1752240954.162959) can0 7DF#02010D0000000000
(1752240954.166345) can0 7E8#03410D0600000000
(1752240954.183058) can0 7DF#02010C0000000000
(1752240954.186413) can0 7E8#04410C0F3A000000
(1752240954.203061) can0 7DF#02010D0000000000
(1752240954.206140) can0 7E8#03410D0700000000
(1752240954.223043) can0 7DF#02010C0000000000
(1752240954.226334) can0 7E8#04410C0F4E000000
(1752240954.242981) can0 7DF#02010D0000000000
(1752240954.246215) can0 7E8#03410D0700000000
(1752240954.263049) can0 7DF#02010C0000000000
(1752240954.266495) can0 7E8#04410C0F4E000000
(1752240954.283000) can0 7DF#02010D0000000000
(1752240954.286265) can0 7E8#03410D0700000000
(1752240954.302986) can0 7DF#02010C0000000000
(1752240954.306576) can0 7E8#04410C0F4E000000
(1752240954.322954) can0 7DF#02010D0000000000
(1752240954.326415) can0 7E8#03410D0700000000
(1752240954.343039) can0 7DF#02010C0000000000
(1752240954.346644) can0 7E8#04410C0F4E000000
(1752240954.363001) can0 7DF#02010D0000000000
(1752240954.366424) can0 7E8#03410D0700000000
(1752240954.383024) can0 7DF#02010C0000000000
(1752240954.386678) can0 7E8#04410C0F4E000000
(1752240954.402888) can0 7DF#02010D0000000000
(1752240954.406262) can0 7E8#03410D0700000000
(1752240954.422884) can0 7DF#02010C0000000000
(1752240954.426344) can0 7E8#04410C0F3C000000
(1752240954.442909) can0 7DF#02010D0000000000
(1752240954.446421) can0 7E8#03410D0700000000
(1752240954.462839) can0 7DF#02010C0000000000
(1752240954.466338) can0 7E8#04410C0F3C000000
(1752240954.483015) can0 7DF#02010D0000000000
(1752240954.486422) can0 7E8#03410D0700000000
(1752240954.503125) can0 7DF#02010C0000000000
(1752240954.506122) can0 7E8#04410C0F3C000000
(1752240954.523057) can0 7DF#02010D0000000000
(1752240954.526355) can0 7E8#03410D0700000000
(1752240954.543091) can0 7DF#02010C0000000000
(1752240954.546398) can0 7E8#04410C0F3C000000
(1752240954.563066) can0 7DF#02010D0000000000
(1752240954.566423) can0 7E8#03410D0700000000
(1752240954.583095) can0 7DF#02010C0000000000
(1752240954.586423) can0 7E8#04410C0F3C000000
(1752240954.602866) can0 7DF#02010D0000000000
(1752240954.606393) can0 7E8#03410D0700000000
(1752240954.623077) can0 7DF#02010C0000000000
(1752240954.626395) can0 7E8#04410C0F2E000000
(1752240954.642986) can0 7DF#02010D0000000000
(1752240954.646421) can0 7E8#03410D0700000000
(1752240954.649915) can0 17F00010#2010000000000000
(1752240954.663087) can0 7DF#02010C0000000000
(1752240954.666209) can0 7E8#04410C0F2E000000
(1752240954.682952) can0 7DF#02010D0000000000
(1752240954.686409) can0 7E8#03410D0700000000
(1752240954.703124) can0 7DF#02010C0000000000
(1752240954.706256) can0 7E8#04410C0F2E000000
(1752240954.722984) can0 7DF#02010D0000000000
(1752240954.726396) can0 7E8#03410D0700000000
(1752240954.742999) can0 7DF#02010C0000000000
(1752240954.746412) can0 7E8#04410C0F2E000000
(1752240954.762993) can0 7DF#02010D0000000000
(1752240954.766419) can0 7E8#03410D0700000000
(1752240954.782832) can0 7DF#02010C0000000000
(1752240954.786426) can0 7E8#04410C0F2E000000
(1752240954.802783) can0 7DF#02010D0000000000
(1752240954.806157) can0 7E8#03410D0700000000
(1752240954.822778) can0 7DF#02010C0000000000
(1752240954.826389) can0 7E8#04410C0EFE000000
(1752240954.842920) can0 7DF#02010D0000000000
(1752240954.846386) can0 7E8#03410D0700000000
(1752240954.862988) can0 7DF#02010C0000000000
(1752240954.866577) can0 7E8#04410C0EFE000000
(1752240954.882797) can0 7DF#02010D0000000000
(1752240954.886391) can0 7E8#03410D0700000000
(1752240954.903011) can0 7DF#02010C0000000000
(1752240954.906151) can0 7E8#04410C0EFE000000
(1752240954.923052) can0 7DF#02010D0000000000
(1752240954.926338) can0 7E8#03410D0700000000
(1752240954.942956) can0 7DF#02010C0000000000
(1752240954.946493) can0 7E8#04410C0EFE000000
(1752240954.963131) can0 7DF#02010D0000000000
(1752240954.966601) can0 7E8#03410D0700000000
(1752240954.983055) can0 7DF#02010C0000000000
(1752240954.986596) can0 7E8#04410C0EFE000000
(1752240955.003011) can0 7DF#02010D0000000000
(1752240955.006415) can0 7E8#03410D0700000000
(1752240955.022988) can0 7DF#02010C0000000000
(1752240955.026839) can0 7E8#04410C0F06000000
(1752240955.043046) can0 7DF#02010D0000000000
(1752240955.046569) can0 7E8#03410D0700000000
(1752240955.062987) can0 7DF#02010C0000000000
(1752240955.066565) can0 7E8#04410C0F06000000
(1752240955.083078) can0 7DF#02010D0000000000
(1752240955.086561) can0 7E8#03410D0700000000
(1752240955.102979) can0 7DF#02010C0000000000
(1752240955.106352) can0 7E8#04410C0F06000000
(1752240955.123030) can0 7DF#02010D0000000000
(1752240955.126840) can0 7E8#03410D0700000000
(1752240955.143117) can0 7DF#02010C0000000000
(1752240955.146579) can0 7E8#04410C0F06000000
(1752240955.150041) can0 17F00010#2010000000000000
(1752240955.162946) can0 7DF#02010D0000000000
(1752240955.166587) can0 7E8#03410D0700000000
(1752240955.183052) can0 7DF#02010C0000000000
(1752240955.186576) can0 7E8#04410C0F06000000
(1752240955.203043) can0 7DF#02010D0000000000
(1752240955.206563) can0 7E8#03410D0700000000
(1752240955.222991) can0 7DF#02010C0000000000
(1752240955.226779) can0 7E8#04410C0F30000000
(1752240955.243122) can0 7DF#02010D0000000000
(1752240955.246531) can0 7E8#03410D0700000000
(1752240955.262990) can0 7DF#02010C0000000000
(1752240955.266517) can0 7E8#04410C0F30000000
(1752240955.282996) can0 7DF#02010D0000000000
(1752240955.286412) can0 7E8#03410D0600000000
(1752240955.302843) can0 7DF#02010C0000000000
(1752240955.306349) can0 7E8#04410C0F30000000
(1752240955.323050) can0 7DF#02010D0000000000
(1752240955.326585) can0 7E8#03410D0600000000
(1752240955.343089) can0 7DF#02010C0000000000
(1752240955.346462) can0 7E8#04410C0F30000000
(1752240955.363057) can0 7DF#02010D0000000000
(1752240955.366434) can0 7E8#03410D0600000000
(1752240955.383041) can0 7DF#02010C0000000000
(1752240955.386338) can0 7E8#04410C0F30000000
(1752240955.403050) can0 7DF#02010D0000000000
(1752240955.406471) can0 7E8#03410D0600000000
(1752240955.422999) can0 7DF#02010C0000000000
(1752240955.426582) can0 7E8#04410C0F66000000
(1752240955.442935) can0 7DF#02010D0000000000
(1752240955.446531) can0 7E8#03410D0600000000
(1752240955.463064) can0 7DF#02010C0000000000
(1752240955.466723) can0 7E8#04410C0F66000000
(1752240955.482961) can0 7DF#02010D0000000000
(1752240955.487264) can0 7E8#03410D0600000000
(1752240955.502917) can0 7DF#02010C0000000000
(1752240955.506715) can0 7E8#04410C0F66000000
(1752240955.522939) can0 7DF#02010D0000000000
(1752240955.526571) can0 7E8#03410D0600000000
(1752240955.543046) can0 7DF#02010C0000000000
(1752240955.546440) can0 7E8#04410C0F66000000
(1752240955.563115) can0 7DF#02010D0000000000
(1752240955.566426) can0 7E8#03410D0600000000
(1752240955.582936) can0 7DF#02010C0000000000
(1752240955.586714) can0 7E8#04410C0F66000000
(1752240955.603106) can0 7DF#02010D0000000000
(1752240955.606588) can0 7E8#03410D0600000000
(1752240955.623033) can0 7DF#02010C0000000000
(1752240955.626770) can0 7E8#04410C0F6E000000
(1752240955.642803) can0 7DF#02010D0000000000
(1752240955.646385) can0 7E8#03410D0600000000
(1752240955.649980) can0 17F00010#2010000000000000
(1752240955.663143) can0 7DF#02010C0000000000
(1752240955.666492) can0 7E8#04410C0F6E000000
(1752240955.683018) can0 7DF#02010D0000000000
(1752240955.686438) can0 7E8#03410D0600000000
(1752240955.703007) can0 7DF#02010C0000000000
(1752240955.706688) can0 7E8#04410C0F6E000000
(1752240955.722891) can0 7DF#02010D0000000000
(1752240955.726685) can0 7E8#03410D0600000000
(1752240955.742954) can0 7DF#02010C0000000000
(1752240955.746698) can0 7E8#04410C0F6E000000
(1752240955.762996) can0 7DF#02010D0000000000
(1752240955.766628) can0 7E8#03410D0600000000
(1752240955.782954) can0 7DF#02010C0000000000
(1752240955.786686) can0 7E8#04410C0F6E000000
(1752240955.803061) can0 7DF#02010D0000000000
(1752240955.806578) can0 7E8#03410D0600000000
(1752240955.823037) can0 7DF#02010C0000000000
(1752240955.826722) can0 7E8#04410C0F2C000000
(1752240955.842891) can0 7DF#02010D0000000000
(1752240955.846451) can0 7E8#03410D0600000000
(1752240955.862896) can0 7DF#02010C0000000000
(1752240955.866534) can0 7E8#04410C0F2C000000
(1752240955.883077) can0 7DF#02010D0000000000
(1752240955.886462) can0 7E8#03410D0600000000
(1752240955.903062) can0 7DF#02010C0000000000
(1752240955.906435) can0 7E8#04410C0F2C000000
(1752240955.922987) can0 7DF#02010D0000000000
(1752240955.926642) can0 7E8#03410D0600000000
(1752240955.943103) can0 7DF#02010C0000000000
