(1719214772.163090) can1 1B000010#1000010524000000
(1719214772.163129) can1 3DB#5000010003100088
(1719214772.163333) can1 570#FF00000000000000
(1719214772.164840) can1 585#01280A7F11000000
(1719214772.184851) can1 3D5#2D03000000000000
(1719214772.187015) can1 12B#0D4F802A00000000
(1719214772.190706) can1 6B4#0000000000575647
(1719214772.194836) can1 3D6#0A00000000000000
(1719214772.195039) can1 365#970000000000003C
(1719214772.200034) can1 30B#100B000008000000
(1719214772.204806) can1 3E5#3A10000000000000
(1719214772.207026) can1 12B#8640802A00000000
(1719214772.207196) can1 3B5#08FE00021C002000
(1719214772.207742) can1 668#0200000000000000
(1719214772.212707) can1 3EC#F300000000004000
(1719214772.213544) can1 17332600#1982
(1719214772.214928) can1 3C0#D90C0100
(1719214772.215022) can1 17330700#11C2
(1719214772.215288) can1 17331F00#17C2
(1719214772.234767) can1 585#012C0A7F11000000
(1719214772.235186) can1 3C0#700D0300
(1719214772.235413) can1 658#0000040000000200
(1719214772.242580) can1 3DD#CB1E100000000000
(1719214772.244946) can1 365#970000000000003C
(1719214772.247054) can1 12B#F441802A00000000
(1719214772.250333) can1 30B#100C800008000000
(1719214772.253551) can1 08A#5201000000000000
(1719214772.253760) can1 0B2#FEFFFEFFFEFFFEFF
(1719214772.253993) can1 1AB#1901000000000000
(1719214772.254251) can1 1A2#6E01000000000000
(1719214772.254553) can1 1A555521#0000000000000000
(1719214772.254751) can1 65D#D4212B0000000800
(1719214772.255046) can1 16A954C3#0000000000000000
(1719214772.260380) can1 5F0#A7006400004B0000
(1719214772.260549) can1 65A#0000001000803D00
(1719214772.262658) can1 3DB#5000010003100088
(1719214772.263382) can1 0B2#FEFFFEFFFEFFFEFF
(1719214772.263561) can1 0FD#EDE13F8CFEFF8000
(1719214772.263801) can1 101#CA717F0082004000
(1719214772.264029) can1 106#D151640000000100
(1719214772.267041) can1 12B#5042802A00000000
(1719214772.272663) can1 17332610#4000010A
(1719214772.272885) can1 17330710#01C2030107000403
(1719214772.273503) can1 0B2#FEFFFEFFFEFFFEFF
(1719214772.273961) can1 11E#9E0100000002E0FF
(1719214772.274151) can1 1AB#CE02842A00000000
(1719214772.274435) can1 116#0DF1FDF7DF7FFFAF
(1719214772.282715) can1 17332610#0982030026000302
(1719214772.283464) can1 0B2#FEFFFEFFFEFFFEFF
(1719214772.283681) can1 0FD#22E23F8CFEFF8000
(1719214772.283894) can1 31B#2471FCFF0000A800
(1719214772.284183) can1 101#66727F0082004000
(1719214772.284431) can1 106#F20263000000FE00
(1719214772.284693) can1 1B000013#130001020D000000
(1719214772.284899) can1 3D5#C1C4400000000000
(1719214772.289004) can1 658#0010040000000200
(1719214772.292596) can1 570#FB00000000800000
(1719214772.293508) can1 0B2#FEFFFEFFFEFFFEFF
(1719214772.293733) can1 392#F201000000000004
(1719214772.293984) can1 11E#320200000002E0FF
(1719214772.294250) can1 1AB#BD03842A00001000
(1719214772.294383) can1 116#A1F2FDF7DF7FFFAF
(1719214772.294774) can1 3D6#0B00000000000000
(1719214772.294975) can1 365#970000000000003C
(1719214772.297738) can1 520#C7010000005A5500
(1719214772.300029) can1 30B#150D800008000000
(1719214772.303311) can1 0B2#FEFFFEFFFEFFFEFF
(1719214772.303533) can1 0FD#57E33F8CFEFF8000
(1719214772.303827) can1 101#02737F0082004000
(1719214772.303987) can1 106#960363000000FE00
(1719214772.304180) can1 64A#00000000
(1719214772.304842) can1 3E5#7B11000000000000
(1719214772.305000) can1 17332600#1981
(1719214772.306128) can1 17330700#11C1
(1719214772.306983) can1 12B#0843802A00000000
(1719214772.307202) can1 3B5#08FE00021C002000
(1719214772.312962) can1 5F0#A7E46400004B0000
(1719214772.313410) can1 0B2#FEFFFEFFFEFFFEFF
(1719214772.313666) can1 116#4E030000000000FF
(1719214772.313871) can1 11E#560300000002E0FF
(1719214772.314154) can1 17F00013#20130000001E0000
(1719214772.314680) can1 3C0#800E0300
(1719214772.314871) can1 5A0#010F802078
(1719214772.315245) can1 17330A00#1282
(1719214772.320321) can1 366#0000000080030000
(1719214772.322614) can1 17330710#801A41C103010700
(1719214772.323410) can1 0B2#FEFFFEFFFEFFFEFF
(1719214772.323586) can1 0FD#C1E43F8CFEFF8000
(1719214772.323814) can1 101#11747F0082004000
(1719214772.324098) can1 106#850463000000FE00
(1719214772.326933) can1 12B#8844802A00000000
(1719214772.332613) can1 17332610#8013498103002600
(1719214772.333360) can1 0B2#FEFFFEFFFEFFFEFF
(1719214772.333601) can1 116#5D040000000000FF
(1719214772.333813) can1 11E#450400000002E0FF
(1719214772.334098) can1 31B#D872FCFF00008000
(1719214772.340983) can1 658#0030040000000200
(1719214772.341198) can1 65F#0030000000000000
(1719214772.341430) can1 56F#0000000000FC0000
(1719214772.341666) can1 556#0000FEFE8100FE00
(1719214772.341904) can1 641#4F11214F130A4672
(1719214772.342178) can1 391#004D000000000000
(1719214772.342593) can1 3DD#CB1E100000000000
(1719214772.343037) can1 1B000076#7600010105000000
(1719214772.343338) can1 0B2#FEFFFEFFFEFFFEFF
(1719214772.343576) can1 0FD#5BE53F8CFEFF8000
(1719214772.343812) can1 101#75757F0082004000
(1719214772.344086) can1 106#E10563000000FE00
(1719214772.344633) can1 3BE#0E01070020820840
(1719214772.344881) can1 670#15080000FE000000
(1719214772.345132) can1 0A7#19E1BFFFFEFBEF9F
(1719214772.345371) can1 107#0000FE0040000000
(1719214772.345602) can1 32C#0000000000000000
(1719214772.345882) can1 0A8#92E1DFBFFF000000
(1719214772.346110) can1 365#970000000000003C
(1719214772.346359) can1 11B#0000000000000000
(1719214772.346598) can1 557#0000000000000000
(1719214772.346880) can1 676#0000000000000000
(1719214772.347109) can1 3C7#FD00100000000000
(1719214772.348409) can1 640#0257FE717E200000
(1719214772.348678) can1 17F00076#2076000000000000
(1719214772.348927) can1 647#70FDFF7F00000059
(1719214772.349156) can1 391#004D2C0000290000
(1719214772.349406) can1 642#000000000C180F1E
(1719214772.350166) can1 30B#150E800008000000
(1719214772.353403) can1 0B2#FEFFFEFFFEFFFEFF
(1719214772.353632) can1 116#39050000000000FF
(1719214772.353905) can1 11E#210500000002E0FF
(1719214772.355152) can1 120#3901000100000000
(1719214772.355381) can1 121#FC01000030007EFE
(1719214772.355620) can1 0A8#D6D21F407F000000
(1719214772.355871) can1 15A#4A01000001D20000
(1719214772.356108) can1 32F#007F000000000000
(1719214772.356381) can1 3BE#0A22070122C00880
(1719214772.356629) can1 147#0000000000000000
(1719214772.356858) can1 0A7#1DD29F7AFDA9A71E
(1719214772.357108) can1 3FB#0000000000000020
(1719214772.357335) can1 2C2#000000FC07000000
(1719214772.358980) can1 65A#0000001000803D00
(1719214772.362549) can1 1B000010#1000010525000000
(1719214772.362825) can1 3DB#5000010003100088
(1719214772.363479) can1 0B2#FEFFFEFFFEFFFEFF
(1719214772.363689) can1 0FD#49E63F8CFEFF8000
(1719214772.363973) can1 101#D9767F0082004000
(1719214772.364212) can1 106#4D0663000000FE00
(1719214772.364990) can1 5F0#A7E46400004B0000
(1719214772.365199) can1 107#0000FE0040000000
(1719214772.365431) can1 0A7#9CD39F7AFDA9A71E
(1719214772.365667) can1 0A8#32D37F0992000000
(1719214772.366933) can1 12B#2D45802A00000000
(1719214772.368978) can1 366#0000000080030000
(1719214772.372693) can1 17330710#41CF01
(1719214772.373584) can1 0B2#FEFFFEFFFEFFFEFF
(1719214772.373812) can1 116#95060000000000FF
(1719214772.374028) can1 11E#8D0600000002E0FF
(1719214772.375227) can1 120#410200010000FF01
(1719214772.375403) can1 121#1202000030677EFE
(1719214772.375748) can1 31E#07E13F0000000000
(1719214772.375914) can1 0A7#A6D49F7AFDA9A71E
(1719214772.376188) can1 0A8#04D41F807A640000
(1719214772.376448) can1 147#0000000000000000
(1719214772.382610) can1 17332610#498E10
(1719214772.383498) can1 0B2#FEFFFEFFFEFFFEFF
(1719214772.383745) can1 0FD#73E73F8CFEFF8000
(1719214772.383973) can1 31B#B473FCFF00008000
(1719214772.384212) can1 101#BD777F0082004000
(1719214772.384450) can1 106#290763000000FE00
(1719214772.384896) can1 3D5#4AC5400000000000
(1719214772.385295) can1 670#15000000FE000080
(1719214772.385506) can1 0A7#DDD59F7AFDA9A71E
(1719214772.385745) can1 107#0000FE0040000000
(1719214772.386018) can1 0A8#6ED51F807A640000
(1719214772.386516) can1 17F00012#0000000000000000
(1719214772.386910) can1 12B#3446802A00000000
(1719214772.388452) can1 17F00015#0015000000000000
(1719214772.388700) can1 17331F10#07C203001F000301
(1719214772.392206) can1 6B4#0259393031343733
(1719214772.392999) can1 658#0030040000000200
(1719214772.393395) can1 0B2#0000000000000000
(1719214772.393630) can1 392#5E02000000000004
(1719214772.393858) can1 11E#E90700000002E0FF
(1719214772.394109) can1 116#F1070000000000FF
(1719214772.394840) can1 3D6#0C00000000000000
(1719214772.395086) can1 365#960000000000003C
(1719214772.395347) can1 120#930300010000FF01
(1719214772.395585) can1 121#E003000030677EFE
(1719214772.395815) can1 0A7#6F469F7AFDA9A71E
(1719214772.396052) can1 086#1900092E00000000
(1719214772.396290) can1 09F#F8305B89010480F0
(1719214772.396529) can1 0A8#55D67F0992640000
(1719214772.396813) can1 32C#0003000078240810
(1719214772.396996) can1 147#0000000000000000
(1719214772.398460) can1 3D8#0000080000000000
(1719214772.398666) can1 040#B501000540000006
(1719214772.398903) can1 041#1D00000000000000
(1719214772.400069) can1 30B#150F800008000000
(1719214772.401101) can1 16A954C7#F101800000773C00
(1719214772.402521) can1 3EC#E300000000024000
(1719214772.403657) can1 0B2#0000000000000000
(1719214772.403856) can1 0FD#0AE83F8000000000
(1719214772.404130) can1 101#FF787F0082004000
(1719214772.404332) can1 106#6B0863000000FE00
(1719214772.404561) can1 497#0600000064460018
(1719214772.404907) can1 54B#0000000000000000
(1719214772.405084) can1 3E5#A612000000000000
(1719214772.405313) can1 086#7D01092E00000000
(1719214772.405572) can1 0A7#E6479F7AFDA9A71E
(1719214772.405824) can1 107#0000FE0040000000
(1719214772.406073) can1 0A8#40D77F0992640000
(1719214772.406304) can1 09F#9C315B89010480F0
(1719214772.406541) can1 11D#BD0000007E200000
(1719214772.406825) can1 32F#007F000000000000
(1719214772.407064) can1 17F0000A#000A000000000000
(1719214772.407279) can1 3B5#08FE12021C002000
(1719214772.407839) can1 668#0200000000000000
(1719214772.408429) can1 520#3502000000AA4600
(1719214772.408677) can1 545#0000000000000100
(1719214772.410248) can1 1B000012#1200010205000000
(1719214772.413450) can1 0B2#0000000000000000
(1719214772.413699) can1 116#B3080000000000FF
(1719214772.413912) can1 11E#AB0800000002E0FF
(1719214772.415054) can1 086#D102092E00000000
(1719214772.415290) can1 120#C50400010000FF01
(1719214772.415529) can1 121#5D04000030677EFE
(1719214772.415812) can1 0A7#B4389F7AFDA9A71E
(1719214772.415996) can1 0A8#B9D8BF8B8A640000
(1719214772.416232) can1 09F#4A325B89010380F0
(1719214772.416482) can1 147#0000000000000000
(1719214772.416621) can1 3C0#350F0300
(1719214772.417087) can1 391#004D2C0000290000
(1719214772.418952) can1 366#0000000080030000
(1719214772.422839) can1 17330710#41D0000000005000
(1719214772.423675) can1 0B2#0000000000000000
(1719214772.423825) can1 0FD#38E93F8000000000
(1719214772.424074) can1 101#9B797F0082004000
(1719214772.424313) can1 106#0F0963000000FE00
(1719214772.425087) can1 086#B503092E00000000
(1719214772.425289) can1 0A7#64399F7AFDA9A71E
(1719214772.425540) can1 107#0000FE0040000000
(1719214772.425824) can1 31E#BDE23F0000000000
(1719214772.426016) can1 0A8#CBD9BF8B8A640000
(1719214772.426268) can1 09F#54335B89010480F0
(1719214772.426504) can1 11D#D90100007E200000
(1719214772.426879) can1 12B#1147802A00000000
(1719214772.427109) can1 3C7#1410030000408300
(1719214772.429191) can1 54B#0000000000000004
(1719214772.432656) can1 17332610#49920300
(1719214772.433549) can1 0B2#0000000000000000
(1719214772.433813) can1 116#D7090000000000FF
(1719214772.433997) can1 11E#CF0900000002E0FF
(1719214772.434279) can1 31B#6E74000000008000
(1719214772.435024) can1 086#A604092E00000000
(1719214772.435244) can1 120#C70500010000FF01
(1719214772.435495) can1 121#6A05000030677EFE
(1719214772.435734) can1 0A7#C02A9F7AFDA9A71E
(1719214772.435971) can1 0A8#94DABF8B8A640000
(1719214772.436200) can1 09F#47345B89010480F0
(1719214772.436453) can1 147#0000000000000000
(1719214772.436688) can1 32A#6F00000000020000
(1719214772.436903) can1 3FB#0000000000000021
(1719214772.438476) can1 1B000015#1500010205000000
(1719214772.442497) can1 3DD#8A1C100000000000
(1719214772.443632) can1 0B2#0000000000000000
(1719214772.443812) can1 0FD#74EA3F8000000000
(1719214772.444095) can1 101#377A7F0082004000
(1719214772.444324) can1 106#A30A63000000FE00
(1719214772.445080) can1 365#960000000000003C
(1719214772.445289) can1 086#C205092E00000000
(1719214772.445493) can1 0A7#AE2B9F7AFDA9A71E
(1719214772.445811) can1 107#0000FE0040000000
(1719214772.446027) can1 32C#0003000098240810
(1719214772.446221) can1 09F#23355B89010480F0
(1719214772.446474) can1 0A8#59DBBF8B8A640000
(1719214772.446711) can1 11B#0000000000000000
(1719214772.446976) can1 11D#750200007E200000
(1719214772.447164) can1 17331F00#17C1
(1719214772.447392) can1 12B#C448802A00000000
(1719214772.448452) can1 040#B402000540000008
(1719214772.448654) can1 2B7#8D000000000000FE
(1719214772.450433) can1 30B#1700800008000000
(1719214772.453633) can1 0B2#0000000000000000
(1719214772.453812) can1 1AB#7604842A00001000
(1719214772.454095) can1 11E#630A00000002E0FF
(1719214772.454324) can1 116#7B0A0000000000FF
(1719214772.454574) can1 1A2#8F02000000000000
(1719214772.454810) can1 54B#0000000000000024
(1719214772.455039) can1 086#6E06092E00000000
(1719214772.455290) can1 120#280600010000FF01
(1719214772.455529) can1 121#6D06000030677EFE
(1719214772.455812) can1 0A8#47DCBF8B8A640000
(1719214772.455996) can1 09F#F5365B89010380F0
(1719214772.456232) can1 15A#1E02000001D20000
(1719214772.456481) can1 23D#0000F8FFFFFF3F80
(1719214772.456721) can1 32F#007F000000000000
(1719214772.456972) can1 3BE#F923070122C00880
(1719214772.457211) can1 147#0000000000000000
(1719214772.457449) can1 0A7#D81C9F7AFDA9A71E
(1719214772.457688) can1 33C#0000002080000000
(1719214772.457902) can1 65D#70222B000000E47B
(1719214772.458230) can1 16A954C2#00FF000000000000
(1719214772.459000) can1 65A#0000001000803D00
(1719214772.462547) can1 3DB#5000010003100088
(1719214772.462944) can1 16A954C3#F500000000000000
(1719214772.463632) can1 0B2#0000000000000000
(1719214772.463878) can1 0FD#5BEB3F8000000000
(1719214772.464129) can1 101#A27B7F0082000000
(1719214772.464368) can1 106#C70B63000000FE00
(1719214772.464652) can1 117#FF010040680000FF
(1719214772.464904) can1 3D4#7D04820600060000
(1719214772.465154) can1 086#0A07092E00000000
(1719214772.465393) can1 0A7#281D9F7AFDA9A71E
(1719214772.465631) can1 107#0000FE0040000000
(1719214772.465865) can1 0A8#01DD1F888A640000
(1719214772.466095) can1 09F#EB375B89010480F0
(1719214772.466324) can1 11D#110300007E200000
(1719214772.466573) can1 122#990100FE07000010
(1719214772.466811) can1 12E#BDE17F000000C0FF
(1719214772.467049) can1 2AC#E281FEFE1E7E0000
(1719214772.468978) can1 366#0000000080030000
(1719214772.472500) can1 3EC#E100000000022000
(1719214772.472756) can1 17330710#C004030800380381
(1719214772.473657) can1 0B2#0000000000000000
(1719214772.473858) can1 116#1F0B0000000000FF
(1719214772.474108) can1 11E#070B00000002E0FF
(1719214772.474347) can1 380#3B014000000000FF
(1719214772.474585) can1 497#0600000041470018
(1719214772.475032) can1 086#4808092E00000000
(1719214772.475255) can1 120#2A0700010000FF01
(1719214772.475493) can1 121#3E07000030677EFE
(1719214772.475724) can1 0A7#010E9F7AFDA9A71E
(1719214772.475959) can1 0A8#B3DE1F888A640000
(1719214772.476187) can1 09F#A9385B89010480F0
(1719214772.476446) can1 147#0000000000000000
(1719214772.476677) can1 31E#FFE33F0000000000
(1719214772.479172) can1 381#FFFFFFFFFF000020
(1719214772.479379) can1 382#FFFFFFFFFF000020
(1719214772.482751) can1 17332610#C003023803200000
(1719214772.483645) can1 0B2#0000000000000000
(1719214772.483823) can1 0FD#C2EC3F8000000000
(1719214772.484073) can1 31B#8375000000008000
(1719214772.484312) can1 101#407C7F0082004000
(1719214772.484596) can1 106#D40C63000000FE00
(1719214772.484823) can1 117#53020040680000FF
(1719214772.485080) can1 086#2C09092E00000000
(1719214772.485303) can1 0A7#DF0F9F7AFDA9A71E
(1719214772.485539) can1 107#0000FE0040000000
(1719214772.485823) can1 0A8#3CDF1F888A640000
(1719214772.486016) can1 122#630200FE07000010
(1719214772.486223) can1 09F#CD395B89010480F0
(1719214772.486461) can1 11D#020400007E200000
(1719214772.486743) can1 12E#74E27F000000C0FF
(1719214772.486949) can1 32A#0B01000000020000
(1719214772.487198) can1 12B#CC49802A00000000
(1719214772.487556) can1 1B000013#130001020D000000
(1719214772.487721) can1 3D5#D5C6400000000000
(1719214772.488638) can1 16A954C6#F33F00000000000B
(1719214772.493600) can1 0B2#0000000000000000
(1719214772.493810) can1 392#3A03000000000004
(1719214772.494026) can1 11E#140C00000002E0FF
(1719214772.494277) can1 116#0C0C0000000000FF
(1719214772.494850) can1 3D6#0D00000000000000
(1719214772.495073) can1 086#800A092E00000000
(1719214772.495312) can1 120#730800010000FF01
(1719214772.495595) can1 121#FD08000030677EFE
(1719214772.495822) can1 0A7#16009F7AFDA9A71E
(1719214772.496016) can1 09F#613A5B89010480F0
(1719214772.496268) can1 0A8#54D01F888A640000
(1719214772.496503) can1 32C#0003000098240810
(1719214772.496754) can1 147#0000000000000000
(1719214772.497007) can1 365#960000000000003C
(1719214772.497647) can1 17330A11#40000114
(1719214772.498405) can1 3D8#0010040000000000
(1719214772.498674) can1 040#2D0300054000000A
(1719214772.498903) can1 2B7#DC010000000000FE
(1719214772.499153) can1 48E#0000000000000000
(1719214772.500960) can1 30B#5701800008000000
(1719214772.501242) can1 16A954C7#F20100001ED40400
(1719214772.503666) can1 0B2#0000000000000000
(1719214772.503811) can1 0FD#4BED3F8000000000
(1719214772.504095) can1 101#D57D7F0082000000
(1719214772.504348) can1 106#B00D63000000FE00
(1719214772.504630) can1 17330A10#028203010A000406
(1719214772.504879) can1 117#37030040680000FF
(1719214772.505118) can1 086#E40B092E00000000
(1719214772.505349) can1 0A7#9E019F7AFDA9A71E
(1719214772.505585) can1 107#0000FE0040000000
(1719214772.505822) can1 0A8#2ED11F888A640000
(1719214772.506062) can1 09F#7F3B5B89010380F0
(1719214772.506278) can1 11D#660500007E200000
(1719214772.506529) can1 122#460300FE07000010
(1719214772.506812) can1 32F#007F000000000000
(1719214772.507017) can1 12E#EDE37F000000C0FF
(1719214772.507350) can1 12B#DC4A802A00000000
(1719214772.507515) can1 3B5#08FE12021C002000
(1719214772.507811) can1 3E5#F213000000000000
(1719214772.513546) can1 0B2#0000000000000000
(1719214772.513812) can1 116#680D0000000000FF
(1719214772.514043) can1 11E#700D00000002E0FF
(1719214772.514697) can1 3C0#74000300
(1719214772.514911) can1 5A0#010E802078
(1719214772.515140) can1 086#F70C092E00000000
(1719214772.515392) can1 120#250900010000FF01
(1719214772.515629) can1 121#0209000030677EFE
(1719214772.515858) can1 0A7#82F29E7AFDA9A71E
(1719214772.516061) can1 09F#163C5B89010480F0
(1719214772.516334) can1 0A8#C2D21F888A640000
(1719214772.516622) can1 3FB#0000000000000022
(1719214772.516809) can1 147#0000000000000000
(1719214772.517026) can1 391#004D2C0000290000
(1719214772.519002) can1 366#0000000080030000
(1719214772.522842) can1 17330710#41CF00
(1719214772.523721) can1 0B2#0000000000000000
(1719214772.523971) can1 0FD#B4EE3F8000000000
(1719214772.524235) can1 101#887E7F0082004000
(1719214772.524448) can1 106#8E0E64000000FE00
(1719214772.524824) can1 117#24040040680000FF
(1719214772.525097) can1 086#930D092E00000000
(1719214772.525312) can1 0A7#03F39E7AFDA9A71E
(1719214772.525529) can1 107#0000FE0040000000
(1719214772.525823) can1 122#440400FE07000010
(1719214772.526015) can1 09F#723D5B89010480F0
(1719214772.526267) can1 0A8#2DD31F888A640000
(1719214772.526503) can1 11D#CA0600007E200000
(1719214772.526755) can1 12E#CAE47F000000C0FF
(1719214772.526960) can1 31E#52E43F0000000000
(1719214772.527196) can1 3C7#FD10040000408300
(1719214772.527391) can1 17330A00#1281
(1719214772.528478) can1 17331F10#37C40A
(1719214772.529178) can1 497#0600000041470018
(1719214772.530837) can1 5F0#A9E46400004B0000
(1719214772.532734) can1 17332610#C10000000A000003
(1719214772.533583) can1 0B2#0000000000000000
(1719214772.533809) can1 116#C40E0000000000FF
(1719214772.534026) can1 11E#DC0E00000002E0FF
(1719214772.534321) can1 31B#E376000000008000
(1719214772.535010) can1 086#3F0E092E00000000
(1719214772.535243) can1 120#740A00010004FF01
(1719214772.535473) can1 121#670A000030677EFE
(1719214772.535710) can1 0A7#39F49E7AFDA9A71E
(1719214772.535971) can1 0A8#81D41F888A640000
(1719214772.536210) can1 09F#A43E5B89010380F0
(1719214772.536447) can1 147#0000000000000000
(1719214772.536687) can1 23D#0000F8FFFFFF3F00
(1719214772.536901) can1 32A#A702000000020000
(1719214772.537175) can1 33C#0080012080000000
(1719214772.542502) can1 3DD#8A1C100000000000
(1719214772.542997) can1 1B000076#7600010105000000
(1719214772.543547) can1 0B2#0000000000000000
(1719214772.543802) can1 0FD#23EF3F8000000000
(1719214772.544070) can1 101#1D7F7F0082000000
(1719214772.544302) can1 106#780F63000000FE00
(1719214772.544584) can1 117#40050040680000FF
(1719214772.544977) can1 16A9540A#0000000000000000
(1719214772.545198) can1 086#5B0F092E00000000
(1719214772.545390) can1 0A7#42F59E7AFDA9A71E
(1719214772.545642) can1 107#0000FE0040000000
(1719214772.545879) can1 122#DD0500FE07000010
(1719214772.546129) can1 09F#BA3F5B89010480F0
(1719214772.546368) can1 0A8#EBD51F888A640000
(1719214772.546599) can1 11D#AE0700007E200000
(1719214772.546878) can1 11B#0000000000000000
(1719214772.547106) can1 12E#2AE57F000000C0FF
(1719214772.547310) can1 32C#0003000098240810
(1719214772.547594) can1 12B#794B802A00000000
(1719214772.547823) can1 676#0000430000008201
(1719214772.548062) can1 365#960000000000003C
(1719214772.548392) can1 040#160400054000000C
(1719214772.548629) can1 2B7#04020000000000FE
(1719214772.550065) can1 30B#5F02800008000000
(1719214772.550381) can1 1A55552F#00508BFF0F2E0B00
(1719214772.552497) can1 385#0000000000000000
(1719214772.552722) can1 3E8#0000000000000000
(1719214772.552970) can1 3FE#0000000000000000
(1719214772.553585) can1 0B2#0000000000000000
(1719214772.553820) can1 116#A00F0000000000FF
(1719214772.554061) can1 11E#B80F00000002E0FF
(1719214772.554277) can1 380#0C026000000000FF
(1719214772.554645) can1 17330A10#803D428103010A00
(1719214772.555040) can1 086#1900092E00000000
(1719214772.555288) can1 120#D80B00010004FF01
(1719214772.555491) can1 121#CC0B000030677EFE
(1719214772.555836) can1 0A8#DBD61F888A640000
(1719214772.555993) can1 15A#9C03000001820200
(1719214772.556230) can1 09F#82305B89010380F0
(1719214772.556457) can1 32F#007F000000000000
(1719214772.556719) can1 3BE#0E24070122C00880
(1719214772.556970) can1 147#0000000000000000
(1719214772.557163) can1 0A7#73E69E7AFDA9A71E
(1719214772.558941) can1 65A#0000001000803D00
(1719214772.559195) can1 381#FFFFFFFFFF000030
(1719214772.559469) can1 382#FFFFFFFFFF000030
(1719214772.562547) can1 1B000010#1000010525000000
(1719214772.562752) can1 3DB#5010010007100188
(1719214772.563595) can1 0B2#0000000000000000
(1719214772.563809) can1 0FD#59E03F8000000000
(1719214772.564037) can1 101#5F707F0082000000
(1719214772.564288) can1 106#3A0063000000FE00
(1719214772.564896) can1 117#EC060040680000FF
(1719214772.565108) can1 086#7D01092E00000000
(1719214772.565346) can1 0A7#FAE79E7AFDA9A71E
(1719214772.565585) can1 107#0000FE0040000000
(1719214772.565821) can1 0A8#CED71F888A640000
(1719214772.566062) can1 09F#E6315B89010380F0
(1719214772.566278) can1 11D#EC0800007E200000
(1719214772.566528) can1 122#240600FE07000010
(1719214772.566812) can1 12E#60E67F000000C0FF
(1719214772.567016) can1 12B#3C4C802A00000000
(1719214772.568996) can1 366#0000000080030000
(1719214772.572839) can1 17330710#C100000000000A00
(1719214772.573644) can1 0B2#0000000000000000
(1719214772.573867) can1 116#E2000000000000FF
(1719214772.574119) can1 11E#FA0000000002E0FF
(1719214772.575019) can1 086#D102092E00000000
(1719214772.575243) can1 120#020C00010004FF01
(1719214772.575483) can1 121#090C000030677EFE
(1719214772.575720) can1 0A7#B7E89E7AFDA9A71E
(1719214772.575949) can1 0A8#ECD81F888A640000
(1719214772.576184) can1 09F#4A325B89010380F0
(1719214772.576445) can1 147#0000000000000000
(1719214772.576676) can1 31E#2DE53F0000000000
(1719214772.576960) can1 16A954C2#EE022D0003000001
(1719214772.582612) can1 17332610#C200
(1719214772.582925) can1 5F0#A9E46400004B0000
(1719214772.583612) can1 0B2#0000000000000000
(1719214772.583811) can1 0FD#53E13F8000000000
(1719214772.584070) can1 31B#0377000000008000
(1719214772.584301) can1 101#DE017F0C82044000
(1719214772.584538) can1 106#5E0163000000FE00
(1719214772.584822) can1 497#0600000041470038
(1719214772.585041) can1 117#88070040680000FF
(1719214772.585267) can1 086#B503092E00000000
(1719214772.585502) can1 0A7#67E99E7AFDA9A71E
(1719214772.585753) can1 107#0000FE0040000000
(1719214772.585959) can1 0A8#9ED91F888A640000
(1719214772.586195) can1 09F#54335B89010480F0
(1719214772.586445) can1 11D#880900007E200000
(1719214772.586677) can1 32A#C303000000020000
(1719214772.586913) can1 3D5#CEC7400000000000
(1719214772.587186) can1 122#330700FE07000010
(1719214772.587391) can1 12E#73E77F000000C0FF
(1719214772.591680) can1 6B4#0000000000575647
(1719214772.593542) can1 0B2#0000000000000000
(1719214772.593813) can1 392#2904000000000004
(1719214772.594032) can1 11E#9E0100000002E0FF
(1719214772.594282) can1 116#86010000000000FF
(1719214772.594975) can1 086#A604092E00000000
(1719214772.595256) can1 120#B20D00010004FF01
(1719214772.595485) can1 121#1A0D000030677EFE
(1719214772.595691) can1 0A7#A8DA9E7AFDA9A71E
(1719214772.595974) can1 0A8#C1DA1F888A640000
(1719214772.596155) can1 09F#47345B89010480F0
(1719214772.596408) can1 147#0000000000000000
(1719214772.596645) can1 32C#0003000098240810
(1719214772.596955) can1 3D6#0E00000000000000
(1719214772.597200) can1 3FB#0000000000000023
(1719214772.597395) can1 365#960000000000003C
(1719214772.598429) can1 3D8#0010040000000000
(1719214772.598681) can1 040#0705000540000010
(1719214772.598905) can1 2B7#5D030000000000FE
(1719214772.599181) can1 48E#0000000000000000
(1719214772.600136) can1 30B#5F03800008000000
(1719214772.600432) can1 16A954C4#00FF000000000000
(1719214772.600680) can1 65E#0000860100000000
(1719214772.601079) can1 16A954C7#F40100001ED40400
(1719214772.603604) can1 0B2#0000000000000000
(1719214772.603816) can1 0FD#9CE23F8000000000
(1719214772.604088) can1 101#08027F0C82034000
(1719214772.604296) can1 106#F20263000000FE00
(1719214772.604748) can1 17330A10#C0040608007807FC
(1719214772.604907) can1 3E5#A314000000000000
(1719214772.605196) can1 086#C205092E00000000
(1719214772.605420) can1 0A7#C6DB9E7AFDA9A71E
(1719214772.605671) can1 107#0000FE0040000000
(1719214772.605878) can1 0A8#0CDB1F888A640000
(1719214772.606112) can1 09F#59355B89010380F0
(1719214772.606352) can1 117#CA080040680000FF
(1719214772.606591) can1 11D#240A00007E200000
(1719214772.606827) can1 122#4A0800FE07000010
(1719214772.607065) can1 32F#007F000000000000
(1719214772.607351) can1 12B#684D802A00000000
(1719214772.607647) can1 12E#1AE87F000000C0FF
(1719214772.607883) can1 3B5#00FE12020C002000
(1719214772.608132) can1 668#0200000000000000
(1719214772.608373) can1 520#9303000800AA4605
(1719214772.608656) can1 545#0000500001000100
(1719214772.610155) can1 1B000012#1200010205000000
(1719214772.613578) can1 0B2#0000000000000000
(1719214772.613755) can1 116#2A020000000000FF
(1719214772.614017) can1 11E#320200000002E0FF
(1719214772.614721) can1 3C0#C1010300
(1719214772.614996) can1 086#6E06092E00000000
(1719214772.615233) can1 120#D90E00010004FF01
(1719214772.615471) can1 121#890E000030677EFE
(1719214772.615710) can1 0A8#12DC1F888A640000
(1719214772.615902) can1 0A7#79DC9E7AFDA9A71E
(1719214772.616176) can1 09F#8F365B89010480F0
(1719214772.616426) can1 147#0000000000000000
(1719214772.616664) can1 23D#0000F8FFFFFF3F00
(1719214772.616903) can1 33C#0080012080000000
(1719214772.617175) can1 391#004D270000290000
(1719214772.622781) can1 17330710#C201000000000050
(1719214772.623642) can1 0B2#0000000000000000
(1719214772.623821) can1 0FD#E9E33F8000000000
(1719214772.624061) can1 101#6C037F0C82034000
(1719214772.624344) can1 106#960363000000FE00
(1719214772.624596) can1 117#AE090040680000FF
(1719214772.625013) can1 086#0A07092E00000000
(1719214772.625242) can1 010#D0A3548B5140D3E8
(1719214772.625492) can1 0A7#89DD9E7AFDA9A71E
(1719214772.625731) can1 107#0000FE0040000000
(1719214772.625968) can1 122#230900FE07000010
(1719214772.626197) can1 09F#EB375B89010480F0
(1719214772.626446) can1 0A8#01DD1F888A640000
(1719214772.626685) can1 11D#400B00007E200000
(1719214772.626900) can1 12E#66E97F000000C0FF
(1719214772.627174) can1 31E#AAE63F0000000000
(1719214772.627425) can1 12B#274E802A00000000
(1719214772.627615) can1 3C7#1410050000408300
(1719214772.633836) can1 0B2#0000000000000000
(1719214772.634015) can1 116#4E030000000000FF
(1719214772.634267) can1 11E#560300000002E0FF
(1719214772.634503) can1 380#68036000000000FF
(1719214772.634754) can1 31B#0178000000008000
(1719214772.635007) can1 086#4808092E00000000
(1719214772.635243) can1 120#0C0F00010004FF01
(1719214772.635474) can1 121#3F0F000030677EFE
(1719214772.635710) can1 0A7#02DE9E7AFDA9A71E
(1719214772.635971) can1 0A8#B3DE1F888A640000
(1719214772.636210) can1 147#0000000000000000
(1719214772.636448) can1 09F#D3385B89010380F0
(1719214772.636641) can1 32A#D004000000020000
(1719214772.638501) can1 1B000015#1500010205000000
(1719214772.639190) can1 381#FFFFFFFFFF000040
(1719214772.639440) can1 382#FFFFFFFFFF000040
(1719214772.639697) can1 497#0600000041470038
(1719214772.641314) can1 011#0ED423630000007F
(1719214772.642499) can1 3DD#8A1C100000000000
(1719214772.643852) can1 0B2#0000000000000000
(1719214772.644019) can1 0FD#7FE43F8000000000
(1719214772.644272) can1 101#40047F0C82064000
(1719214772.644509) can1 106#850463000000FE00
(1719214772.644827) can1 117#020A0040680000FF
(1719214772.645054) can1 086#2C09092E00000000
(1719214772.645307) can1 0A7#DCDF9E7AFDA9A71E
(1719214772.645545) can1 107#0000FE0040000000
(1719214772.645829) can1 32C#0003000098240810
(1719214772.646019) can1 09F#CD395B89010480F0
(1719214772.646273) can1 0A8#3CDF1F888A640000
(1719214772.646509) can1 11B#0000000000000000
(1719214772.646760) can1 11D#530C00007E200000
(1719214772.646963) can1 365#960000000000003C
(1719214772.647201) can1 122#880A00FE07000010
(1719214772.647451) can1 12E#3AEA7F000000C0FF
(1719214772.648407) can1 040#5606000540000012
(1719214772.648621) can1 2B7#ED040000000000FE
(1719214772.650520) can1 30B#5F04800008000000
(1719214772.653885) can1 0B2#0000000000000000
(1719214772.654096) can1 1AB#9D05842A00001000
(1719214772.654335) can1 11E#6B04000000000000
(1719214772.654573) can1 116#5D040000000000FF
(1719214772.654809) can1 1A2#7803000000000000
(1719214772.655027) can1 086#800A092E00000000
(1719214772.655277) can1 120#C60000010004FF01
(1719214772.655517) can1 121#F100000030677EFE
(1719214772.655821) can1 15A#3804000001820200
(1719214772.656005) can1 09F#613A5B89010480F0
(1719214772.656253) can1 3BE#7125070122C00880
(1719214772.656537) can1 17330A10#C181C00600000A10
(1719214772.656810) can1 0A7#15D09E7AFDA9A71E
(1719214772.656994) can1 670#15100000FE000080
(1719214772.657253) can1 0A8#54D01F888A640000
(1719214772.657502) can1 32F#007F000000000000
(1719214772.657751) can1 147#0000000000000000
(1719214772.659032) can1 65A#0000001000803D00
(1719214772.662544) can1 3DB#5010010007100188
(1719214772.663834) can1 0B2#0000000000000000
(1719214772.664036) can1 0FD#E5E53F8000000000
(1719214772.664287) can1 101#91057F0C82074000
(1719214772.664526) can1 106#730564000000FE00
(1719214772.664808) can1 117#660B0040680000FF
(1719214772.665092) can1 086#E40B092E00000000
(1719214772.665276) can1 0A7#9DD19E7AFDA9A71E
(1719214772.665526) can1 107#0000FE0040000000
(1719214772.665809) can1 122#590B00FE07000010
(1719214772.666014) can1 09F#053B5B89010480F0
(1719214772.666221) can1 0A8#2ED11F888A640000
(1719214772.666458) can1 11D#370D00007E200000
(1719214772.666695) can1 12E#CEEB7F000000C0FF
(1719214772.666956) can1 12B#0D4F802A00000000
(1719214772.672473) can1 3EC#E100000000022000
(1719214772.672918) can1 17330710#C300
(1719214772.673820) can1 0B2#0000000000000000
(1719214772.674068) can1 116#39050000000000FF
(1719214772.674300) can1 11E#0F05000000000000
(1719214772.674966) can1 086#F70C092E00000000
(1719214772.675195) can1 120#820100010008FF01
(1719214772.675434) can1 121#9D01000030677EFE
(1719214772.675650) can1 0A7#4BC29E7AFDA9A71E
(1719214772.675899) can1 0A8#C2D21F888A640000
(1719214772.676139) can1 09F#6C3C5B89010380F0
(1719214772.676376) can1 147#0000000000000000
(1719214772.676615) can1 31E#ACE73F0000000000
(1719214772.676867) can1 3FB#0000000000000024
(1719214772.678500) can1 17331F10#37CE0F
(1719214772.683768) can1 0B2#0000000000000000
(1719214772.683969) can1 0FD#F7E63F8000000000
(1719214772.684216) can1 31B#8079000000008000
(1719214772.684450) can1 101#DC067F0D82064000
(1719214772.684685) can1 106#4D0663000000FE00
(1719214772.684968) can1 117#750C0040680000FF
(1719214772.685216) can1 086#930D092E00000000
(1719214772.685398) can1 0A7#CAC39E7AFDA9A71E
(1719214772.685672) can1 107#0000FE0040000000
(1719214772.685899) can1 0A8#2DD31F888A640000
(1719214772.686127) can1 09F#723D5B89010480F0
(1719214772.686377) can1 11D#9B0E00007E200000
(1719214772.686615) can1 122#090C00FE07000010
(1719214772.686867) can1 32A#B405000000020000
(1719214772.687103) can1 12E#6DEC7F000000C0FF
(1719214772.687353) can1 1B000013#130001020D000000
(1719214772.687592) can1 12B#8640802A00000000
(1719214772.687875) can1 3D5#CBC8400000000000
(1719214772.688220) can1 16A954C2#F6020C0200000001
(1719214772.693739) can1 0B2#0000000000000000
(1719214772.693966) can1 392#4D05000000000004
(1719214772.694196) can1 11E#A306000000000000
(1719214772.694445) can1 116#95060000000000FF
(1719214772.694850) can1 3D6#0F00000000000000
(1719214772.695070) can1 086#3F0E092E00000000
(1719214772.695310) can1 120#7A0200010008FF01
(1719214772.695526) can1 121#1202000030677EFE
(1719214772.695821) can1 0A7#F0C49E7AFDA9A71E
(1719214772.696012) can1 09F#A43E5B89010380F0
(1719214772.696264) can1 0A8#81D41F888A640000
(1719214772.696501) can1 32C#0003000098240810
(1719214772.696751) can1 147#0000000000000000
(1719214772.697004) can1 365#960000000000003C
(1719214772.697240) can1 23D#0000F8FFFFFF3F00
(1719214772.697472) can1 33C#0080012080000000
(1719214772.698473) can1 3D8#0000040000000000
(1719214772.698677) can1 040#1A07000540000014
(1719214772.699032) can1 16A954C6#F30401000000000B
(1719214772.699253) can1 48E#0000000000000000
(1719214772.699491) can1 2B7#15050000000000FE
(1719214772.699723) can1 497#0600000041470038
(1719214772.700105) can1 30B#5F05800008000000
(1719214772.701089) can1 16A954C7#EA01030000000000
(1719214772.703835) can1 0B2#0000000000000000
(1719214772.703993) can1 0FD#CDE73F8000000000
(1719214772.704243) can1 101#0D077F0D82074000
(1719214772.704482) can1 106#BB0764000000FE00
(1719214772.704836) can1 17330A10#C204040000000100
(1719214772.704994) can1 117#110D0040680000FF
(1719214772.705243) can1 086#5B0F092E00000000
(1719214772.705482) can1 107#0000FE0040000000
(1719214772.705721) can1 0A7#8BC59E7AFDA9A71E
(1719214772.705952) can1 0A8#EBD51F888A640000
(1719214772.706185) can1 11D#FF0F00007E200000
(1719214772.706448) can1 09F#BA3F5B89010480F0
(1719214772.706677) can1 122#0B0D00FE07000010
(1719214772.706916) can1 32F#007F000000000000
(1719214772.707141) can1 12E#47ED7F000000C0FF
(1719214772.707394) can1 3B5#00FE12020C002000
(1719214772.707631) can1 3E5#E215000000000000
(1719214772.713702) can1 0B2#0000000000000000
(1719214772.713951) can1 116#F1070000000000FF
(1719214772.714203) can1 11E#C707000000000000
(1719214772.714442) can1 380#7B046000000000FF
(1719214772.714817) can1 3C0#31020300
(1719214772.715019) can1 086#1900092E00000000
(1719214772.715228) can1 120#A80300010008FF01
(1719214772.715465) can1 121#E003000030677EFE
(1719214772.715703) can1 0A7#18C69E7AFDA9A71E
(1719214772.715960) can1 0A8#DBD61F888A640000
(1719214772.716200) can1 09F#F8305B89010480F0
(1719214772.716432) can1 147#0000000000000000
(1719214772.716622) can1 5A0#010F802078
(1719214772.716870) can1 65F#0030000000002C7F
(1719214772.717100) can1 56F#0000B8037DFC0000
(1719214772.717351) can1 391#004D270000290000
(1719214772.719181) can1 381#FFFFFFFFFF000050
(1719214772.719440) can1 382#FFFFFFFFFF000050
(1719214772.723814) can1 0B2#0000000000000000
(1719214772.724044) can1 0FD#0AE83F8000000000
(1719214772.724294) can1 101#C5087F0D82034000
(1719214772.724531) can1 106#6B0863000000FE00
(1719214772.724816) can1 117#BD0E0040680000FF
(1719214772.725075) can1 086#7D01092E00000000
(1719214772.725260) can1 0A7#91C79E7AFDA9A71E
(1719214772.725508) can1 107#0000FE0040000000
(1719214772.725748) can1 122#8A0E00FE07000010
(1719214772.725976) can1 09F#9C315B89010480F0
(1719214772.726260) can1 0A8#CED71F888A640000
(1719214772.726508) can1 11D#BD0000007E200000
(1719214772.726747) can1 12E#9DEE7F000000C0FF
(1719214772.726976) can1 31E#E5E83F0000000000
(1719214772.727222) can1 12B#F441802A00000000
(1719214772.727450) can1 3C7#FD10060000408300
(1719214772.733851) can1 0B2#0000000000000000
(1719214772.734020) can1 116#B3080000000000FF
(1719214772.734271) can1 11E#8508000000000000
(1719214772.734506) can1 31B#DA7A000000008000
(1719214772.734873) can1 5F0#A9E46400004B0000
(1719214772.735110) can1 086#D102092E00000000
(1719214772.735351) can1 120#FE0400010008FF01
(1719214772.735587) can1 121#5D04000030677EFE
(1719214772.735826) can1 0A7#DCC89E7AFDA9A71E
(1719214772.736055) can1 09F#30325B89010480F0
(1719214772.736257) can1 0A8#ECD81F888A640000
(1719214772.736531) can1 147#0000000000000000
(1719214772.736827) can1 32A#1806000000020000
(1719214772.742517) can1 3DD#8A1C100000000000
(1719214772.742952) can1 1B000076#7600010105000000
(1719214772.743825) can1 0B2#0000000000000000
(1719214772.744066) can1 0FD#38E93F8000000000
(1719214772.744282) can1 101#A1097F0D82034000
(1719214772.744532) can1 106#9D0964000000FE00
(1719214772.744813) can1 117#D90F0040680000FF
(1719214772.745031) can1 086#B503092E00000000
(1719214772.745353) can1 107#0000FE0040000000
(1719214772.745555) can1 0A7#0CC99E7AFDA9A71E
(1719214772.745756) can1 0A8#9ED91F888A640000
(1719214772.746012) can1 09F#54335B89010480F0
(1719214772.746247) can1 11B#0000000000000000
(1719214772.746531) can1 11D#D90100007E200000
(1719214772.746757) can1 32C#0003000098240810
(1719214772.746974) can1 365#960000000000003C
(1719214772.747248) can1 122#060F00FE07000010
(1719214772.747498) can1 12B#5042802A00000000
(1719214772.747735) can1 12E#9AEF7F000000C0FF
(1719214772.748418) can1 040#A508000540000016
(1719214772.748633) can1 2B7#23060000000010FE
(1719214772.750091) can1 30B#5F06800008000000
(1719214772.753817) can1 0B2#0000000000000000
(1719214772.754088) can1 116#D7090000000000FF
(1719214772.754294) can1 11E#E109000000000000
(1719214772.754576) can1 17330A10#C307040104FFFFFF
(1719214772.755009) can1 086#A604092E00000000
(1719214772.755247) can1 120#FC0500010008FF01
(1719214772.755479) can1 121#6A05000030677EFE
(1719214772.755714) can1 0A8#C1DA1F888A640000
(1719214772.755904) can1 15A#7105000001D20000
(1719214772.756180) can1 09F#47345B89010480F0
(1719214772.756430) can1 32F#007F000000000000
(1719214772.756668) can1 3BE#6C26070122C00880
(1719214772.756903) can1 147#0000000000000000
(1719214772.757134) can1 0A7#0ACA9E7AFDA9A71E
(1719214772.757383) can1 3FB#0000000000000040
(1719214772.758976) can1 65A#0000001000803D00
(1719214772.762545) can1 1B000010#1000010525000000
(1719214772.762816) can1 3DB#5010010007100188
(1719214772.763815) can1 0B2#0000000000000000
(1719214772.764032) can1 0FD#74EA3F8000000000
(1719214772.764279) can1 101#660A7F0C82064000
(1719214772.764520) can1 106#A30A63000000FE00
(1719214772.764824) can1 117#9B000040680000FF
(1719214772.765098) can1 086#C205092E00000000
(1719214772.765301) can1 0A7#64CB9E7AFDA9A71E
(1719214772.765530) can1 107#0000FE0040000000
(1719214772.765825) can1 0A8#C1DBFF878A640000
(1719214772.766017) can1 09F#23355B89010480F0
(1719214772.766266) can1 11D#750200007E200000
(1719214772.766505) can1 122#120000FE07000010
(1719214772.766756) can1 12E#B3E07F000000C0FF
(1719214772.773833) can1 0B2#0000000000000000
(1719214772.774035) can1 116#7B0A0000000000FF
(1719214772.774286) can1 11E#4D0A000000000000
(1719214772.774993) can1 086#6E06092E00000000
(1719214772.775206) can1 120#130600010008FF01
(1719214772.775445) can1 121#6D06000030677EFE
(1719214772.775684) can1 0A7#C4BC9E7AFDA9A71E
(1719214772.775899) can1 0A8#DFDCFF878A640000
(1719214772.776173) can1 09F#F5365B89010380F0
(1719214772.776376) can1 147#0000000000000000
(1719214772.776650) can1 23D#0000F8FFFFFF3F00
(1719214772.776872) can1 31E#DAE93F0000000000
(1719214772.777148) can1 33C#0080012080000000
(1719214772.783840) can1 0B2#0000000000000000
(1719214772.784024) can1 0FD#5BEB3F8000000000
(1719214772.784253) can1 31B#157B000000008000
(1719214772.784501) can1 101#470B7F0C82044000
(1719214772.784740) can1 106#C70B63000000FE00
(1719214772.784968) can1 117#FF010040680000FF
(1719214772.785207) can1 086#0A07092E00000000
(1719214772.785445) can1 107#0000FE0040000000
(1719214772.785684) can1 0A7#34BD9E7AFDA9A71E
(1719214772.785899) can1 0A8#CCDDFF878A640000
(1719214772.786173) can1 09F#EB375B89010480F0
(1719214772.786423) can1 11D#110300007E200000
(1719214772.786662) can1 122#990100FE07000010
(1719214772.786868) can1 32A#7C07000000020000
(1719214772.787105) can1 12E#BDE17F000000C0FF
(1719214772.787389) can1 12B#0843802A00000000
(1719214772.787640) can1 3D5#F5C9400000000000
(1719214772.791269) can1 6B4#015A5A5A43315A4B
(1719214772.793834) can1 0B2#0000000000000000
(1719214772.794040) can1 392#E106000000000004
(1719214772.794290) can1 11E#290B000000000000
(1719214772.794531) can1 116#1F0B0000000000FF
(1719214772.794815) can1 380#1F056000000000FF
(1719214772.795019) can1 086#4808092E00000000
(1719214772.795269) can1 120#110700010008FF01
(1719214772.795506) can1 121#3E07000030677EFE
(1719214772.795757) can1 0A7#BFBE9E7AFDA9A71E
(1719214772.795963) can1 0A8#7EDEFF878A640000
(1719214772.796196) can1 09F#A9385B89010480F0
(1719214772.796448) can1 147#0000000000000000
(1719214772.796680) can1 32C#0003000098240810
(1719214772.796964) can1 16A954C2#0302FF2FF8FF3F08
(1719214772.797245) can1 365#950000000000003C
(1719214772.797519) can1 3D6#0000000000000000
(1719214772.798427) can1 3D8#0000040000000000
(1719214772.798633) can1 040#910900054000001A
(1719214772.798905) can1 2B7#71070000000010FE
(1719214772.799201) can1 381#FFFFFFFFFF000060
(1719214772.799429) can1 382#FFFFFFFFFF000060
(1719214772.799723) can1 48E#0000000000000000
(1719214772.799972) can1 497#0600000041470038
(1719214772.800213) can1 30B#5F07800008000000
(1719214772.800451) can1 6B2#D2341E81B19BCE06
(1719214772.801077) can1 16A954C7#E601D40400000000
(1719214772.803885) can1 0B2#0000000000000000
(1719214772.804133) can1 0FD#C2EC3F8000000000
(1719214772.804325) can1 101#540C7F0C82044000
(1719214772.804599) can1 106#D40C63000000FE00
(1719214772.804869) can1 17330A10#C4FF0000FFFFFFFF
(1719214772.805102) can1 086#2C09092E00000000
(1719214772.805339) can1 0A7#61BF9E7AFDA9A71E
(1719214772.805576) can1 107#0000FE0040000000
(1719214772.805811) can1 0A8#F1DFFF878A640000
(1719214772.806030) can1 09F#CD395B89010480F0
(1719214772.806325) can1 11D#020400007E200000
(1719214772.806553) can1 32F#007F000000000000
(1719214772.806823) can1 3E5#EB16000000000000
(1719214772.806983) can1 64A#00008000
(1719214772.807222) can1 117#53020040680000FF
(1719214772.807462) can1 122#630200FE07000010
(1719214772.807698) can1 12B#8844802A00000000
(1719214772.808076) can1 12E#74E27F000000C0FF
(1719214772.809051) can1 3B5#00FE12020C002000
(1719214772.809060) can1 520#8004000800AA4605
(1719214772.809085) can1 545#0000500001000100
(1719214772.809105) can1 668#0200000000000000
(1719214772.810176) can1 1B000012#1200010205000000
(1719214772.813837) can1 0B2#0000000000000000
(1719214772.814024) can1 116#0C0C0000000000FF
(1719214772.814319) can1 11E#3A0C000000000000
(1719214772.814593) can1 17F00013#20130000001E0000
(1719214772.814750) can1 3C0#84030300
(1719214772.815004) can1 086#800A092E00000000
(1719214772.815240) can1 120#480800010008FF01
(1719214772.815471) can1 121#FD08000030677EFE
(1719214772.815707) can1 0A7#A8B09E7AFDA9A71E
(1719214772.815899) can1 0A8#54D01F888A640000
(1719214772.816172) can1 09F#613A5B89010480F0
(1719214772.816423) can1 147#0000000000000000
(1719214772.817174) can1 640#0257FE717E200300
(1719214772.817422) can1 17F00076#2076000000000000
(1719214772.817673) can1 647#70FDFF7F00000062
(1719214772.817908) can1 391#004D1D0000290000
(1719214772.823845) can1 0B2#0000000000000000
(1719214772.824057) can1 0FD#4BED3F8000000000
(1719214772.824274) can1 101#750D7F0C82064000
(1719214772.824524) can1 106#B00D63000000FE00
(1719214772.824808) can1 117#37030040680000FF
(1719214772.825067) can1 086#E40B092E00000000
(1719214772.825298) can1 0A7#20B19E7AFDA9A71E
(1719214772.825535) can1 107#0000FE0040000000
(1719214772.825818) can1 122#460300FE07000010
(1719214772.826011) can1 09F#053B5B89010480F0
(1719214772.826263) can1 0A8#2ED11F888A640000
(1719214772.826499) can1 11D#660500007E200000
(1719214772.826703) can1 12E#EDE37F000000C0FF
(1719214772.826955) can1 31E#EEEA3F0000000000
(1719214772.827250) can1 3C7#1410070000408300
(1719214772.833839) can1 0B2#0000000000000000
(1719214772.834036) can1 116#680D0000000000FF
(1719214772.834286) can1 11E#5E0D000000000000
(1719214772.834525) can1 31B#2C7C000000008000
(1719214772.834994) can1 086#F70C092E00000000
(1719214772.835241) can1 120#1E0900010008FF01
(1719214772.835444) can1 121#0209000030677EFE
(1719214772.835673) can1 0A7#54B29E7AFDA9A71E
(1719214772.835946) can1 0A8#C2D21F888A640000
(1719214772.836149) can1 09F#163C5B89010480F0
(1719214772.836423) can1 147#0000000000000000
(1719214772.836626) can1 32A#4E081A0000020000
(1719214772.836901) can1 3FB#0000000000000041
(1719214772.838495) can1 1B000015#1500010205000000
(1719214772.842480) can1 3DD#8A1C100000000000
(1719214772.843836) can1 0B2#0000000000000000
(1719214772.844088) can1 0FD#B4EE3F8000000000
(1719214772.844290) can1 101#A30E7F0C82014000
(1719214772.844575) can1 106#1C0E63000000FE00
(1719214772.844870) can1 117#24040040680000FF
(1719214772.845098) can1 086#930D092E00000000
(1719214772.845302) can1 0A7#D5B39E7AFDA9A71E
(1719214772.845576) can1 107#0000FE0040000000
(1719214772.845824) can1 32C#0003000098240810
(1719214772.846065) can1 09F#083D5B89010380F0
(1719214772.846306) can1 0A8#2DD31F888A640000
(1719214772.846532) can1 11D#CA0600007E200000
(1719214772.846814) can1 11B#0000000000000000
(1719214772.847029) can1 365#950000000000003C
(1719214772.847277) can1 557#0000000000000000
(1719214772.847510) can1 122#440400FE07000010
(1719214772.847813) can1 12B#2D45802A00000000
(1719214772.847998) can1 12E#CAE47F000000C0FF
(1719214772.848375) can1 040#150A00054000001C
(1719214772.848622) can1 2B7#A3080000000010FE
(1719214772.848927) can1 17331F10#37C203001F000301
(1719214772.850361) can1 30B#7F08800008000000
(1719214772.853830) can1 0B2#0000000000000000
(1719214772.854018) can1 1AB#ED06842A00001000
(1719214772.854270) can1 11E#F20E000000000000
(1719214772.854506) can1 116#C40E0000000000FF
(1719214772.854755) can1 1A2#3404000000000000
(1719214772.855010) can1 086#3F0E092E00000000
(1719214772.855246) can1 17330A10#C500000000FF0001
(1719214772.855530) can1 120#C50A00010008FF01
(1719214772.855756) can1 121#670A000030677EFE
(1719214772.855972) can1 15A#B106000001D20000
(1719214772.856201) can1 09F#DE3E5B89010480F0
(1719214772.856451) can1 0A8#81D41F888A640000
(1719214772.856688) can1 23D#0000F8FFFFFF3F00
(1719214772.856974) can1 32F#007F000000000000
(1719214772.857166) can1 3BE#E027070122C00880
(1719214772.857439) can1 147#0000000000000000
(1719214772.857642) can1 0A7#EFB49E7AFDA9A71E
(1719214772.857918) can1 2C2#000000FC07000000
(1719214772.858155) can1 33C#0080012080000000
(1719214772.862563) can1 3DB#5010010007100188
(1719214772.863750) can1 0B2#0000000000000000
(1719214772.863973) can1 0FD#23EF3F8000000000
(1719214772.864212) can1 101#820F7F0C82034000
(1719214772.864450) can1 106#EA0F64000000FE00
(1719214772.864731) can1 117#40050040680000FF
(1719214772.865017) can1 086#5B0F092E00000000
(1719214772.865302) can1 107#0000FE0040000000
(1719214772.865483) can1 0A7#94B59E7AFDA9A71E
(1719214772.865731) can1 0A8#EBD51F888A640000
(1719214772.865970) can1 122#DD0500FE07000010
(1719214772.866199) can1 09F#C03F5B89010380F0
(1719214772.866448) can1 11D#AE0700007E200000
(1719214772.866684) can1 12E#2AE57F000000C0FF
(1719214772.866901) can1 12B#3446802A00000000
(1719214772.872518) can1 3EC#E100000000022000
(1719214772.873822) can1 0B2#0000000000000000
(1719214772.873958) can1 116#A00F0000000000FF
(1719214772.874244) can1 11E#960F000000000000
(1719214772.874473) can1 380#B3066000000000FF
(1719214772.874974) can1 086#1900092E00000000
(1719214772.875196) can1 120#690B00010008FF01
(1719214772.875429) can1 121#CC0B000030677EFE
(1719214772.875666) can1 0A7#07B69E7AFDA9A71E
(1719214772.875904) can1 0A8#DBD61F888A640000
(1719214772.876176) can1 09F#F8305B89010480F0
(1719214772.876428) can1 147#0000000000000000
(1719214772.876619) can1 31E#C8EB3F0000000000
(1719214772.879158) can1 381#FFFFFFFFFF000070
(1719214772.879426) can1 382#FFFFFFFFFF000070
(1719214772.883745) can1 0B2#0000000000000000
(1719214772.883951) can1 0FD#59E03F8000000000
(1719214772.884200) can1 31B#277D000000008000
(1719214772.884437) can1 101#94007F0D82034000
(1719214772.884655) can1 106#3A0063000000FE00
(1719214772.884903) can1 117#EC060040680000FF
(1719214772.885204) can1 086#7D01092E00000000
(1719214772.885370) can1 0A7#8EB79E7AFDA9A71E
(1719214772.885622) can1 107#0000FE0040000000
(1719214772.885881) can1 0A8#CED71F888A640000
(1719214772.886131) can1 09F#9C315B89010480F0
(1719214772.886369) can1 11D#EC0800007E200000
(1719214772.886601) can1 122#240600FE07000010
(1719214772.886813) can1 32A#2A091A0000020000
(1719214772.887051) can1 12E#60E67F000000C0FF
(1719214772.887379) can1 17F00012#2012000000000000
(1719214772.887620) can1 3D5#C6CA400000000000
(1719214772.887925) can1 1B000013#1300010205000000
(1719214772.888430) can1 17F00015#0015000000000000
(1719214772.893682) can1 0B2#0000000000000000
(1719214772.893914) can1 392#8507000000000004
(1719214772.894188) can1 11E#D400000000000000
(1719214772.894394) can1 116#E2000000000000FF
(1719214772.894879) can1 3D6#0100000000000000
(1719214772.895131) can1 086#D102092E00000000
(1719214772.895323) can1 120#B30C00010008FF01
(1719214772.895597) can1 121#090C000030677EFE
(1719214772.895822) can1 0A7#C3B89E7AFDA9A71E
(1719214772.896053) can1 09F#4A325B89010380F0
(1719214772.896303) can1 0A8#ECD81F888A640000
(1719214772.896541) can1 32C#0003000098240810
(1719214772.896823) can1 147#0000000000000000
(1719214772.897017) can1 365#950000000000003C
(1719214772.898475) can1 3D8#0000040000000000
(1719214772.898701) can1 040#8C0B00054000001E
(1719214772.898911) can1 2B7#CC090000000010FE
(1719214772.899195) can1 48E#0000000000000000
(1719214772.899447) can1 497#0600000041470038
(1719214772.899725) can1 54B#0000000000000024
(1719214772.900007) can1 17F0000A#000A000000000000
(1719214772.900245) can1 30B#7F09800008000000
(1719214772.901055) can1 16A954C7#E701100300000000
(1719214772.903628) can1 1AB#1B87842A00001000
(1719214772.903878) can1 0B2#0000000000000000
(1719214772.904178) can1 0FD#53E13F8000000000
(1719214772.904371) can1 101#44017F0D82010000
(1719214772.904601) can1 106#5E0163000000FE00
(1719214772.904877) can1 17330A10#C6010000FFFFFFFF
(1719214772.905108) can1 086#B503092E00000000
(1719214772.905357) can1 0A7#13B99E7AFDA9A71E
(1719214772.905596) can1 107#0000FE0040000000
(1719214772.905808) can1 0A8#9ED91F888A640000
(1719214772.906039) can1 09F#2E335B89010380F0
(1719214772.906289) can1 11D#880900007E200000
(1719214772.906572) can1 32F#007F000000000000
(1719214772.906820) can1 3E5#F717000000000000
(1719214772.907106) can1 117#88070040680000FF
(1719214772.907335) can1 122#330700FE07000010
(1719214772.907595) can1 12B#1147802A00000000
(1719214772.907806) can1 12E#73E77F000000C0FF
(1719214772.908117) can1 3B5#00FE12020C002000
(1719214772.910266) can1 5F0#ACE46400004B0000
(1719214772.913724) can1 0B2#0000000000000000
(1719214772.913958) can1 116#86010000000000FF
(1719214772.914199) can1 11E#B001000000000000
(1719214772.914814) can1 3C0#FE040300
(1719214772.914996) can1 086#A604092E00000000
(1719214772.915243) can1 120#030D00010008FF01
(1719214772.915485) can1 121#1A0D000030677EFE
(1719214772.915723) can1 0A7#15BA9E7AFDA9A71E
(1719214772.915951) can1 0A8#C1DA1F888A640000
(1719214772.916185) can1 09F#3D345B89010380F0
(1719214772.916447) can1 147#0000000000000000
(1719214772.916679) can1 3FB#0000000000000042
(1719214772.916915) can1 391#004D1D0000290000
(1719214772.917141) can1 5A0#010F802078
(1719214772.923859) can1 0B2#0000000000000000
(1719214772.923990) can1 0FD#9CE23F8000000000
(1719214772.924240) can1 101#AD027F0D82030000
(1719214772.924479) can1 106#600264000000FE00
(1719214772.924854) can1 117#CA080040680000FF
(1719214772.925035) can1 086#C205092E00000000
(1719214772.925238) can1 0A7#7BBB9E7AFDA9A71E
(1719214772.925513) can1 107#0000FE0040000000
(1719214772.925716) can1 122#4A0800FE07000010
(1719214772.925967) can1 09F#59355B89010380F0
(1719214772.926205) can1 0A8#0CDB1F888A640000
(1719214772.926444) can1 11D#240A00007E200000
(1719214772.926683) can1 12E#1AE87F000000C0FF
(1719214772.926897) can1 31E#6BEC3F0000000000
(1719214772.927171) can1 12B#C448802A00000000
(1719214772.927421) can1 3C7#FD10080000408300
(1719214772.933847) can1 0B2#0000000000000000
(1719214772.934010) can1 116#2A020000000000FF
(1719214772.934216) can1 11E#1C02000000000000
(1719214772.934499) can1 31B#627E000000008000
(1719214772.934991) can1 086#6E06092E00000000
(1719214772.935203) can1 120#680E00010008FF01
(1719214772.935442) can1 121#890E000030677EFE
(1719214772.935681) can1 0A7#C4BC9E7AFDA9A71E
(1719214772.935896) can1 0A8#12DC1F888A640000
(1719214772.936124) can1 09F#F5365B89010380F0
(1719214772.936374) can1 147#0000000000000000
(1719214772.936612) can1 23D#0000F8FFFFFF3F00
(1719214772.936863) can1 32A#860A1A0000020000
(1719214772.937099) can1 33C#0000012080000000
(1719214772.942673) can1 3DD#8A1C100000000000
(1719214772.942942) can1 1B000076#7600010105000000
(1719214772.943845) can1 0B2#0000000000000000
(1719214772.943964) can1 0FD#E9E33F8000000000
(1719214772.944203) can1 101#C8037F0D82004000
(1719214772.944442) can1 106#960363000000FE00
(1719214772.944846) can1 117#AE090040680000FF
(1719214772.945020) can1 086#0A07092E00000000
(1719214772.945294) can1 107#0000FE0040000000
(1719214772.945496) can1 0A7#34BD9E7AFDA9A71E
(1719214772.945724) can1 0A8#01DD1F888A640000
(1719214772.945964) can1 09F#91375B89010380F0
(1719214772.946203) can1 11B#0000000000000000
(1719214772.946442) can1 11D#400B00007E200000
(1719214772.946726) can1 32C#0003000098240810
(1719214772.946991) can1 365#950000000000003C
(1719214772.947216) can1 122#230900FE07000010
(1719214772.947454) can1 12E#66E97F000000C0FF
(1719214772.948447) can1 040#5D0C000540000020
(1719214772.948647) can1 2B7#C20A0000000010FE
(1719214772.950131) can1 30B#7F0A800008000000
(1719214772.953749) can1 0B2#0000000000000000
(1719214772.953966) can1 116#4E030000000000FF
(1719214772.954205) can1 11E#7803000000000000
(1719214772.954443) can1 380#D7076000000000FF
(1719214772.954829) can1 17330A10#C700010000010101
(1719214772.955025) can1 086#4808092E00000000
(1719214772.955251) can1 120#BD0F00010008FF01
(1719214772.955499) can1 121#3F0F000030677EFE
(1719214772.955739) can1 0A8#B3DE1F888A640000
(1719214772.955966) can1 15A#1D07000001820200
(1719214772.956206) can1 09F#A9385B89010480F0
(1719214772.956444) can1 32F#007F000000000000
(1719214772.956683) can1 3BE#1A28070122C00880
(1719214772.956897) can1 147#0000000000000000
(1719214772.957171) can1 0A7#BFBE9E7AFDA9A71E
(1719214772.959164) can1 381#FFFFFFFFFF000080
(1719214772.959421) can1 382#FFFFFFFFFF000080
(1719214772.962536) can1 1B000010#1000010525000000
(1719214772.962740) can1 3DB#5010010007100188
(1719214772.963016) can1 5F0#ACE46400004B0000
(1719214772.963747) can1 0B2#0000000000000000
(1719214772.963994) can1 0FD#7FE43F8000000000
(1719214772.964245) can1 101#DB047F0D82004000
(1719214772.964483) can1 106#170464000000FE00
(1719214772.964810) can1 117#020A0040680000FF
(1719214772.965040) can1 086#2C09092E00000000
(1719214772.965243) can1 0A7#61BF9E7AFDA9A71E
(1719214772.965494) can1 107#0000FE0040000000
(1719214772.965728) can1 0A8#3CDF1F888A640000
(1719214772.965971) can1 11D#530C00007E200000
(1719214772.966210) can1 09F#B7395B89010380F0
(1719214772.966452) can1 122#880A00FE07000010
(1719214772.966684) can1 12E#3AEA7F000000C0FF
(1719214772.966971) can1 12B#CC49802A00000000
(1719214772.973732) can1 0B2#0000000000000000
(1719214772.973964) can1 116#5D040000000000FF
(1719214772.974238) can1 11E#6B04000000000000
(1719214772.975028) can1 086#800A092E00000000
(1719214772.975238) can1 120#770000010008FF01
(1719214772.975469) can1 121#F100000030677EFE
(1719214772.975705) can1 0A7#0AA09E7AFDA9A71E
(1719214772.975896) can1 0A8#54D01F888A640000
(1719214772.976170) can1 09F#613A5B89010480F0
(1719214772.976421) can1 147#0000000000000000
(1719214772.976659) can1 31E#C2ED3F0000000000
(1719214772.983738) can1 0B2#0000000000000000
(1719214772.983962) can1 0FD#E5E53F8000000000
(1719214772.984191) can1 31B#A67F000000008000
(1719214772.984441) can1 101#5E057F0C82014000
(1719214772.984680) can1 106#E10563000000FE00
(1719214772.984895) can1 117#660B0040680000FF
(1719214772.985124) can1 086#E40B092E00000000
(1719214772.985373) can1 0A7#82A19E7AFDA9A71E
(1719214772.985612) can1 107#0000FE0040000000
(1719214772.985863) can1 0A8#2ED11F888A640000
(1719214772.986099) can1 09F#7F3B5B89010380F0
(1719214772.986327) can1 11D#370D00007E200000
(1719214772.986589) can1 122#590B00FE07000010
(1719214772.986803) can1 32A#E20B1A0000020000
(1719214772.987032) can1 12E#CEEB7F000000C0FF
(1719214772.987283) can1 12B#DC4A802A00000000
(1719214772.987522) can1 3D5#29CB400000000000
(1719214772.991352) can1 6B4#0000000000575647
(1719214772.993808) can1 0B2#0000000000000000
(1719214772.993991) can1 392#C708000000000004
(1719214772.994242) can1 11E#0F05000000000000
(1719214772.994482) can1 116#39050000000000FF
(1719214772.994807) can1 3D6#0200000000000000
(1719214772.995083) can1 086#F70C092E00000000
(1719214772.995343) can1 120#820100010008FF01
(1719214772.995536) can1 121#9D01000030677EFE
(1719214772.995807) can1 0A7#F6A29E7AFDA9A71E
(1719214772.995993) can1 09F#163C5B89010480F0
(1719214772.996230) can1 0A8#C2D21F888A640000
(1719214772.996502) can1 32C#0003000098240810
(1719214772.996776) can1 147#0000000000000000
(1719214772.996959) can1 365#950000000000003C
(1719214772.997254) can1 3FB#0000000000000043
(1719214772.998445) can1 3D8#0000040000000000
(1719214772.998650) can1 040#EC0D000540000024
(1719214772.998876) can1 2B7#B40B0000000010FE
(1719214772.999199) can1 48E#0000000000000000
(1719214772.999448) can1 497#0600000041470038
(1719214773.000104) can1 30B#7F0B800008000000
(1719214773.001085) can1 16A954C7#1201D40400000000
(1719214773.002971) can1 17332610#49920301
(1719214773.003845) can1 0B2#0000000000000000
(1719214773.004106) can1 0FD#F7E63F8000000000
(1719214773.004336) can1 101#F2067F0C82014000
(1719214773.004596) can1 106#4D0663000000FE00
(1719214773.004742) can1 17330A10#C801
(1719214773.004970) can1 3E5#5A18000000000000
(1719214773.005221) can1 086#930D092E00000000
(1719214773.005449) can1 0A7#77A39E7AFDA9A71E
(1719214773.005688) can1 107#0000FE0040000000
(1719214773.005900) can1 0A8#2DD31F888A640000
(1719214773.006176) can1 09F#723D5B89010480F0
(1719214773.006426) can1 117#750C0040680000FF
(1719214773.006664) can1 11D#9B0E00007E200000
(1719214773.006869) can1 122#090C00FE07000010
(1719214773.007108) can1 32F#007F000000000000
(1719214773.007347) can1 12E#6DEC7F000000C0FF
(1719214773.007650) can1 3B5#00FE12020C002000
(1719214773.008114) can1 668#0200000000000000
(1719214773.008390) can1 520#E405000800AA4605
(1719214773.008664) can1 545#0000500001000100
(1719214773.010130) can1 1B000012#1200010205000000
(1719214773.013747) can1 0B2#0000000000000000
(1719214773.013972) can1 116#95060000000000FF
(1719214773.014210) can1 11E#A306000000000000
(1719214773.014813) can1 3C0#4B050300
(1719214773.015002) can1 086#3F0E092E00000000
(1719214773.015231) can1 120#7A0200010008FF01
(1719214773.015480) can1 121#1202000030677EFE
(1719214773.015709) can1 0A7#4DA49E7AFDA9A71E
(1719214773.015914) can1 0A8#81D41F888A640000
(1719214773.016154) can1 09F#A43E5B89010380F0
(1719214773.016393) can1 147#0000000000000000
(1719214773.016675) can1 23D#0000F8FFFFFF3F00
(1719214773.016947) can1 33C#0000012080000000
(1719214773.017153) can1 391#004D1D0000290000
(1719214773.023724) can1 0B2#0000000000000000
(1719214773.023959) can1 0FD#CDE73F8000000000
(1719214773.024196) can1 101#A9077F0C82044000
(1719214773.024438) can1 106#BB0764000000FE00
(1719214773.024720) can1 117#110D0040680000FF
(1719214773.025017) can1 086#5B0F092E00000000
(1719214773.025267) can1 107#0000FE0040000000
(1719214773.025504) can1 0A7#36A59E7AFDA9A71E
(1719214773.025707) can1 0A8#EBD51F888A640000
(1719214773.025960) can1 122#0B0D00FE07000010
(1719214773.026186) can1 11D#FF0F00007E200000
(1719214773.026446) can1 09F#C03F5B89010380F0
(1719214773.026678) can1 12E#47ED7F000000C0FF
(1719214773.026914) can1 31E#B7EE3F0000000000
(1719214773.027185) can1 12B#794B802A00000000
(1719214773.027392) can1 3C7#1410080000408300
(1719214773.033720) can1 0B2#0000000000000000
(1719214773.033959) can1 116#F1070000000000FF
(1719214773.034196) can1 11E#C707000000000000
(1719214773.034437) can1 380#95086000000000FF
(1719214773.034676) can1 31B#AB70000000008000
(1719214773.034959) can1 086#1900092E00000000
(1719214773.035196) can1 120#A80300010008FF01
(1719214773.035437) can1 121#E003000030677EFE
(1719214773.035653) can1 0A7#A5A69E7AFDA9A71E
(1719214773.035902) can1 0A8#DBD61F888A640000
(1719214773.036140) can1 09F#F8305B89010480F0
(1719214773.036424) can1 147#0000000000000000
(1719214773.036654) can1 32A#F10C1A0000020000
(1719214773.038494) can1 1B000015#1500010205000000
(1719214773.039150) can1 381#FFFFFFFFFF000090
(1719214773.039426) can1 382#FFFFFFFFFF000090
(1719214773.042515) can1 3DD#8A1C100000000000
(1719214773.043743) can1 0B2#0000000000000000
(1719214773.044004) can1 0FD#0AE83F8000000000
(1719214773.044243) can1 101#AE087F0C82064000
(1719214773.044474) can1 106#F90864000000FE00
(1719214773.044756) can1 117#BD0E0040680000FF
(1719214773.045014) can1 086#7D01092E00000000
(1719214773.045254) can1 0A7#2CA79E7AFDA9A71E
(1719214773.045493) can1 107#0000FE0040000000
(1719214773.045724) can1 32C#0003000098240810
(1719214773.045969) can1 0A8#CED71F888A640000
(1719214773.046211) can1 09F#E6315B89010380F0
(1719214773.046448) can1 11B#0000000000000000
(1719214773.046687) can1 11D#BD0000007E200000
(1719214773.046899) can1 365#950000000000003C
(1719214773.047176) can1 122#8A0E00FE07000010
(1719214773.047426) can1 12B#3C4C802A00000000
(1719214773.047664) can1 12E#9DEE7F000000C0FF
(1719214773.048395) can1 040#BD0E000540000026
(1719214773.048643) can1 2B7#570C0000000010FE
(1719214773.050310) can1 30B#7F0C800008000000
(1719214773.050584) can1 643#0002030000000000
(1719214773.051177) can1 1A55552F#00708BFF0F2E0B00
(1719214773.053743) can1 0B2#0000000000000000
(1719214773.053994) can1 1AB#A688842A00001000
(1719214773.054244) can1 11E#8508000000000000
(1719214773.054490) can1 116#B3080000000000FF
(1719214773.054723) can1 1A2#9205000000000000
(1719214773.054924) can1 17330A10#42AE0000
(1719214773.055153) can1 086#D102092E00000000
(1719214773.055401) can1 120#FE0400010008FF01
(1719214773.055641) can1 121#5D04000030677EFE
(1719214773.055855) can1 0A8#ECD81F888A640000
(1719214773.056128) can1 09F#4A325B89010380F0
(1719214773.056328) can1 15A#F808000001820200
(1719214773.056605) can1 32F#007F000000000000
(1719214773.056811) can1 3BE#3929070122C00880
(1719214773.057094) can1 147#0000000000000000
(1719214773.057322) can1 0A7#61A89E7AFDA9A71E
(1719214773.058495) can1 17331F10#47D20101
(1719214773.062538) can1 3DB#5010010007100188
(1719214773.063831) can1 0B2#0000000000000000
(1719214773.063990) can1 0FD#38E93F8000000000
(1719214773.064242) can1 101#8F097F0C82044000
(1719214773.064481) can1 106#0F0963000000FE00
(1719214773.064809) can1 117#D90F0040680000FF
(1719214773.065035) can1 086#B503092E00000000
(1719214773.065287) can1 107#0000FE0040000000
(1719214773.065526) can1 0A7#B1A99E7AFDA9A71E
(1719214773.065808) can1 0A8#9ED91F888A640000
(1719214773.065990) can1 11D#D90100007E200000
(1719214773.066228) can1 09F#2E335B89010380F0
(1719214773.066456) can1 122#060F00FE07000010
(1719214773.066715) can1 12E#9AEF7F000000C0FF
(1719214773.072477) can1 3EC#E100000000022000
(1719214773.073831) can1 0B2#0000000000000000
(1719214773.073988) can1 116#D7090000000000FF
(1719214773.074237) can1 11E#E109000000000000
(1719214773.074986) can1 086#A604092E00000000
(1719214773.075237) can1 120#FC0500010008FF01
(1719214773.075429) can1 121#6A05000030677EFE
(1719214773.075702) can1 0A7#B7AA9E7AFDA9A71E
(1719214773.075894) can1 0A8#C1DA1F888A640000
(1719214773.076169) can1 09F#47345B89010480F0
(1719214773.076419) can1 147#0000000000000000
(1719214773.076657) can1 31E#5EEF3F0000000000
(1719214773.076895) can1 3FB#0000000000000044
(1719214773.080374) can1 3D8#0000240000000000
(1719214773.081167) can1 12DD5470#5201000000000000
(1719214773.083740) can1 0B2#0000000000000000
(1719214773.083985) can1 0FD#74EA3F8000000000
(1719214773.084236) can1 31B#7D71000000008000
(1719214773.084475) can1 101#590A7F0C82034000
(1719214773.084713) can1 106#A30A63000000FE00
(1719214773.084942) can1 117#9B000040680000FF
(1719214773.085178) can1 086#C205092E00000000
(1719214773.085384) can1 0A7#D9AB9E7AFDA9A71E
(1719214773.085636) can1 107#0000FE0040000000
(1719214773.085871) can1 0A8#0CDB1F888A640000
(1719214773.086121) can1 09F#59355B89010380F0
(1719214773.086360) can1 11D#750200007E200000
(1719214773.086591) can1 122#120000FE07000010
(1719214773.086802) can1 32A#950D1A0000020000
(1719214773.087086) can1 12E#B3E07F000000C0FF
(1719214773.087360) can1 1B000013#1300010205000000
(1719214773.087611) can1 12B#684D802A00000000
(1719214773.087870) can1 3D5#56CC400000000000
(1719214773.093711) can1 0B2#0000000000000000
(1719214773.093940) can1 392#A309000000000004
(1719214773.094190) can1 11E#4D0A000000000000
(1719214773.094429) can1 116#7B0A0000000000FF
(1719214773.094848) can1 3D6#0300000000000000
(1719214773.095099) can1 086#6E06092E00000000
(1719214773.095337) can1 120#900600060008FF01
(1719214773.095576) can1 121#6D06000030677EFE
(1719214773.095813) can1 0A7#66AC9E7AFDA9A71E
(1719214773.096007) can1 09F#F5365B89010380F0
(1719214773.096259) can1 0A8#12DC1F888A640000
(1719214773.096495) can1 32C#0003000098240810
(1719214773.096746) can1 147#0000000000000000
(1719214773.096998) can1 365#950000000000003C
(1719214773.097235) can1 23D#0000F8FFFFFF3F00
(1719214773.097526) can1 33C#0000012080000000
(1719214773.098444) can1 3D8#0000240000000000
(1719214773.098668) can1 040#740F000540000028
(1719214773.098904) can1 2B7#620D0000000010FE
(1719214773.099187) can1 48E#0000000000000000
(1719214773.099489) can1 497#0600000041470038
(1719214773.099987) can1 30B#7F0D800008000000
(1719214773.100522) can1 65E#0000860100000000
(1719214773.103826) can1 0B2#0000000000000000
(1719214773.103963) can1 0FD#5BEB3F8000000000
(1719214773.104201) can1 101#020B7F0C82064000
(1719214773.104440) can1 106#C70B63000000FE00
(1719214773.104824) can1 117#FF010040680000FF
(1719214773.105019) can1 086#0A07092E00000000
(1719214773.105251) can1 3E5#B719000000000000
(1719214773.105496) can1 107#0000FE0040000000
(1719214773.105735) can1 0A7#96AD9E7AFDA9A71E
(1719214773.105963) can1 0A8#01DD1F888A640000
(1719214773.106202) can1 09F#91375B89010380F0
(1719214773.106440) can1 11D#110300007E200000
(1719214773.106678) can1 122#990100FE07000010
(1719214773.106893) can1 32F#007F000000000000
(1719214773.107167) can1 12B#274E802A00000000
(1719214773.107417) can1 12E#BDE17F000000C0FF
(1719214773.107655) can1 3B5#00FE12020C002000
(1719214773.113680) can1 0B2#0000000000000000
(1719214773.113905) can1 116#1F0B0000000000FF
(1719214773.114187) can1 11E#290B000000000000
(1719214773.114425) can1 380#F1096000000000FF
(1719214773.114803) can1 3C0#BB060300
(1719214773.115007) can1 086#4808092E00000000
(1719214773.115215) can1 120#920700060008FF01
(1719214773.115451) can1 121#3E07000030677EFE
(1719214773.115689) can1 0A7#1DAE9E7AFDA9A71E
(1719214773.115949) can1 0A8#7EDEFF878A640000
(1719214773.116187) can1 09F#D3385B89010380F0
(1719214773.116418) can1 147#0000000000000000
(1719214773.116608) can1 5A0#010F802078
(1719214773.116905) can1 391#004D1D0000290000
(1719214773.119166) can1 381#FFFFFFFFFF0000A0
(1719214773.119418) can1 382#FFFFFFFFFF0000A0
(1719214773.123764) can1 0B2#0000000000000000
(1719214773.123969) can1 0FD#C2EC3F8000000000
(1719214773.124209) can1 101#2E0C7F0C82034000
(1719214773.124445) can1 106#D40C63000000FE00
(1719214773.125005) can1 117#53020040680000FF
(1719214773.125242) can1 086#2C09092E00000000
(1719214773.125495) can1 0A7#C3AF9E7AFDA9A71E
(1719214773.125707) can1 107#0000FE0040000000
(1719214773.125970) can1 122#630200FE07000010
(1719214773.126209) can1 09F#B7395B89010380F0
(1719214773.126447) can1 0A8#F1DFFF878A640000
(1719214773.126683) can1 11D#020400007E200000
(1719214773.126901) can1 12E#74E27F000000C0FF
(1719214773.127175) can1 31E#CDE03F0000000000
(1719214773.127424) can1 3C7#FD10080000408300
(1719214773.130337) can1 520#8506000800AA0600
(1719214773.133766) can1 0B2#0000000000000000
(1719214773.133970) can1 116#0C0C0000000000FF
(1719214773.134207) can1 11E#3A0C000000000000
(1719214773.134492) can1 31B#1E72000000008000
(1719214773.134928) can1 5F0#ACE46400004B0000
(1719214773.135127) can1 086#800A092E00000000
(1719214773.135367) can1 120#CB0800060008FF01
(1719214773.135597) can1 121#FD08000030677EFE
(1719214773.135809) can1 0A7#0AA09E7AFDA9A71E
(1719214773.136026) can1 09F#1B3A5B89010380F0
(1719214773.136275) can1 0A8#99D0FF878A640000
(1719214773.136560) can1 147#0000000000000000
(1719214773.136810) can1 32A#390E1A0000020000
(1719214773.142492) can1 3DD#8A1C100000000000
(1719214773.142915) can1 1B000076#7600010105000000
(1719214773.143842) can1 0B2#0000000000000000
(1719214773.144014) can1 0FD#4BED3F8000000000
(1719214773.144266) can1 101#4A0D7F0C82034000
(1719214773.144500) can1 106#220D64000000FE00
(1719214773.144913) can1 117#37030040680000FF
(1719214773.145152) can1 086#E40B092E00000000
(1719214773.145391) can1 0A7#82A19E7AFDA9A71E
(1719214773.145625) can1 107#0000FE0040000000
(1719214773.145856) can1 32C#0003000098240810
(1719214773.146107) can1 09F#053B5B89010480F0
(1719214773.146345) can1 0A8#E3D1FF878A640000
(1719214773.146581) can1 11B#0000000000000000
(1719214773.146819) can1 11D#660500007E200000
(1719214773.147060) can1 365#950000000000003C
(1719214773.147345) can1 122#460300FE07000010
(1719214773.147547) can1 12B#0D4F802A00000000
(1719214773.147821) can1 12E#EDE37F000000C0FF
(1719214773.148466) can1 040#CB0000054000002A
(1719214773.148629) can1 2B7#E60E0000000010FE
(1719214773.150027) can1 30B#7F0E800008000000
(1719214773.150468) can1 6B7#341E010500120087
(1719214773.150707) can1 6B8#BE07BC601D500000
(1719214773.153244) can1 520#D907000800AA0200
(1719214773.153814) can1 0B2#0000000000000000
(1719214773.154070) can1 116#680D0000000000FF
(1719214773.154301) can1 11E#5E0D000000000000
(1719214773.154979) can1 086#F70C092E00000000
(1719214773.155194) can1 120#9D0900060008FF01
(1719214773.155436) can1 121#0209000030677EFE
(1719214773.155651) can1 0A8#0FD2FF878A640000
(1719214773.155900) can1 15A#8509000001D20000
(1719214773.156137) can1 09F#6C3C5B89010380F0
(1719214773.156378) can1 3BE#F22A070122C00880
(1719214773.156617) can1 3FB#0000000000000060
(1719214773.156868) can1 0A7#F6A29E7AFDA9A71E
(1719214773.157102) can1 670#15100000FE000080
(1719214773.157377) can1 32F#007F000000000000
(1719214773.157625) can1 147#0000000000000000
(1719214773.162558) can1 1B000010#1000010525000000
(1719214773.162809) can1 3DB#5010010007100188
(1719214773.163730) can1 1AB#4589840A00001000
(1719214773.163970) can1 0B2#0000000000000000
(1719214773.164208) can1 0FD#B4EE3F8000000000
(1719214773.164444) can1 101#A30E7F0C82014000
(1719214773.164685) can1 106#1C0E63000000FE00
(1719214773.164970) can1 117#24040040680000FF
(1719214773.165230) can1 086#930D092E00000000
(1719214773.165444) can1 0A7#77A39E7AFDA9A71E
(1719214773.165685) can1 107#0000FE0040000000
(1719214773.165969) can1 0A8#2DD31F888A640000
(1719214773.166208) can1 11D#CA0600007E200000
(1719214773.166443) can1 09F#083D5B89010380F0
(1719214773.166637) can1 122#440400FE07000010
(1719214773.166912) can1 12B#8640802A00000000
(1719214773.167150) can1 12E#CAE47F000000C0FF
(1719214773.173743) can1 0B2#0000000000000000
(1719214773.174008) can1 116#C40E0000000000FF
(1719214773.174215) can1 11E#F20E000000000000
(1719214773.174987) can1 086#3F0E092E00000000
(1719214773.175190) can1 120#460A00060008FF01
(1719214773.175440) can1 121#670A000030677EFE
(1719214773.175679) can1 23D#0000F8FFFFFF3F00
(1719214773.175893) can1 0A8#81D41F888A640000
(1719214773.176167) can1 09F#A43E5B89010380F0
(1719214773.176370) can1 0A7#4DA49E7AFDA9A71E
(1719214773.176645) can1 147#0000000000000000
(1719214773.176867) can1 31E#07E13F0000000000
(1719214773.177143) can1 33C#0000012080000000
(1719214773.183718) can1 0B2#0000000000000000
(1719214773.183941) can1 0FD#23EF3F8000000000
(1719214773.184187) can1 31B#7273000000008000
(1719214773.184418) can1 101#720F7F0C82004000
(1719214773.184655) can1 106#EA0F64000000FE00
(1719214773.184989) can1 3D5#72CD400000000000
(1719214773.185154) can1 086#5B0F092E00000000
(1719214773.185383) can1 0A7#36A59E7AFDA9A71E
(1719214773.185634) can1 107#0000FE0040000000
(1719214773.185894) can1 0A8#EBD51F888A640000
(1719214773.186100) can1 09F#C03F5B89010380F0
(1719214773.186350) can1 117#40050040680000FF
(1719214773.186586) can1 11D#AE0700007E200000
(1719214773.186800) can1 122#DD0500FE07000010
(1719214773.187086) can1 32A#5D0F1A0000020000
(1719214773.187299) can1 12E#2AE57F000000C0FF
(1719214773.191327) can1 6B4#0259393031343733
(1719214773.193827) can1 0B2#0000000000000000
(1719214773.193984) can1 392#0F0A000000000004
(1719214773.194234) can1 11E#960F000000000000
(1719214773.194501) can1 116#A00F0000000000FF
(1719214773.194711) can1 380#5D0A6000000000FF
(1719214773.194986) can1 086#1900092E00000000
(1719214773.195231) can1 120#950B00020008FF01
(1719214773.195461) can1 121#CC0B000030677EFE
(1719214773.195654) can1 0A7#A5A69E7AFDA9A71E
(1719214773.195906) can1 0A8#DBD61F888A640000
(1719214773.196143) can1 09F#82305B89010380F0
(1719214773.196381) can1 147#0000000000000000
(1719214773.196619) can1 32C#0003000098240810
(1719214773.196893) can1 3D6#0400000000000000
(1719214773.197143) can1 365#940000000000003C
(1719214773.198420) can1 3D8#0000240000000000
(1719214773.198631) can1 040#D70100054100002E
(1719214773.198893) can1 2B7#4F0F0000000010FE
(1719214773.199188) can1 381#FFFFFFFFFF0000B0
(1719214773.199461) can1 382#FFFFFFFFFF0000B0
(1719214773.199712) can1 48E#0000000000000000
(1719214773.199987) can1 497#0600000041470038
(1719214773.200223) can1 30B#7F0F800008000000
(1719214773.203828) can1 0B2#0000000000000000
(1719214773.204075) can1 0FD#59E03F8000000000
(1719214773.204335) can1 101#30007F0C82004000
(1719214773.204527) can1 106#A80064000000FE00
(1719214773.204800) can1 3E5#2F1A000000000000
(1719214773.205043) can1 086#7D01092E00000000
(1719214773.205258) can1 0A7#2CA79E7AFDA9A71E
(1719214773.205503) can1 107#0000FE0040000000
(1719214773.205733) can1 0A8#CED71F888A640000
(1719214773.206006) can1 117#EC060040680000FF
(1719214773.206213) can1 09F#E6315B89010380F0
(1719214773.206450) can1 11D#EC0800007E200000
(1719214773.206688) can1 122#240600FE07000010
(1719214773.206948) can1 32F#007F000000000000
(1719214773.207186) can1 12B#F441802A00000000
(1719214773.207417) can1 12E#60E67F000000C0FF
(1719214773.207699) can1 3B5#00FE12020C002000
(1719214773.207991) can1 668#0200000000000000
(1719214773.208424) can1 520#9B08000800AA0200
(1719214773.208619) can1 545#0000500001000100
(1719214773.210101) can1 1B000012#1200010205000000
(1719214773.213778) can1 0B2#0000000000000000
(1719214773.214007) can1 116#E2000000000000FF
(1719214773.214245) can1 11E#D400000000000000
(1719214773.214810) can1 3C0#0E070300
(1719214773.214994) can1 086#D102092E00000000
(1719214773.215268) can1 120#4F0C00020008FF01
(1719214773.215470) can1 121#090C000030677EFE
(1719214773.215699) can1 0A7#61A89E7AFDA9A71E
(1719214773.215960) can1 0A8#ECD81F888A640000
(1719214773.216199) can1 09F#4A325B89010380F0
(1719214773.216438) can1 147#0000000000000000
(1719214773.217118) can1 65F#0030000000002C7F
(1719214773.217324) can1 56F#0000B8037DFC0000
(1719214773.217562) can1 556#0000FEFE8100FE00
(1719214773.217800) can1 641#7712214F130A4632
(1719214773.218016) can1 391#004E1C0000290000
(1719214773.220353) can1 3D8#0000040000000000
(1719214773.223842) can1 0B2#0000000000000000
(1719214773.224006) can1 0FD#53E13F8000000000
(1719214773.224258) can1 101#10017F0C82010000
(1719214773.224493) can1 106#5E0163000000FE00
(1719214773.224841) can1 117#88070040680000FF
(1719214773.225041) can1 086#B503092E00000000
(1719214773.225291) can1 0A7#B1A99E7AFDA9A71E
(1719214773.225530) can1 107#0000FE0040000000
(1719214773.225813) can1 122#330700FE07000010
(1719214773.226006) can1 09F#2E335B89010380F0
(1719214773.226212) can1 0A8#9ED91F888A640000
(1719214773.226451) can1 11D#880900007E200000
(1719214773.226688) can1 12E#73E77F000000C0FF
(1719214773.226949) can1 31E#BDE23F0000000000
(1719214773.227186) can1 12B#5042802A00000000
(1719214773.227418) can1 3C7#1410080000408300
(1719214773.233845) can1 0B2#0000000000000000
(1719214773.234008) can1 116#86010000000000FF
(1719214773.234262) can1 11E#B001000000000000
(1719214773.234564) can1 31B#6E74000000008000
(1719214773.235007) can1 585#012C0A7F11000000
(1719214773.235226) can1 086#A604092E00000000
(1719214773.235453) can1 120#FF0D00020008FF01
(1719214773.235661) can1 0A7#B7AA9E7AFDA9A71E
(1719214773.235909) can1 0A8#C1DA1F888A640000
(1719214773.236136) can1 09F#3D345B89010380F0
(1719214773.236389) can1 121#1A0D000030677EFE
(1719214773.236626) can1 147#0000000000000000
(1719214773.236900) can1 32A#1F001A0000020000
(1719214773.237148) can1 3FB#0000000000000061
(1719214773.238468) can1 1B000015#1500010205000000
(1719214773.242489) can1 3DD#8A1C100000000000
(1719214773.243898) can1 0B2#0000000000000000
(1719214773.244077) can1 0FD#9CE23F8000000000
(1719214773.244308) can1 101#C3027F0C82084000
(1719214773.244568) can1 106#F20263000000FE00
(1719214773.244867) can1 117#CA080040680000FF
(1719214773.245103) can1 086#C205092E00000000
(1719214773.245344) can1 0A7#D9AB9E7AFDA9A71E
(1719214773.245583) can1 107#0000FE0040000000
(1719214773.245818) can1 32C#0003000098240810
(1719214773.246057) can1 09F#23355B89010480F0
(1719214773.246275) can1 0A8#0CDB1F888A640000
(1719214773.246526) can1 11B#0000000000000000
(1719214773.246809) can1 11D#240A00007E200000
(1719214773.247011) can1 365#940000000000003C
(1719214773.247265) can1 122#4A0800FE07000010
(1719214773.247501) can1 12E#1AE87F000000C0FF
(1719214773.248388) can1 040#F302000541000030
(1719214773.248593) can1 2B7#6D000000000010FE
(1719214773.250443) can1 30B#7F00800008000000
(1719214773.253831) can1 08A#3732000000000000
(1719214773.254081) can1 0B2#0000000000000000
(1719214773.254340) can1 1AB#A88A840A00001000
(1719214773.254580) can1 11E#1C02000000000000
(1719214773.254809) can1 116#2A020000000000FF
(1719214773.255048) can1 086#6E06092E00000000
(1719214773.255284) can1 120#940E00020008FF01
(1719214773.255525) can1 121#890E000030677EFE
(1719214773.255808) can1 0A8#12DC1F888A640000
(1719214773.255992) can1 09F#F5365B89010380F0
(1719214773.256225) can1 15A#9B0A000001D20000
(1719214773.256456) can1 1A2#2506000000000000
(1719214773.256717) can1 23D#0000F8FFFFFF3F00
(1719214773.256969) can1 32F#007F000000000000
(1719214773.257205) can1 3BE#842B070122C00880
(1719214773.257445) can1 147#0000000000000000
(1719214773.257685) can1 0A7#66AC9E7AFDA9A71E
(1719214773.257899) can1 33C#0000012080000000
(1719214773.258171) can1 65D#F2232B000000E47B
(1719214773.258467) can1 1A555521#0000000000000000
(1719214773.262537) can1 3DB#5010010007100188
(1719214773.263842) can1 0B2#0000000000000000
(1719214773.264057) can1 0FD#E9E33F8000000000
(1719214773.264275) can1 101#E6037F0C82074000
(1719214773.264525) can1 106#960363000000FE00
(1719214773.264808) can1 117#AE090040680000FF
(1719214773.265089) can1 086#0A07092E00000000
(1719214773.265321) can1 0A7#96AD9E7AFDA9A71E
(1719214773.265570) can1 107#0000FE0040000000
(1719214773.265806) can1 0A8#01DD1F888A640000
(1719214773.266033) can1 09F#91375B89010380F0
(1719214773.266285) can1 11D#400B00007E200000
(1719214773.266527) can1 122#230900FE07000010
(1719214773.266806) can1 12E#66E97F000000C0FF
(1719214773.266989) can1 12B#0843802A00000000
(1719214773.272490) can1 3EC#E100000000022000
(1719214773.273827) can1 0B2#0000000000000000
(1719214773.274091) can1 116#4E030000000000FF
(1719214773.274318) can1 11E#7803000000000000
(1719214773.274570) can1 380#390B6000000000FF
(1719214773.274987) can1 086#4808092E00000000
(1719214773.275195) can1 120#410F00020008FF01
(1719214773.275442) can1 121#3F0F000030677EFE
(1719214773.275683) can1 0A7#1DAE9E7AFDA9A71E
(1719214773.275898) can1 0A8#B3DE1F888A640000
(1719214773.276170) can1 09F#D3385B89010380F0
(1719214773.276450) can1 147#0000000000000000
(1719214773.276661) can1 31E#FFE33F0000000000
(1719214773.279172) can1 381#FFFFFFFFFF0000C0
(1719214773.279389) can1 382#FFFFFFFFFF0000C0
(1719214773.283840) can1 0B2#0000000000000000
(1719214773.284047) can1 0FD#7FE43F8000000000
(1719214773.284298) can1 31B#8375000000008000
(1719214773.284534) can1 101#40047F0C82064000
(1719214773.284820) can1 106#170464000000FE00
(1719214773.285012) can1 086#2C09092E00000000
(1719214773.285266) can1 0A7#C3AF9E7AFDA9A71E
(1719214773.285498) can1 107#0000FE0040000000
(1719214773.285751) can1 0A8#3CDF1F888A640000
(1719214773.286004) can1 117#020A0040680000FF
(1719214773.286240) can1 09F#B7395B89010380F0
(1719214773.286469) can1 11D#530C00007E200000
(1719214773.286707) can1 122#880A00FE07000010
(1719214773.286968) can1 32A#7B011A0000020000
(1719214773.287160) can1 12B#8844802A00000000
(1719214773.287476) can1 1B000013#1300010205000000
(1719214773.287727) can1 12E#3AEA7F000000C0FF
(1719214773.287957) can1 3D5#4CCE400000000000
(1719214773.292508) can1 570#FB00000000800000
(1719214773.293809) can1 0B2#0000000000000000
(1719214773.294035) can1 392#6B0B000000000004
(1719214773.294285) can1 11E#6B04000000000000
(1719214773.294524) can1 116#5D040000000000FF
(1719214773.294806) can1 3D6#0500000000000000
(1719214773.295067) can1 086#800A092E00000000
(1719214773.295344) can1 120#8B0000020008FF01
(1719214773.295580) can1 121#F100000030677EFE
(1719214773.295805) can1 0A7#0AA09E7AFDA9A71E
(1719214773.296048) can1 09F#1B3A5B89010380F0
(1719214773.296286) can1 0A8#54D01F888A640000
(1719214773.296525) can1 32C#0003000098240810
(1719214773.296805) can1 147#0000000000000000
(1719214773.296992) can1 365#940000000000003C
(1719214773.298376) can1 3D8#0000040000000000
(1719214773.298627) can1 040#6A03000541000032
(1719214773.298860) can1 2B7#3C010000000010FE
(1719214773.299273) can1 48E#0000000000000000
(1719214773.299502) can1 497#0600000041470038
(1719214773.300078) can1 30B#7F01800008000000
(1719214773.303815) can1 0B2#0000000000000000
(1719214773.304081) can1 0FD#E5E53F8000000000
(1719214773.304342) can1 101#24057F0C82064000
(1719214773.304534) can1 106#9E85640000009600
(1719214773.304714) can1 64A#00008000
(1719214773.304956) can1 117#660B0040680000FF
(1719214773.305218) can1 086#E40B092E00000000
(1719214773.305433) can1 0A7#82A19E7AFDA9A71E
(1719214773.305647) can1 107#0000FE0040000000
(1719214773.305897) can1 0A8#2ED11F888A640000
(1719214773.306137) can1 09F#7F3B5B89010380F0
(1719214773.306376) can1 11D#370D00007E200000
(1719214773.306612) can1 32F#007F000000000000
(1719214773.306866) can1 3E5#A41B000000000000
(1719214773.307102) can1 122#590B00FE07000010
(1719214773.307401) can1 12E#CEEB7F000000C0FF
(1719214773.307621) can1 3B5#00FE12020C002000
(1719214773.313828) can1 0B2#0000000000000000
(1719214773.313990) can1 116#39050000000000FF
(1719214773.314240) can1 11E#0F05000000000000
(1719214773.314570) can1 17F00013#20130000001E0000
(1719214773.314807) can1 3C0#4F080300
(1719214773.314991) can1 086#F70C092E00000000
(1719214773.315241) can1 120#7E0100020008FF01
(1719214773.315477) can1 121#9D01000030677EFE
(1719214773.315717) can1 0A7#F6A29E7AFDA9A71E
(1719214773.315944) can1 0A8#C2D21F888A640000
(1719214773.316182) can1 09F#6C3C5B89010380F0
(1719214773.316439) can1 147#0000000000000000
(1719214773.316673) can1 3FB#0000000000000062
(1719214773.316864) can1 5A0#010E802078
(1719214773.317095) can1 640#0257FE717E200300
(1719214773.317377) can1 17F00076#2076000000000000
(1719214773.317627) can1 647#70FDFF7F0000000B
(1719214773.317909) can1 391#004D1C0000290000
(1719214773.323828) can1 0B2#0000000000000000
(1719214773.324033) can1 0FD#F7E63F8000000000
(1719214773.324285) can1 101#B7067F0C82034000
(1719214773.324524) can1 106#A086630000009600
(1719214773.324808) can1 117#750C0040680000FF
(1719214773.325065) can1 086#930D092E00000000
(1719214773.325298) can1 0A7#77A39E7AFDA9A71E
(1719214773.325535) can1 107#0000FE0040000000
(1719214773.325844) can1 122#090C00FE07000010
(1719214773.326009) can1 09F#083D5B89010380F0
(1719214773.326263) can1 0A8#2DD31F888A640000
(1719214773.326500) can1 11D#9B0E00007E200000
(1719214773.326703) can1 12E#6DEC7F000000C0FF
(1719214773.326953) can1 31E#52E43F0000000000
(1719214773.327228) can1 12B#2D45802A00000000
(1719214773.327479) can1 3C7#FD10080000408300
(1719214773.333727) can1 0B2#0000000000000000
(1719214773.333965) can1 116#95060000000000FF
(1719214773.334206) can1 11E#A306000000000000
(1719214773.334444) can1 31B#E376000000008000
(1719214773.334864) can1 5F0#ACE46400004B0000
(1719214773.335069) can1 086#3F0E092E00000000
(1719214773.335317) can1 120#860200020008FF01
(1719214773.335593) can1 121#1202000030677EFE
(1719214773.335807) can1 0A7#4DA49E7AFDA9A71E
(1719214773.336022) can1 09F#A43E5B89010380F0
(1719214773.336274) can1 0A8#81D41F888A640000
(1719214773.336511) can1 147#0000000000000000
(1719214773.336750) can1 23D#0000F8FFFFFF3F00
(1719214773.337001) can1 32A#D7021A0000020000
(1719214773.337241) can1 33C#0000012080000000
(1719214773.342491) can1 3DD#8A1C100000000000
(1719214773.342933) can1 1B000076#7600010105000000
(1719214773.343715) can1 0B2#0000000000000000
(1719214773.343992) can1 0FD#CDE73F8000000000
(1719214773.344238) can1 101#D3077F0C82034000
(1719214773.344470) can1 106#C487630000009600
(1719214773.345015) can1 117#110D0040680000FF
(1719214773.345218) can1 086#5B0F092E00000000
(1719214773.345501) can1 107#0000FE0040000000
(1719214773.345692) can1 0A7#36A59E7AFDA9A71E
(1719214773.345964) can1 0A8#EBD51F888A640000
(1719214773.346158) can1 09F#C03F5B89010380F0
(1719214773.346431) can1 11B#0000000000000000
(1719214773.346691) can1 11D#FF0F00007E200000
(1719214773.346918) can1 32C#0003000098240810
(1719214773.347149) can1 365#940000000000003C
(1719214773.347399) can1 557#0000000000000000
(1719214773.347637) can1 122#0B0D00FE07000010
(1719214773.347896) can1 12B#3446802A00000000
(1719214773.348240) can1 12E#47ED7F000000C0FF
(1719214773.348524) can1 040#5104000541000034
(1719214773.348729) can1 2B7#E4020000000010FE
(1719214773.350058) can1 30B#7F02800008000000
(1719214773.353764) can1 0B2#0000000000000000
(1719214773.354013) can1 116#F1070000000000FF
(1719214773.354264) can1 11E#C707000000000000
(1719214773.354497) can1 380#2A0C6000000000FF
(1719214773.354966) can1 086#1900092E00000000
(1719214773.355205) can1 120#540300020008FF01
(1719214773.355444) can1 121#E003000030677EFE
(1719214773.355681) can1 0A8#DBD61F888A640000
(1719214773.355897) can1 15A#560B000001820200
(1719214773.356171) can1 09F#82305B89010380F0
(1719214773.356422) can1 32F#007F000000000000
(1719214773.356657) can1 3BE#012C070122C00880
(1719214773.356897) can1 147#0000000000000000
(1719214773.357127) can1 0A7#A5A69E7AFDA9A71E
(1719214773.357375) can1 2C2#000000FC07000000
(1719214773.358536) can1 17331F10#37C3380320000000
(1719214773.359236) can1 381#FFFFFFFFFF0000D0
(1719214773.359489) can1 382#FFFFFFFFFF0000D0
(1719214773.362554) can1 1B000010#1000010525000000
(1719214773.362807) can1 3DB#5010010007100188
(1719214773.363829) can1 0B2#0000000000000000
(1719214773.364035) can1 0FD#0AE83F8000000000
(1719214773.364285) can1 101#FA087F0D82064000
(1719214773.364521) can1 106#8688630000009600
(1719214773.364898) can1 658#0030040000000200
(1719214773.365149) can1 086#7D01092E00000000
(1719214773.365340) can1 0A7#2CA79E7AFDA9A71E
(1719214773.365612) can1 107#0000FE0040000000
(1719214773.365818) can1 0A8#CED71F888A640000
(1719214773.366057) can1 09F#E6315B89010380F0
(1719214773.366273) can1 117#BD0E0040680000FF
(1719214773.366521) can1 11D#BD0000007E200000
(1719214773.366806) can1 122#8A0E00FE07000010
(1719214773.367011) can1 12E#9DEE7F000000C0FF
(1719214773.373802) can1 0B2#0000000000000000
(1719214773.373983) can1 116#B3080000000000FF
(1719214773.374233) can1 11E#8508000000000000
(1719214773.374983) can1 086#D102092E00000000
(1719214773.375185) can1 120#020400020008FF01
(1719214773.375459) can1 121#5D04000030677EFE
(1719214773.375662) can1 0A7#61A89E7AFDA9A71E
(1719214773.375892) can1 0A8#ECD81F888A640000
(1719214773.376142) can1 09F#30325B89010480F0
(1719214773.376380) can1 147#0000000000000000
(1719214773.376663) can1 31E#2DE53F0000000000
(1719214773.383736) can1 0B2#0000000000000000
(1719214773.383937) can1 0FD#38E93F8000000000
(1719214773.384187) can1 31B#0377000000008000
(1719214773.384426) can1 101#9E097F0D82064000
(1719214773.384642) can1 106#7089640000009600
(1719214773.384890) can1 3D5#ABCF400000000000
(1719214773.385130) can1 086#B503092E00000000
(1719214773.385368) can1 0A7#B1A99E7AFDA9A71E
(1719214773.385607) can1 107#0000FE0040000000
(1719214773.385858) can1 0A8#9ED91F888A640000
(1719214773.386094) can1 09F#54335B89010480F0
(1719214773.386344) can1 117#D90F0040680000FF
(1719214773.386584) can1 11D#D90100007E200000
(1719214773.386797) can1 122#060F00FE07000010
(1719214773.387027) can1 32A#B3031A0000020000
(1719214773.387278) can1 12B#1147802A00000000
(1719214773.387635) can1 17F00012#2012000000000000
(1719214773.387813) can1 12E#9AEF7F000000C0FF
(1719214773.388447) can1 17F00015#0015000000000000
(1719214773.391447) can1 6B4#0000000000575647
(1719214773.393737) can1 0B2#0000000000000000
(1719214773.393988) can1 392#780C000000000004
(1719214773.394223) can1 11E#E109000000000000
(1719214773.394464) can1 116#D7090000000000FF
(1719214773.394703) can1 130#6A82098E00000400
(1719214773.394964) can1 3D6#0600000000000000
(1719214773.395201) can1 086#A604092E00000000
(1719214773.395441) can1 120#000500020008FF01
(1719214773.395681) can1 0A7#B7AA9E7AFDA9A71E
(1719214773.395895) can1 0A8#C1DA1F888A640000
(1719214773.396122) can1 09F#47345B89010480F0
(1719214773.396373) can1 121#6A05000030677EFE
(1719214773.396613) can1 147#0000000000000000
(1719214773.396864) can1 32C#0003000098240810
(1719214773.397098) can1 365#940000000000003C
(1719214773.397374) can1 3FB#0000000000000063
(1719214773.397622) can1 497#0600000041470020
(1719214773.398419) can1 3D8#0000040000000000
(1719214773.398623) can1 040#6505000541000038
(1719214773.398898) can1 041#7B01000000000000
(1719214773.399100) can1 2B7#BD030000000010FE
(1719214773.399381) can1 48E#0000000000000000
(1719214773.399622) can1 54B#0000000000000024
(1719214773.399943) can1 17F0000A#000A000000000000
(1719214773.400192) can1 30B#7F03800008000000
(1719214773.403837) can1 0B2#0000000000000000
(1719214773.404045) can1 0FD#74EA3F8000000000
(1719214773.404284) can1 101#660A7F0C82064000
(1719214773.404525) can1 106#DC8A640000009600
(1719214773.404715) can1 17330A10#4295F000
(1719214773.404964) can1 3E5#571C000000000000
(1719214773.405214) can1 086#C205092E00000000
(1719214773.405443) can1 0A7#D9AB9E7AFDA9A71E
(1719214773.405682) can1 107#0000FE0040000000
(1719214773.405894) can1 0A8#0CDB1F888A640000
(1719214773.406170) can1 117#9B000040680000FF
(1719214773.406372) can1 09F#23355B89010480F0
(1719214773.406648) can1 11D#750200007E200000
(1719214773.406868) can1 122#120000FE07000010
(1719214773.407146) can1 32F#007F000000000000
(1719214773.407375) can1 12B#C448802A00000000
(1719214773.407624) can1 12E#B3E07F000000C0FF
(1719214773.407895) can1 3B5#80FE12020C002000
(1719214773.408147) can1 668#0200000000000000
(1719214773.408386) can1 520#FF09000800AA0200
(1719214773.408622) can1 545#0000500001000100
(1719214773.410176) can1 1B000012#1200010205000000
(1719214773.413735) can1 0B2#0000000000000000
(1719214773.413982) can1 116#7B0A0000000000FF
(1719214773.414185) can1 11E#4D0A000000000000
(1719214773.414733) can1 3C0#FA090300
(1719214773.414992) can1 086#6E06092E00000000
(1719214773.415220) can1 120#EF0600020008FF01
(1719214773.415468) can1 121#6D06000030677EFE
(1719214773.415708) can1 0A7#66AC9E7AFDA9A71E
(1719214773.415890) can1 0A8#DFDCFF878A640000
(1719214773.416174) can1 09F#8F365B89010480F0
(1719214773.416402) can1 147#0000000000000000
(1719214773.416652) can1 23D#0000F8FFFFFF3F00
(1719214773.416889) can1 33C#0000012080000000
(1719214773.417164) can1 391#004E1C0000290000
(1719214773.423759) can1 0B2#0000000000000000
(1719214773.423994) can1 0FD#5BEB3F8000000000
(1719214773.424230) can1 101#B70B7F0C82074000
(1719214773.424461) can1 106#2A8B630000009600
(1719214773.424858) can1 366#0000000080030000
(1719214773.425095) can1 086#0A07092E00000000
(1719214773.425337) can1 0A7#96AD9E7AFDA9A71E
(1719214773.425573) can1 107#0000FE0040000000
(1719214773.425808) can1 117#FF010040680000FF
(1719214773.426053) can1 09F#EB375B89010480F0
(1719214773.426265) can1 0A8#CCDDFF878A640000
(1719214773.426515) can1 11D#110300007E200000
(1719214773.426798) can1 122#990100FE07000010
(1719214773.426982) can1 31E#AAE63F0000000000
(1719214773.427264) can1 12E#BDE17F000000C0FF
(1719214773.427466) can1 3C7#1410080000408300
(1719214773.427695) can1 17330A00#22950000
(1719214773.433837) can1 0B2#0000000000000000
(1719214773.434002) can1 116#1F0B0000000000FF
(1719214773.434209) can1 11E#290B000000000000
(1719214773.434492) can1 380#4E0D6000000000FF
(1719214773.434742) can1 31B#0178000000008000
(1719214773.434956) can1 086#4808092E00000000
(1719214773.435185) can1 120#ED0700020008FF01
(1719214773.435435) can1 121#3E07000030677EFE
(1719214773.435674) can1 0A7#1DAE9E7AFDA9A71E
(1719214773.435888) can1 0A8#7EDEFF878A640000
(1719214773.436145) can1 09F#D3385B89010380F0
(1719214773.436366) can1 147#0000000000000000
(1719214773.436605) can1 32A#A0041A0000020000
(1719214773.438462) can1 1B000015#1500010205000000
(1719214773.439302) can1 381#FFFFFFFFFF0000E0
(1719214773.439571) can1 382#FFFFFFFFFF0000E0
(1719214773.442512) can1 3DD#8A1C100000000000
(1719214773.443807) can1 0B2#0000000000000000
(1719214773.444038) can1 0FD#C2EC3F8000000000
(1719214773.444276) can1 101#450C7F0D82064000
(1719214773.444515) can1 106#AB8C640000009600
(1719214773.445055) can1 086#2C09092E00000000
(1719214773.445228) can1 0A7#C3AF9E7AFDA9A71E
(1719214773.445457) can1 107#0000FE0040000000
(1719214773.445708) can1 32C#0003000098240810
(1719214773.445936) can1 09F#B7395B89010380F0
(1719214773.446172) can1 0A8#F1DFFF878A640000
(1719214773.446432) can1 11B#0000000000000000
(1719214773.446709) can1 11D#020400007E200000
(1719214773.446947) can1 365#940000000000003C
(1719214773.447183) can1 117#53020040680000FF
(1719214773.447580) can1 122#630200FE07000010
(1719214773.447797) can1 12B#CC49802A00000000
(1719214773.448081) can1 12E#74E27F000000C0FF
(1719214773.448355) can1 040#340600054100003A
(1719214773.448606) can1 2B7#0D040000000010FE
(1719214773.449320) can1 497#0300000041470020
(1719214773.450305) can1 30B#7F04800008000000
(1719214773.453826) can1 0B2#0000000000000000
(1719214773.454027) can1 1AB#368B840A00001000
(1719214773.454276) can1 11E#3A0C000000000000
(1719214773.454515) can1 116#0C0C0000000000FF
(1719214773.454799) can1 1A2#4D07000000000000
(1719214773.454983) can1 086#800A092E00000000
(1719214773.455218) can1 120#B40800020008FF01
(1719214773.455491) can1 121#FD08000030677EFE
(1719214773.455693) can1 0A8#99D0FF878A640000
(1719214773.455947) can1 15A#150C000001820200
(1719214773.456176) can1 09F#1B3A5B89010380F0
(1719214773.456434) can1 32F#007F000000000000
(1719214773.456665) can1 3BE#BA2D070122C00880
(1719214773.456948) can1 147#0000000000000000
(1719214773.457165) can1 0A7#0AA09E7AFDA9A71E
(1719214773.457372) can1 17330A10#42950000
(1719214773.462560) can1 3DB#5010010007100188
(1719214773.463809) can1 0B2#0000000000000000
(1719214773.463989) can1 0FD#4BED3F8000000000
(1719214773.464238) can1 101#210D7F0D82064000
(1719214773.464477) can1 106#5D8D630000009600
(1719214773.464856) can1 3D4#9605820600060000
(1719214773.465090) can1 086#E40B092E00000000
(1719214773.465329) can1 0A7#82A19E7AFDA9A71E
(1719214773.465567) can1 107#0000FE0040000000
(1719214773.465801) can1 117#37030040680000FF
(1719214773.466032) can1 09F#053B5B89010480F0
(1719214773.466283) can1 0A8#E3D1FF878A640000
(1719214773.466521) can1 11D#660500007E200000
(1719214773.466802) can1 122#460300FE07000010
(1719214773.467009) can1 12B#DC4A802A00000000
(1719214773.467261) can1 12E#EDE37F000000C0FF
(1719214773.467496) can1 2AC#E682FEFE1E7E0000
(1719214773.467816) can1 65A#0000001000803D00
(1719214773.472506) can1 3EC#E100000000022000
(1719214773.473739) can1 0B2#0000000000000000
(1719214773.473985) can1 116#680D0000000000FF
(1719214773.474233) can1 11E#5E0D000000000000
(1719214773.474983) can1 086#F70C092E00000000
(1719214773.475187) can1 120#E20900020008FF01
(1719214773.475439) can1 121#0209000030677EFE
(1719214773.475676) can1 0A7#F6A29E7AFDA9A71E
(1719214773.475893) can1 0A8#0FD2FF878A640000
(1719214773.476189) can1 09F#6C3C5B89010380F0
(1719214773.476418) can1 147#0000000000000000
(1719214773.476654) can1 31E#ACE73F0000000000
(1719214773.476863) can1 3FB#0000000000000064
(1719214773.483760) can1 0B2#0000000000000000
(1719214773.483965) can1 0FD#B4EE3F8000000000
(1719214773.484201) can1 31B#8079000000008000
(1719214773.484442) can1 101#8D0E7F0D82064000
(1719214773.484680) can1 106#638E640000009600
(1719214773.484964) can1 1B000013#1300010205000000
(1719214773.485201) can1 086#930D092E00000000
(1719214773.485441) can1 0A7#77A39E7AFDA9A71E
(1719214773.485681) can1 107#0000FE0040000000
(1719214773.485964) can1 0A8#E0D3FF878A640000
(1719214773.486154) can1 09F#723D5B89010480F0
(1719214773.486385) can1 11D#CA0600007E200000
(1719214773.486635) can1 32A#C4051A0000020000
(1719214773.486897) can1 3D5#FBC0400000000000
(1719214773.487145) can1 117#24040040680000FF
(1719214773.487386) can1 122#440400FE07000010
(1719214773.487669) can1 12E#CAE47F000000C0FF
(1719214773.493828) can1 0B2#0000000000000000
(1719214773.493985) can1 392#1C0D000000000004
(1719214773.494237) can1 11E#F20E000000000000
(1719214773.494476) can1 116#C40E0000000000FF
(1719214773.494873) can1 3D6#0700000000000000
(1719214773.495087) can1 086#3F0E092E00000000
(1719214773.495329) can1 120#390A00020008FF01
(1719214773.495567) can1 121#670A000030677EFE
(1719214773.495803) can1 0A7#4DA49E7AFDA9A71E
(1719214773.496019) can1 09F#A43E5B89010380F0
(1719214773.496272) can1 0A8#4CD4FF878A640000
(1719214773.496517) can1 32C#0003000098240810
(1719214773.496747) can1 147#0000000000000000
(1719214773.496998) can1 365#940000000000003C
(1719214773.497236) can1 23D#0000F8FFFFFF3F00
(1719214773.497520) can1 33C#0000012080000000
(1719214773.498396) can1 3D8#0000040000000000
(1719214773.498609) can1 040#780700054100003C
(1719214773.498863) can1 2B7#F5050000000010FE
(1719214773.499349) can1 48E#0000000000000000
(1719214773.500258) can1 30B#7F05800008000000
(1719214773.503809) can1 0B2#0000000000000000
(1719214773.504041) can1 0FD#23EF3F8000000000
(1719214773.504270) can1 101#E90F7F0D82064000
(1719214773.504510) can1 106#078F640000009600
(1719214773.504745) can1 497#0000000041470020
(1719214773.505000) can1 3E5#631D000000000000
(1719214773.505236) can1 086#5B0F092E00000000
(1719214773.505520) can1 107#0000FE0040000000
(1719214773.505732) can1 0A7#36A59E7AFDA9A71E
(1719214773.505965) can1 0A8#26D5FF878A640000
(1719214773.506204) can1 117#40050040680000FF
(1719214773.506442) can1 09F#C03F5B89010380F0
(1719214773.506679) can1 11D#AE0700007E200000
(1719214773.506896) can1 122#DD0500FE07000010
