(1712832411.155732) vcan0 111#00
(1712832411.155821) vcan2 320#12027F0100000000
(1712832411.159271) vcan0 110#00
(1712832411.159283) vcan0 100#000000
(1712832411.159289) vcan1 1DA#024000000000E3EA
(1712832411.161581) vcan0 200#FF3F9A0A580503
(1712832411.161597) vcan0 101#000000
(1712832411.167133) vcan2 3D0#0000
(1712832411.167151) vcan2 050#00091811
(1712832411.167150) vcan1 1DA#024000000000E0E0
(1712832411.167165) vcan1 55A#133D3C005F0082F0
(1712832411.167209) vcan0 111#00
(1712832411.168390) vcan2 38A#C202C000
(1712832411.168397) vcan2 388#BC02BE
(1712832411.168402) vcan2 5E0#00FFFFFF00008000
(1712832411.175255) vcan0 600#03
(1712832411.189277) vcan2 4A0#0000000000000000
(1712832411.189284) vcan2 5A0#00000095C104102B
(1712832411.189287) vcan2 1A0#00050000FEFE000E
(1712832411.189290) vcan2 320#12027F0100000000
(1712832411.189292) vcan2 470#000000FF00
(1712832411.189295) vcan2 3D0#0000
(1712832411.189297) vcan2 38A#D202D000
(1712832411.189300) vcan2 050#00092821
(1712832411.189302) vcan2 388#BD02BF
(1712832411.189304) vcan2 5E0#00FFFFFF00008000
(1712832411.189318) vcan0 200#FF3F9D0A640503
(1712832411.189326) vcan0 101#000000
(1712832411.189327) vcan0 111#00
(1712832411.189329) vcan0 110#00
(1712832411.189331) vcan0 100#000000
(1712832411.189333) vcan0 1A0#000001
(1712832411.189335) vcan0 200#FF3F890A5A0503
(1712832411.189337) vcan0 101#000000
(1712832411.189338) vcan0 111#00
(1712832411.189340) vcan0 600#03
(1712832411.189469) vcan1 1DA#020000000000E1C7
(1712832411.189476) vcan1 1DA#020000000000E2CD
(1712832411.191378) vcan0 200#FF3F970A540503
(1712832411.191384) vcan0 101#000000
(1712832411.191396) vcan2 4A0#0000000000000000
(1712832411.191400) vcan2 5A0#00000059C904102B
(1712832411.191402) vcan2 1A0#00050000FEFE000F
(1712832411.204249) vcan0 111#00
(1712832411.204263) vcan0 110#00
(1712832411.204268) vcan0 100#000000
(1712832411.204273) vcan0 200#FF3F880A620503
(1712832411.204326) vcan1 1DA#024000000000E3EA
(1712832411.204326) vcan2 320#12027F0100000000
(1712832411.204343) vcan2 420#828A8AFF00008000
(1712832411.207888) vcan0 101#000000
(1712832411.207894) vcan0 111#00
(1712832411.207971) vcan2 3D0#0000
(1712832411.208228) vcan1 1DA#024000000000E0E0
(1712832411.213922) vcan2 050#00093831
(1712832411.213939) vcan2 38A#E202E000
(1712832411.213948) vcan2 388#BE02BC
(1712832411.213959) vcan2 5E0#00FFFFFF00008000
(1712832411.213967) vcan2 4A0#0000000000000000
(1712832411.214051) vcan0 600#03
(1712832411.214078) vcan0 200#FF3FAA0A5A0503
(1712832411.215317) vcan2 5A0#00000035D104102B
(1712832411.215328) vcan2 1A0#00050000FEFE0000
(1712832411.215336) vcan2 320#12027F0100000000
(1712832411.215486) vcan0 101#000000
(1712832411.215509) vcan0 111#00
(1712832411.218128) vcan1 1DA#020000000000E1C7
(1712832411.219324) vcan0 110#00
(1712832411.219341) vcan0 100#000000
(1712832411.224468) vcan0 200#FF3FA10A580503
(1712832411.224478) vcan0 101#000000
(1712832411.226404) vcan0 111#00
(1712832411.226433) vcan2 3D0#0000
(1712832411.227610) vcan1 1DA#020000000000E2CD
(1712832411.227655) vcan2 38A#F202F000
(1712832411.227668) vcan2 388#BF02BD
(1712832411.227671) vcan2 050#00094841
(1712832411.229312) vcan0 600#03
(1712832411.229385) vcan2 470#000000FF00
(1712832411.229393) vcan2 570#8721FF07
(1712832411.229397) vcan2 5D0#800240A03041
(1712832411.229400) vcan2 5D8#550C000310000000
(1712832411.229403) vcan2 5E0#00FFFFFF00008000
(1712832411.231325) vcan0 200#FF3F990A4B0503
(1712832411.233309) vcan0 101#000000
(1712832411.233421) vcan2 4A0#0000000000000000
(1712832411.233426) vcan2 5A0#00000002D904102B
(1712832411.233428) vcan2 1A0#00050000FEFE0001
(1712832411.235476) vcan0 111#00
(1712832411.235588) vcan2 320#12027F0100000000
(1712832411.239860) vcan0 110#00
(1712832411.239862) vcan0 100#000000
(1712832411.240012) vcan1 1DA#024000000000E3EA
(1712832411.242929) vcan0 200#FF3F900A4B0503
(1712832411.242930) vcan0 101#000000
(1712832411.248682) vcan0 111#00
(1712832411.248809) vcan2 3D0#0000
(1712832411.248814) vcan2 38A#02020000
(1712832411.248816) vcan2 050#00095851
(1712832411.248818) vcan2 388#C002C2
(1712832411.248820) vcan2 5E0#00FFFFFF00008000
(1712832411.248852) vcan1 1DA#024000000000E0E0
(1712832411.250022) vcan0 600#03
(1712832411.251439) vcan0 200#FF3F920A580503
(1712832411.251446) vcan0 101#000000
(1712832411.251515) vcan2 4A0#0000000000000000
(1712832411.251520) vcan2 5A0#000000C4E004102B
(1712832411.251522) vcan2 1A0#00050000FEFE0002
(1712832411.253811) vcan2 320#12027F0100000000
(1712832411.255796) vcan0 111#00
(1712832411.257763) vcan1 1DA#020000000000E1C7
(1712832411.259068) vcan0 110#00
(1712832411.259070) vcan0 100#000000
(1712832411.261313) vcan0 200#FF3F980A530503
(1712832411.261315) vcan0 101#000000
(1712832411.265924) vcan0 111#00
(1712832411.266151) vcan2 3D0#0000
(1712832411.267766) vcan1 1DA#020000000000E2CD
(1712832411.267778) vcan1 55A#AE3D3C005F0082F0
(1712832411.267788) vcan2 050#00096861
(1712832411.267796) vcan2 38A#12021000
(1712832411.268925) vcan0 600#03
(1712832411.269097) vcan2 388#C102C3
(1712832411.269107) vcan2 5E0#00FFFFFF00008000
(1712832411.271513) vcan0 200#FF3F950A580503
(1712832411.271719) vcan2 4A0#0000000000000000
(1712832411.272865) vcan0 101#000000
(1712832411.273091) vcan2 5A0#000000A6E804102B
(1712832411.273106) vcan2 1A0#00050000FEFE0003
(1712832411.275578) vcan0 111#00
(1712832411.275770) vcan2 320#12027F0100000000
(1712832411.277241) vcan1 1DA#024000000000E3EA
(1712832411.278337) vcan0 110#00
(1712832411.278344) vcan0 100#000000
(1712832411.278572) vcan2 470#000000FF00
(1712832411.279915) vcan0 1A0#000002
(1712832411.281499) vcan0 200#FF3F9E0A570503
(1712832411.282776) vcan2 520#404201D4135E4B03
(1712832411.282789) vcan0 101#000000
(1712832411.285396) vcan2 3D0#0000
(1712832411.285438) vcan0 111#00
(1712832411.288810) vcan2 050#00097871
(1712832411.288822) vcan2 38A#22022000
(1712832411.288824) vcan2 388#C202C0
(1712832411.288827) vcan2 5E0#00FFFFFF00008000
(1712832411.288851) vcan1 1DA#024000000000E0E0
(1712832411.293688) vcan0 600#03
(1712832411.295058) vcan2 4A0#0000000000000000
(1712832411.295060) vcan2 5A0#0000006FF004102B
(1712832411.295062) vcan2 1A0#00050000FEFE0004
(1712832411.295064) vcan2 320#12027F0100000000
(1712832411.295088) vcan0 200#FF3FA70A5C0503
(1712832411.295090) vcan0 101#000000
(1712832411.295091) vcan0 111#00
(1712832411.297581) vcan1 1DA#020000000000E1C7
(1712832411.298904) vcan0 110#00
(1712832411.298908) vcan0 100#000000
(1712832411.301545) vcan0 200#FF3F9F0A840503
(1712832411.301550) vcan0 101#000000
(1712832411.305360) vcan0 111#00
(1712832411.305369) vcan2 3D0#0000
(1712832411.307438) vcan2 050#00098881
(1712832411.307506) vcan1 1DA#020000000000E2CD
(1712832411.308878) vcan2 38A#32023000
(1712832411.308881) vcan2 388#C302C1
(1712832411.308883) vcan2 5E0#00FFFFFF00008000
(1712832411.308979) vcan0 600#03
(1712832411.311555) vcan0 200#FF3F8D0A5C0503
(1712832411.311563) vcan0 101#000000
(1712832411.311629) vcan2 4A0#0000000000000000
(1712832411.311634) vcan2 5A0#00000041F804102B
(1712832411.316311) vcan2 1A0#00050000FEFE0005
(1712832411.316317) vcan2 320#12027F0100000000
(1712832411.318173) vcan0 111#00
(1712832411.318305) vcan2 5DE#0000000D00
(1712832411.318365) vcan1 1DA#024000000000E3EA
(1712832411.319943) vcan0 110#00
(1712832411.319946) vcan0 100#000000
(1712832411.321801) vcan0 200#FF3F860A310503
(1712832411.321808) vcan0 101#000000
(1712832411.330254) vcan0 111#00
(1712832411.330265) vcan0 600#03
(1712832411.330384) vcan2 3D0#0000
(1712832411.330410) vcan2 050#00099891
(1712832411.330423) vcan2 38A#42024000
(1712832411.330432) vcan2 388#C402C6
(1712832411.330440) vcan2 470#000000FF00
(1712832411.330448) vcan2 570#8721FF07
(1712832411.330456) vcan2 5D0#800240A03041
(1712832411.330466) vcan2 5D8#550C000310000000
(1712832411.330474) vcan2 5E0#00FFFFFF00008000
(1712832411.330495) vcan1 1DA#024000000000E0E0
(1712832411.331631) vcan0 200#FF3F7A0A5F0503
(1712832411.331637) vcan0 101#000000
(1712832411.331804) vcan2 4A0#0000000000000000
(1712832411.331823) vcan2 5A0#000000100004102B
(1712832411.331830) vcan2 1A0#00050000FEFE0006
(1712832411.334124) vcan2 320#12027F0100000000
(1712832411.335695) vcan0 111#00
(1712832411.337760) vcan1 1DA#020000000000E1C7
(1712832411.338841) vcan0 110#00
(1712832411.338849) vcan0 100#000000
(1712832411.341604) vcan0 200#FF3F920A5E0503
(1712832411.341614) vcan0 101#000000
(1712832411.345875) vcan0 111#00
(1712832411.346040) vcan2 3D0#0000
(1712832411.347575) vcan2 050#0009A8A1
(1712832411.347593) vcan2 38A#52025000
(1712832411.347671) vcan1 1DA#020000000000E2CD
(1712832411.348892) vcan2 388#C502C7
(1712832411.348908) vcan2 5E0#00FFFFFF00008000
(1712832411.351906) vcan0 600#03
(1712832411.351915) vcan0 200#FF3FD20A5F0503
(1712832411.351945) vcan2 4A0#0000000000000000
(1712832411.351956) vcan2 5A0#000000D30704102B
(1712832411.351961) vcan2 1A0#00050000FEFE0007
(1712832411.353255) vcan0 101#000000
(1712832411.355811) vcan0 111#00
(1712832411.355906) vcan2 320#12027F0100000000
(1712832411.357599) vcan1 1DA#024000000000E3EA
(1712832411.358827) vcan0 110#00
(1712832411.358835) vcan0 100#000000
(1712832411.363184) vcan0 200#FF3F980A6F0503
(1712832411.363189) vcan0 101#000000
(1712832411.365645) vcan0 111#00
(1712832411.365654) vcan2 3D0#0000
(1712832411.367476) vcan2 050#0009B8B1
(1712832411.367479) vcan2 38A#62026000
(1712832411.367566) vcan1 1DA#024000000000E0E0
(1712832411.367575) vcan1 55A#AA3D3C005F0082F0
(1712832411.368793) vcan2 388#C602C4
(1712832411.368797) vcan2 5E0#00FFFFFF00008000
(1712832411.368821) vcan0 600#03
(1712832411.371915) vcan2 4A0#0000000000000000
(1712832411.371917) vcan2 5A0#000000AD0F04102B
(1712832411.371918) vcan0 200#FF3F9B0A540503
(1712832411.374714) vcan0 101#000000
(1712832411.374725) vcan2 1A0#00050000FEFE0008
(1712832411.374728) vcan2 320#12027F0100000000
(1712832411.375992) vcan0 111#00
(1712832411.377866) vcan1 1DA#020000000000E1C7
(1712832411.379075) vcan2 470#000000FF00
(1712832411.379090) vcan0 110#00
(1712832411.379109) vcan0 100#000000
(1712832411.379116) vcan0 1A0#000003
(1712832411.383711) vcan0 200#FF3FBB0A5A0503
(1712832411.383714) vcan0 101#000000
(1712832411.385373) vcan0 111#00
(1712832411.385385) vcan2 3D0#0000
(1712832411.388873) vcan2 050#0009C8C1
(1712832411.388877) vcan2 38A#72027000
(1712832411.388876) vcan0 600#03
(1712832411.388881) vcan2 388#C702C5
(1712832411.388884) vcan2 5E0#00FFFFFF00008000
(1712832411.389005) vcan1 1DA#020000000000E2CD
(1712832411.391577) vcan0 200#FF3F9E0A480503
(1712832411.391610) vcan2 4A0#0000000000000000
(1712832411.391620) vcan2 5A0#000000721704102B
(1712832411.391623) vcan2 1A0#00050000FEFE0009
(1712832411.392866) vcan0 101#000000
(1712832411.395442) vcan0 111#00
(1712832411.395443) vcan2 320#12027F0100000000
(1712832411.395451) vcan2 420#828A8AFF00008000
(1712832411.398656) vcan0 110#00
(1712832411.398661) vcan0 100#000000
(1712832411.398822) vcan1 1DA#024000000000E3EA
(1712832411.401642) vcan0 200#FF3F8C0A590503
(1712832411.401647) vcan0 101#000000
(1712832411.405348) vcan0 111#00
(1712832411.405389) vcan2 3D0#0000
(1712832411.409120) vcan0 600#03
(1712832411.409125) vcan2 050#0009D8D1
(1712832411.409130) vcan2 38A#82028000
(1712832411.409134) vcan2 388#C802CA
(1712832411.409138) vcan2 5E0#00FFFFFF00008000
(1712832411.409238) vcan1 1DA#024000000000E0E0
(1712832411.412208) vcan2 4A0#0000000000000000
(1712832411.412214) vcan2 5A0#0000004F1F04102B
(1712832411.412218) vcan2 1A0#00050000FEFE000A
(1712832411.412218) vcan0 200#FF3F940A5B0503
(1712832411.413504) vcan0 101#000000
(1712832411.413548) vcan2 320#12027F0100000000
(1712832411.418564) vcan0 111#00
(1712832411.419858) vcan0 110#00
(1712832411.419863) vcan0 100#000000
(1712832411.419926) vcan1 1DA#020000000000E1C7
(1712832411.421757) vcan0 200#FF3FA60A600503
(1712832411.421761) vcan0 101#000000
(1712832411.425384) vcan0 111#00
(1712832411.425429) vcan2 3D0#0000
(1712832411.434559) vcan0 600#03
(1712832411.434563) vcan0 200#FF3F8B0A540503
(1712832411.434611) vcan1 1DA#020000000000E2CD
(1712832411.434617) vcan2 050#0009E8E1
(1712832411.434623) vcan2 38A#92029000
(1712832411.434625) vcan2 388#C902CB
(1712832411.434628) vcan2 470#000000FF00
(1712832411.434630) vcan2 570#8721FF07
(1712832411.434633) vcan2 5D0#800240A03041
(1712832411.434635) vcan2 5D8#550C000310000000
(1712832411.434637) vcan2 5E0#00FFFFFF00008000
(1712832411.434639) vcan2 4A0#0000000000000000
(1712832411.435875) vcan2 5A0#000000192704102B
(1712832411.435880) vcan2 1A0#00050000FEFE000B
(1712832411.435882) vcan2 320#12027F0100000000
(1712832411.435894) vcan0 101#000000
(1712832411.435896) vcan0 111#00
(1712832411.437800) vcan1 1DA#024000000000E3EA
(1712832411.439055) vcan0 110#00
(1712832411.439059) vcan0 100#000000
(1712832411.441858) vcan0 200#FF3F9E0A770503
(1712832411.441861) vcan0 101#000000
(1712832411.445470) vcan2 3D0#0000
(1712832411.447871) vcan0 111#00
(1712832411.447924) vcan2 050#0009F8F1
(1712832411.447930) vcan1 1DA#024000000000E0E0
(1712832411.449307) vcan0 600#03
(1712832411.449310) vcan2 38A#A202A000
(1712832411.449314) vcan2 388#CA02C8
(1712832411.449316) vcan2 5E0#00FFFFFF00008000
(1712832411.451602) vcan2 4A0#0000000000000000
(1712832411.451607) vcan2 5A0#000000E62E04102B
(1712832411.451609) vcan2 1A0#00050000FEFE000C
(1712832411.451620) vcan0 200#FF3F9F0A400503
(1712832411.451623) vcan0 101#000000
(1712832411.454014) vcan2 320#12027F0100000000
(1712832411.456391) vcan0 111#00
(1712832411.457785) vcan1 1DA#020000000000E1C7
(1712832411.459034) vcan0 110#00
(1712832411.459043) vcan0 100#000000
(1712832411.461816) vcan0 200#FF3F900A5B0503
(1712832411.461825) vcan0 101#000000
(1712832411.465407) vcan0 111#00
(1712832411.465419) vcan2 3D0#0000
(1712832411.469168) vcan2 38A#B202B000
(1712832411.469179) vcan2 388#CB02C9
(1712832411.469187) vcan2 050#00090801
(1712832411.469195) vcan2 5E0#00FFFFFF00008000
(1712832411.469344) vcan1 1DA#020000000000E2CD
(1712832411.469357) vcan1 55A#1D3D3C005F0082F0
(1712832411.472617) vcan0 600#03
(1712832411.472630) vcan0 200#FF3F940A5C0503
(1712832411.472644) vcan0 101#000000
(1712832411.472721) vcan2 4A0#0000000000000000
(1712832411.472744) vcan2 5A0#000000C03604102B
(1712832411.472754) vcan2 1A0#00050000FEFE000D
(1712832411.473950) vcan2 320#12027F0100000000
(1712832411.475839) vcan0 111#00
(1712832411.477803) vcan1 1DA#024000000000E3EA
(1712832411.478981) vcan2 470#000000FF00
(1712832411.478989) vcan0 110#00
(1712832411.479000) vcan0 100#000000
(1712832411.479008) vcan0 1A0#000000
(1712832411.481926) vcan0 200#FF3F880A5C0503
(1712832411.481937) vcan0 101#000000
(1712832411.485473) vcan2 520#FB8601D4135E4B03
(1712832411.487427) vcan2 3D0#0000
(1712832411.487571) vcan0 111#00
(1712832411.487658) vcan1 1DA#024000000000E0E0
(1712832411.489028) vcan2 050#00091811
(1712832411.489034) vcan2 38A#C202C000
(1712832411.489040) vcan2 388#CC02CE
(1712832411.489044) vcan2 5E0#00FFFFFF00008000
(1712832411.489142) vcan0 600#03
(1712832411.491790) vcan2 4A0#0000000000000000
(1712832411.491801) vcan2 5A0#0000008A3E04102B
(1712832411.491805) vcan2 1A0#00050000FEFE000E
(1712832411.491809) vcan0 200#FF3F850A770503
(1712832411.491813) vcan0 101#000000
(1712832411.495095) vcan0 111#00
(1712832411.495112) vcan2 320#12027F0100000000
(1712832411.497476) vcan1 1DA#020000000000E1C7
(1712832411.498864) vcan0 110#00
(1712832411.498874) vcan0 100#000000
(1712832411.502002) vcan0 200#FF3F930A5D0503
(1712832411.502014) vcan0 101#000000
(1712832411.505492) vcan0 111#00
(1712832411.505554) vcan2 3D0#0000
(1712832411.509089) vcan0 600#03
(1712832411.509108) vcan2 050#00092821
(1712832411.509115) vcan2 38A#D202D000
(1712832411.509125) vcan2 388#CD02CF
(1712832411.509131) vcan2 5E0#00FFFFFF00008000
(1712832411.509204) vcan1 1DA#020000000000E2CD
(1712832411.511868) vcan2 4A0#0000000000000000
(1712832411.511871) vcan0 200#FF3F960A550503
(1712832411.511873) vcan2 5A0#000000604604102B
(1712832411.511877) vcan2 1A0#00050000FEFE000F
(1712832411.511878) vcan0 101#000000
(1712832411.513825) vcan2 320#12027F0100000000
(1712832411.515425) vcan0 111#00
(1712832411.515553) vcan2 5DE#0000000D00
(1712832411.517566) vcan1 1DA#024000000000E3EA
(1712832411.520943) vcan0 110#00
(1712832411.520946) vcan0 100#000000
(1712832411.522235) vcan0 200#FF3F9F0A5B0503
(1712832411.522237) vcan0 101#000000
(1712832411.525404) vcan0 111#00
(1712832411.525569) vcan2 3D0#0000
(1712832411.527832) vcan2 050#00093831
(1712832411.527864) vcan1 1DA#024000000000E0E0
(1712832411.534010) vcan0 600#03
(1712832411.534039) vcan2 38A#E202E000
(1712832411.534041) vcan2 388#CE02CC
(1712832411.534043) vcan2 470#000000FF00
(1712832411.534045) vcan2 570#8721FF07
(1712832411.534047) vcan2 5D0#800240A03041
(1712832411.535392) vcan0 200#FF3FA10A640503
(1712832411.535394) vcan0 101#000000
(1712832411.535465) vcan2 5D8#550C000310000000
(1712832411.535468) vcan2 5E0#00FFFFFF00008000
(1712832411.535470) vcan2 4A0#0000000000000000
(1712832411.535472) vcan2 5A0#000000284E04102B
(1712832411.535474) vcan2 1A0#00050000FEFE0000
(1712832411.535476) vcan2 320#12027F0100000000
(1712832411.536858) vcan0 111#00
(1712832411.537096) vcan1 1DA#020000000000E1C7
(1712832411.538955) vcan0 110#00
(1712832411.538959) vcan0 100#000000
(1712832411.542354) vcan0 200#FF3F900A540503
(1712832411.542358) vcan0 101#000000
(1712832411.545482) vcan0 111#00
(1712832411.545605) vcan2 3D0#0000
(1712832411.548963) vcan0 600#03
(1712832411.549107) vcan2 38A#F202F000
(1712832411.549115) vcan2 050#00094841
(1712832411.549121) vcan2 388#CF02CD
(1712832411.549127) vcan2 5E0#00FFFFFF00008000
(1712832411.549345) vcan1 1DA#020000000000E2CD
(1712832411.552880) vcan0 200#FF3F8F0A5F0503
(1712832411.552989) vcan2 4A0#0000000000000000
(1712832411.552999) vcan2 5A0#000000F95504102B
(1712832411.553007) vcan2 1A0#00050000FEFE0001
(1712832411.554958) vcan0 101#000000
(1712832411.555065) vcan2 320#12027F0100000000
(1712832411.556326) vcan0 111#00
(1712832411.559442) vcan0 110#00
(1712832411.559448) vcan0 100#000000
(1712832411.559593) vcan1 1DA#024000000000E3EA
(1712832411.562034) vcan0 200#FF3F940A570503
(1712832411.562045) vcan0 101#000000
(1712832411.565376) vcan0 111#00
(1712832411.565543) vcan2 3D0#0000
(1712832411.568051) vcan2 050#00095851
(1712832411.568097) vcan1 1DA#024000000000E0E0
(1712832411.568106) vcan1 55A#1C3D3C005F0082F0
(1712832411.569556) vcan2 38A#02020000
(1712832411.569566) vcan2 388#D002D2
(1712832411.569571) vcan2 5E0#00FFFFFF00008000
(1712832411.569572) vcan0 600#03
(1712832411.572208) vcan2 4A0#0000000000000000
(1712832411.572220) vcan2 5A0#000000D35D04102B
(1712832411.572225) vcan2 1A0#00050000FEFE0002
(1712832411.572290) vcan0 200#FF3F970A560503
(1712832411.572294) vcan0 101#000000
(1712832411.573769) vcan2 320#12027F0100000000
(1712832411.576271) vcan0 111#00
(1712832411.577678) vcan1 1DA#020000000000E1C7
(1712832411.578972) vcan2 470#000000FF00
(1712832411.578999) vcan0 110#00
(1712832411.579008) vcan0 100#000000
(1712832411.579012) vcan0 1A0#000001
(1712832411.582171) vcan0 200#FF3F8F0A580503
(1712832411.582178) vcan0 101#000000
(1712832411.586620) vcan0 111#00
(1712832411.586650) vcan2 3D0#0000
(1712832411.588017) vcan2 050#00096861
(1712832411.588023) vcan2 38A#12021000
(1712832411.588113) vcan1 1DA#020000000000E2CD
(1712832411.589147) vcan0 600#03
(1712832411.589238) vcan2 388#D102D3
(1712832411.589246) vcan2 5E0#00FFFFFF00008000
(1712832411.592289) vcan0 200#FF3F950A640503
(1712832411.592291) vcan0 101#000000
(1712832411.592380) vcan2 4A0#0000000000000000
(1712832411.592387) vcan2 5A0#0000009A6504102B
(1712832411.592390) vcan2 1A0#00050000FEFE0003
(1712832411.594209) vcan2 320#12027F0100000000
(1712832411.594217) vcan2 420#828A8AFF00008000
(1712832411.595891) vcan0 111#00
(1712832411.599044) vcan1 1DA#024000000000E3EA
(1712832411.599098) vcan0 110#00
(1712832411.599106) vcan0 100#000000
(1712832411.602111) vcan0 200#FF3FA60A500503
(1712832411.602117) vcan0 101#000000
(1712832411.605544) vcan2 3D0#0000
(1712832411.605566) vcan0 111#00
(1712832411.609156) vcan2 050#00097871
(1712832411.609161) vcan2 38A#22022000
(1712832411.609163) vcan2 388#D202D0
(1712832411.609165) vcan2 5E0#00FFFFFF00008000
(1712832411.609271) vcan1 1DA#024000000000E0E0
(1712832411.611812) vcan2 4A0#0000000000000000
(1712832411.611815) vcan2 5A0#000000716D04102B
(1712832411.611821) vcan2 1A0#00050000FEFE0004
(1712832411.611969) vcan0 600#03
(1712832411.611980) vcan0 200#FF3FA50A520503
(1712832411.611983) vcan0 101#000000
(1712832411.615562) vcan2 320#12027F0100000000
(1712832411.615710) vcan0 111#00
(1712832411.617600) vcan1 1DA#020000000000E1C7
(1712832411.619215) vcan0 110#00
(1712832411.619229) vcan0 100#000000
(1712832411.623538) vcan0 200#FF3F8E0A580503
(1712832411.623555) vcan0 101#000000
(1712832411.624795) vcan2 3D0#0000
(1712832411.626528) vcan0 111#00
(1712832411.627915) vcan1 1DA#020000000000E2CD
(1712832411.629018) vcan2 38A#32023000
(1712832411.629023) vcan2 050#00098881
(1712832411.629027) vcan2 388#D302D1
(1712832411.629031) vcan2 470#000000FF00
(1712832411.629035) vcan2 570#8721FF07
(1712832411.629129) vcan0 600#03
(1712832411.633891) vcan2 5D0#800240A03041
(1712832411.633894) vcan2 5D8#550C000310000000
(1712832411.633897) vcan2 5E0#00FFFFFF00008000
(1712832411.635266) vcan2 4A0#0000000000000000
(1712832411.635285) vcan2 5A0#000000427504102B
(1712832411.635292) vcan2 1A0#00050000FEFE0005
(1712832411.635401) vcan0 200#FF3F9E0A580503
(1712832411.635404) vcan0 101#000000
(1712832411.638329) vcan2 320#12027F0100000000
(1712832411.638469) vcan0 111#00
(1712832411.638475) vcan0 110#00
(1712832411.638564) vcan1 1DA#024000000000E3EA
(1712832411.639703) vcan0 100#000000
(1712832411.642399) vcan0 200#FF3FA40A5D0503
(1712832411.642407) vcan0 101#000000
(1712832411.646510) vcan2 3D0#0000
(1712832411.646626) vcan0 111#00
(1712832411.646724) vcan1 1DA#024000000000E0E0
(1712832411.648659) vcan2 050#00099891
(1712832411.648661) vcan2 38A#42024000
(1712832411.648665) vcan2 388#D402D6
(1712832411.648667) vcan2 5E0#00FFFFFF00008000
(1712832411.650360) vcan0 600#03
(1712832411.653350) vcan2 4A0#0000000000000000
(1712832411.653356) vcan2 5A0#000000177D04102B
(1712832411.653357) vcan2 1A0#00050000FEFE0006
(1712832411.653418) vcan0 200#FF3F9E0A580503
(1712832411.654721) vcan2 320#12027F0100000000
(1712832411.654737) vcan0 101#000000
(1712832411.656693) vcan0 111#00
(1712832411.658180) vcan1 1DA#020000000000E1C7
(1712832411.661315) vcan0 110#00
(1712832411.661320) vcan0 100#000000
(1712832411.662911) vcan0 200#FF3F970A500503
(1712832411.662916) vcan0 101#000000
(1712832411.665434) vcan0 111#00
(1712832411.665462) vcan2 3D0#0000
(1712832411.667764) vcan1 1DA#020000000000E2CD
(1712832411.667775) vcan1 55A#133D3C005F0082F0
(1712832411.669199) vcan2 38A#52025000
(1712832411.669207) vcan2 050#0009A8A1
(1712832411.669211) vcan2 388#D502D7
(1712832411.669215) vcan2 5E0#00FFFFFF00008000
(1712832411.670698) vcan0 600#03
(1712832411.672056) vcan0 200#FF3F9E0A580503
(1712832411.672064) vcan0 101#000000
(1712832411.672169) vcan2 4A0#0000000000000000
(1712832411.672177) vcan2 5A0#000000DD8404102B
(1712832411.672182) vcan2 1A0#00050000FEFE0007
(1712832411.675177) vcan0 111#00
(1712832411.675190) vcan2 320#12027F0100000000
(1712832411.677621) vcan1 1DA#024000000000E3EA
(1712832411.679242) vcan2 470#000000FF00
(1712832411.679280) vcan0 110#00
(1712832411.679290) vcan0 100#000000
(1712832411.679296) vcan0 1A0#000002
(1712832411.682415) vcan0 200#FF3F930A5A0503
(1712832411.682423) vcan0 101#000000
(1712832411.685653) vcan2 520#1DC401D4135E4B03
(1712832411.685663) vcan2 3D0#0000
(1712832411.685848) vcan0 111#00
(1712832411.688020) vcan1 1DA#024000000000E0E0
(1712832411.689094) vcan2 050#0009B8B1
(1712832411.689104) vcan2 38A#62026000
(1712832411.689112) vcan2 388#D602D4
(1712832411.689120) vcan2 5E0#00FFFFFF00008000
(1712832411.689296) vcan0 600#03
(1712832411.693133) vcan2 4A0#0000000000000000
(1712832411.693148) vcan2 5A0#000000C38C04102B
(1712832411.693268) vcan0 200#FF3F9B0A570503
(1712832411.695110) vcan0 101#000000
(1712832411.695240) vcan2 1A0#00050000FEFE0008
(1712832411.695253) vcan2 320#12027F0100000000
(1712832411.697755) vcan0 111#00
(1712832411.697854) vcan1 1DA#020000000000E1C7
(1712832411.699160) vcan0 110#00
(1712832411.699165) vcan0 100#000000
(1712832411.702754) vcan0 200#FF3F980A4E0503
(1712832411.702758) vcan0 101#000000
(1712832411.705392) vcan0 111#00
(1712832411.705560) vcan2 3D0#0000
(1712832411.707554) vcan1 1DA#020000000000E2CD
(1712832411.708811) vcan2 050#0009C8C1
(1712832411.708822) vcan2 38A#72027000
(1712832411.710113) vcan2 388#D702D5
(1712832411.710124) vcan2 5E0#00FFFFFF00008000
(1712832411.710127) vcan0 600#03
(1712832411.712165) vcan2 4A0#0000000000000000
(1712832411.712175) vcan0 200#FF3F6A0A620503
(1712832411.712175) vcan2 5A0#000000799404102B
(1712832411.712177) vcan0 101#000000
(1712832411.712179) vcan2 1A0#00050000FEFE0009
(1712832411.713685) vcan2 320#12027F0100000000
(1712832411.715887) vcan0 111#00
(1712832411.715955) vcan2 5DE#0000000D00
(1712832411.717426) vcan1 1DA#024000000000E3EA
(1712832411.719108) vcan0 110#00
(1712832411.719113) vcan0 100#000000
(1712832411.722554) vcan0 200#FF3F7F0A5F0503
(1712832411.722559) vcan0 101#000000
(1712832411.725827) vcan0 111#00
(1712832411.725854) vcan2 3D0#0000
(1712832411.727540) vcan1 1DA#024000000000E0E0
(1712832411.730855) vcan0 600#03
(1712832411.730885) vcan2 050#0009D8D1
(1712832411.730892) vcan2 38A#82028000
(1712832411.730895) vcan2 388#D802DA
(1712832411.730898) vcan2 470#000000FF00
(1712832411.732233) vcan2 570#8721FF07
(1712832411.732240) vcan2 5D0#800240A03041
(1712832411.732244) vcan2 5D8#550C000310000000
(1712832411.732247) vcan2 5E0#00FFFFFF00008000
(1712832411.732250) vcan2 4A0#0000000000000000
(1712832411.732253) vcan2 5A0#000000579C04102B
(1712832411.736616) vcan0 200#FF3FA30A5F0503
(1712832411.736621) vcan0 101#000000
(1712832411.736740) vcan2 1A0#00050000FEFE000A
(1712832411.736746) vcan2 320#12027F0100000000
(1712832411.739927) vcan0 111#00
(1712832411.739932) vcan0 100#000000
(1712832411.739934) vcan0 110#00
(1712832411.740008) vcan1 1DA#020000000000E1C7
(1712832411.742764) vcan0 200#FF3FA40A600503
(1712832411.742771) vcan0 101#000000
(1712832411.745547) vcan0 111#00
(1712832411.745581) vcan2 3D0#0000
(1712832411.747431) vcan1 1DA#020000000000E2CD
(1712832411.748928) vcan0 600#03
(1712832411.749045) vcan2 050#0009E8E1
(1712832411.749056) vcan2 38A#92029000
(1712832411.749061) vcan2 388#D902DB
(1712832411.749066) vcan2 5E0#00FFFFFF00008000
(1712832411.753383) vcan2 4A0#0000000000000000
(1712832411.753392) vcan2 5A0#00000040A404102B
(1712832411.753397) vcan2 1A0#00050000FEFE000B
(1712832411.753400) vcan2 320#12027F0100000000
(1712832411.753452) vcan0 200#FF3F9F0A540503
(1712832411.753456) vcan0 101#000000
(1712832411.773380) vcan1 1DA#024000000000E3EA
(1712832411.773388) vcan2 3D0#0000
(1712832411.773394) vcan2 050#0009F8F1
(1712832411.773398) vcan2 38A#A202A000
(1712832411.773401) vcan2 388#DA02D8
(1712832411.773405) vcan2 5E0#00FFFFFF00008000
(1712832411.773408) vcan2 4A0#0000000000000000
(1712832411.773411) vcan2 5A0#000000E4AB04102B
(1712832411.773414) vcan2 1A0#00050000FEFE000C
(1712832411.773417) vcan2 320#12027F0100000000
(1712832411.773461) vcan0 111#00
(1712832411.773466) vcan0 100#000000
(1712832411.773469) vcan0 110#00
(1712832411.773471) vcan0 200#FF3FA70A470503
(1712832411.773473) vcan0 101#000000
(1712832411.773475) vcan0 111#00
(1712832411.773477) vcan0 600#03
(1712832411.773481) vcan0 200#FF3F9D0A530503
(1712832411.773483) vcan0 101#000000
(1712832411.785177) vcan2 470#000000FF00
(1712832411.785186) vcan2 3D0#0000
(1712832411.785226) vcan0 111#00
(1712832411.785232) vcan0 100#000000
(1712832411.785234) vcan0 110#00
(1712832411.785236) vcan0 1A0#000003
(1712832411.785238) vcan0 200#FF3F970A2F0503
(1712832411.785240) vcan0 101#000000
(1712832411.786482) vcan1 1DA#024000000000E0E0
(1712832411.786490) vcan1 55A#AE3D3C005F0082F0
(1712832411.786494) vcan1 1DA#020000000000E1C7
(1712832411.786496) vcan1 1DA#020000000000E2CD
(1712832411.786527) vcan0 111#00
(1712832411.789285) vcan0 600#03
(1712832411.789371) vcan2 050#00090801
(1712832411.789379) vcan2 38A#B202B000
(1712832411.789382) vcan2 388#DB02D9
(1712832411.789385) vcan2 5E0#00FFFFFF00008000
(1712832411.792310) vcan2 4A0#0000000000000000
(1712832411.792317) vcan2 5A0#000000C5B304102B
(1712832411.792320) vcan2 1A0#00050000FEFE000D
(1712832411.792343) vcan0 200#FF3FA20A4F0503
(1712832411.792345) vcan0 101#000000
(1712832411.793867) vcan2 320#12027F0100000000
(1712832411.796204) vcan2 420#828A8AFF00008000
(1712832411.796255) vcan0 111#00
(1712832411.797503) vcan1 1DA#024000000000E3EA
(1712832411.798909) vcan0 100#000000
(1712832411.798912) vcan0 110#00
(1712832411.804041) vcan0 200#FF3F980A510503
(1712832411.804046) vcan0 101#000000
(1712832411.805487) vcan0 111#00
(1712832411.805604) vcan2 3D0#0000
(1712832411.807377) vcan1 1DA#024000000000E0E0
(1712832411.808915) vcan2 050#00091811
(1712832411.808921) vcan2 38A#C202C000
(1712832411.808924) vcan2 388#DC02DE
(1712832411.808928) vcan2 5E0#00FFFFFF00008000
(1712832411.810024) vcan0 600#03
(1712832411.812926) vcan2 4A0#0000000000000000
(1712832411.812932) vcan2 5A0#0000008CBB04102B
(1712832411.812935) vcan2 1A0#00050000FEFE000E
(1712832411.814838) vcan0 200#FF3F8D0A4C0503
(1712832411.814843) vcan0 101#000000
(1712832411.814898) vcan2 320#12027F0100000000
(1712832411.816447) vcan0 111#00
(1712832411.816530) vcan1 1DA#020000000000E1C7
(1712832411.819010) vcan0 100#000000
(1712832411.819013) vcan0 110#00
(1712832411.822925) vcan0 200#FF3F820A310503
(1712832411.822929) vcan0 101#000000
(1712832411.828178) vcan0 111#00
(1712832411.828332) vcan2 3D0#0000
(1712832411.829746) vcan0 600#03
(1712832411.829869) vcan1 1DA#020000000000E2CD
(1712832411.829881) vcan2 050#00092821
(1712832411.829893) vcan2 38A#D202D000
(1712832411.829899) vcan2 388#DD02DF
(1712832411.829904) vcan2 470#000000FF00
(1712832411.829909) vcan2 570#8721FF07
(1712832411.829915) vcan2 5D0#800240A03041
(1712832411.829921) vcan2 5D8#550C000310000000
(1712832411.829927) vcan2 5E0#00FFFFFF00008000
(1712832411.832094) vcan0 200#FF3FA30A570503
(1712832411.832099) vcan0 101#000000
(1712832411.832239) vcan2 4A0#0000000000000000
(1712832411.832248) vcan2 5A0#00000061C304102B
(1712832411.832254) vcan2 1A0#00050000FEFE000F
(1712832411.833654) vcan2 320#12027F0100000000
(1712832411.838798) vcan0 111#00
(1712832411.842800) vcan0 100#000000
(1712832411.842812) vcan0 110#00
(1712832411.842817) vcan0 200#FF3F9B0A5C0503
(1712832411.842899) vcan1 1DA#024000000000E3EA
(1712832411.844101) vcan0 101#000000
(1712832411.845454) vcan0 111#00
(1712832411.845483) vcan2 3D0#0000
(1712832411.847600) vcan1 1DA#024000000000E0E0
(1712832411.849993) vcan2 050#00093831
(1712832411.849999) vcan2 38A#E202E000
(1712832411.850001) vcan2 388#DE02DC
(1712832411.852811) vcan2 5E0#00FFFFFF00008000
(1712832411.852814) vcan2 4A0#0000000000000000
(1712832411.852816) vcan2 5A0#00000030CB04102B
(1712832411.854194) vcan2 1A0#00050000FEFE0000
(1712832411.854196) vcan2 320#12027F0100000000
(1712832411.854218) vcan0 600#03
(1712832411.854223) vcan0 200#FF3F9B0A470503
(1712832411.854225) vcan0 101#000000
(1712832411.856206) vcan0 111#00
(1712832411.857582) vcan1 1DA#020000000000E1C7
(1712832411.859072) vcan0 100#000000
(1712832411.859075) vcan0 110#00
(1712832411.864236) vcan0 200#FF3F980A500503
(1712832411.864240) vcan0 101#000000
(1712832411.869038) vcan0 111#00
(1712832411.869041) vcan0 600#03
(1712832411.869099) vcan2 3D0#0000
(1712832411.869102) vcan2 38A#F202F000
(1712832411.869105) vcan2 050#00094841
(1712832411.869107) vcan2 388#DF02DD
(1712832411.869110) vcan2 5E0#00FFFFFF00008000
(1712832411.869132) vcan1 1DA#020000000000E2CD
(1712832411.869139) vcan1 55A#AA3D3C005F0082F0
(1712832411.871855) vcan2 4A0#0000000000000000
(1712832411.871857) vcan2 5A0#000000F4D204102B
(1712832411.871861) vcan2 1A0#00050000FEFE0001
(1712832411.873401) vcan0 200#FF3F9B0A500503
(1712832411.873406) vcan0 101#000000
(1712832411.873514) vcan2 320#12027F0100000000
(1712832411.876196) vcan0 111#00
(1712832411.877610) vcan1 1DA#024000000000E3EA
(1712832411.878951) vcan2 470#000000FF00
(1712832411.878958) vcan0 110#00
(1712832411.878962) vcan0 100#000000
(1712832411.878965) vcan0 1A0#000000
(1712832411.882779) vcan0 200#FF3F9F0A530503
(1712832411.882785) vcan0 101#000000
(1712832411.882834) vcan2 520#010101D4135E4B03
(1712832411.885413) vcan0 111#00
(1712832411.885543) vcan2 3D0#0000
(1712832411.887505) vcan1 1DA#024000000000E0E0
(1712832411.888931) vcan2 38A#02020000
(1712832411.888938) vcan2 050#00095851
(1712832411.888942) vcan2 388#E002E2
(1712832411.888948) vcan2 5E0#00FFFFFF00008000
(1712832411.890344) vcan0 600#03
(1712832411.893322) vcan2 4A0#0000000000000000
(1712832411.893332) vcan2 5A0#000000D1DA04102B
(1712832411.893338) vcan2 1A0#00050000FEFE0002
(1712832411.894545) vcan0 200#FF3F8F0A5A0503
(1712832411.894557) vcan0 101#000000
(1712832411.894697) vcan2 320#12027F0100000000
(1712832411.896405) vcan0 111#00
(1712832411.896519) vcan1 1DA#020000000000E1C7
(1712832411.899147) vcan0 100#000000
(1712832411.899158) vcan0 110#00
(1712832411.901955) vcan0 200#FF3F9B0A640503
(1712832411.901976) vcan0 101#000000
(1712832411.906203) vcan0 111#00
(1712832411.906250) vcan2 3D0#0000
(1712832411.909368) vcan0 600#03
(1712832411.909402) vcan2 050#00096861
(1712832411.909414) vcan2 38A#12021000
(1712832411.909419) vcan2 388#E102E3
(1712832411.909424) vcan2 5E0#00FFFFFF00008000
(1712832411.909482) vcan1 1DA#020000000000E2CD
(1712832411.911858) vcan2 4A0#0000000000000000
(1712832411.911864) vcan2 5A0#00000093E204102B
(1712832411.911868) vcan2 1A0#00050000FEFE0003
(1712832411.913224) vcan2 320#12027F0100000000
(1712832411.913245) vcan0 200#FF3F930A640503
(1712832411.913256) vcan0 101#000000
(1712832411.915496) vcan0 111#00
(1712832411.915507) vcan2 5DE#0000000D00
(1712832411.917538) vcan1 1DA#024000000000E3EA
(1712832411.919859) vcan0 100#000000
(1712832411.919862) vcan0 110#00
(1712832411.923167) vcan0 200#FF3F920A4F0503
(1712832411.923170) vcan0 101#000000
(1712832411.925670) vcan0 111#00
(1712832411.925695) vcan2 3D0#0000
(1712832411.927412) vcan1 1DA#024000000000E0E0
(1712832411.932462) vcan2 050#00097871
(1712832411.932467) vcan2 38A#22022000
(1712832411.932470) vcan2 388#E202E0
(1712832411.932472) vcan2 470#000000FF00
(1712832411.933899) vcan2 570#8721FF07
(1712832411.933903) vcan2 5D0#800240A03041
(1712832411.933905) vcan2 5D8#550C000310000000
(1712832411.933908) vcan2 5E0#00FFFFFF00008000
(1712832411.933910) vcan2 4A0#0000000000000000
(1712832411.933913) vcan2 5A0#0000006EEA04102B
(1712832411.933915) vcan2 1A0#00050000FEFE0004
(1712832411.933917) vcan2 320#12027F0100000000
(1712832411.933918) vcan0 600#03
(1712832411.933923) vcan0 200#FF3F950A4E0503
(1712832411.933925) vcan0 101#000000
(1712832411.936706) vcan0 111#00
(1712832411.936800) vcan1 1DA#020000000000E1C7
(1712832411.942956) vcan0 100#000000
(1712832411.942959) vcan0 110#00
(1712832411.942961) vcan0 200#FF3F9A0A530503
(1712832411.947306) vcan0 101#000000
(1712832411.947309) vcan0 111#00
(1712832411.947356) vcan1 1DA#020000000000E2CD
(1712832411.947369) vcan2 3D0#0000
(1712832411.949085) vcan0 600#03
(1712832411.949191) vcan2 050#00098881
(1712832411.949195) vcan2 38A#32023000
(1712832411.949197) vcan2 388#E302E1
(1712832411.949200) vcan2 5E0#00FFFFFF00008000
(1712832411.953361) vcan0 200#FF3FA00A600503
(1712832411.953364) vcan0 101#000000
(1712832411.953457) vcan2 4A0#0000000000000000
(1712832411.953462) vcan2 5A0#00000039F204102B
(1712832411.953465) vcan2 1A0#00050000FEFE0005
(1712832411.955414) vcan0 111#00
(1712832411.955511) vcan2 320#12027F0100000000
(1712832411.957503) vcan1 1DA#024000000000E3EA
(1712832411.959009) vcan0 100#000000
(1712832411.959023) vcan0 110#00
(1712832411.963227) vcan0 200#FF3F8A0A5F0503
(1712832411.963238) vcan0 101#000000
(1712832411.965428) vcan0 111#00
(1712832411.965565) vcan2 3D0#0000
(1712832411.967580) vcan1 1DA#024000000000E0E0
(1712832411.967589) vcan1 55A#1D3D3C005F0082F0
(1712832411.969258) vcan0 600#03
(1712832411.969421) vcan2 050#00099891
(1712832411.969434) vcan2 38A#42024000
(1712832411.969442) vcan2 388#E402E6
(1712832411.969451) vcan2 5E0#00FFFFFF00008000
(1712832411.972114) vcan2 4A0#0000000000000000
(1712832411.972124) vcan2 5A0#00000007FA04102B
(1712832411.973440) vcan0 200#FF3F950A4E0503
(1712832411.973458) vcan0 101#000000
(1712832411.973570) vcan2 1A0#00050000FEFE0006
(1712832411.973579) vcan2 320#12027F0100000000
(1712832411.976601) vcan0 111#00
(1712832411.976768) vcan1 1DA#020000000000E1C7
(1712832411.978871) vcan0 100#000000
(1712832411.978879) vcan0 110#00
(1712832411.978886) vcan0 1A0#000001
(1712832411.978932) vcan2 470#000000FF00
(1712832411.983019) vcan0 200#FF3F730A580503
(1712832411.983025) vcan0 101#000000
(1712832411.985558) vcan0 111#00
(1712832411.985585) vcan2 3D0#0000
(1712832411.987913) vcan1 1DA#020000000000E2CD
(1712832411.989219) vcan0 600#03
(1712832411.989251) vcan2 050#0009A8A1
(1712832411.989259) vcan2 38A#52025000
(1712832411.989263) vcan2 388#E502E7
(1712832411.989266) vcan2 5E0#00FFFFFF00008000
(1712832411.994313) vcan2 4A0#0000000000000000
(1712832411.994316) vcan2 5A0#000000E00104102B
(1712832411.994317) vcan0 200#FF3F900A4D0503
(1712832411.994318) vcan2 1A0#00050000FEFE0007
(1712832411.994319) vcan0 101#000000
(1712832411.997088) vcan2 320#12027F0100000000
(1712832411.997091) vcan2 420#828A8AFF00008000
(1712832411.997102) vcan0 111#00
(1712832411.997183) vcan1 1DA#024000000000E3EA
(1712832411.998875) vcan0 100#000000
(1712832411.998878) vcan0 110#00
(1712832412.003262) vcan0 200#FF3F960A8E0503
(1712832412.003264) vcan0 101#000000
(1712832412.005587) vcan0 111#00
(1712832412.005601) vcan2 3D0#0000
(1712832412.007440) vcan1 1DA#024000000000E0E0
(1712832412.008941) vcan0 600#03
(1712832412.009055) vcan2 050#0009B8B1
(1712832412.009058) vcan2 38A#62026000
(1712832412.009060) vcan2 388#E602E4
(1712832412.009063) vcan2 5E0#00FFFFFF00008000
(1712832412.015033) vcan2 4A0#0000000000000000
(1712832412.015037) vcan2 5A0#000000A70904102B
(1712832412.016611) vcan0 200#FF3F980A660503
(1712832412.016623) vcan0 101#000000
(1712832412.016625) vcan0 111#00
(1712832412.016674) vcan1 1DA#020000000000E1C7
(1712832412.016703) vcan2 1A0#00050000FEFE0008
(1712832412.016718) vcan2 320#12027F0100000000
(1712832412.019098) vcan0 100#000000
(1712832412.019101) vcan0 110#00
(1712832412.023090) vcan0 200#FF3F930A4C0503
(1712832412.023095) vcan0 101#000000
(1712832412.025403) vcan0 111#00
(1712832412.025426) vcan2 3D0#0000
(1712832412.027381) vcan1 1DA#020000000000E2CD
(1712832412.029801) vcan0 600#03
(1712832412.029908) vcan2 38A#72027000
(1712832412.029915) vcan2 050#0009C8C1
(1712832412.029919) vcan2 388#E702E5
(1712832412.029924) vcan2 470#000000FF00
(1712832412.029928) vcan2 570#8721FF07
(1712832412.029932) vcan2 5D0#800240A03041
(1712832412.033590) vcan2 5D8#550C000310000000
(1712832412.033596) vcan2 5E0#00FFFFFF00008000
(1712832412.033608) vcan2 4A0#0000000000000000
(1712832412.033614) vcan2 5A0#0000007E1104102B
(1712832412.033618) vcan2 1A0#00050000FEFE0009
(1712832412.034804) vcan0 200#FF3F930A5C0503
(1712832412.034810) vcan0 101#000000
(1712832412.034894) vcan2 320#12027F0100000000
(1712832412.036581) vcan0 111#00
(1712832412.036724) vcan1 1DA#024000000000E3EA
(1712832412.038953) vcan0 100#000000
(1712832412.038963) vcan0 110#00
(1712832412.046640) vcan0 200#FF3F990A590503
(1712832412.046655) vcan0 101#000000
(1712832412.046663) vcan0 111#00
(1712832412.046730) vcan2 3D0#0000
(1712832412.052211) vcan0 600#03
(1712832412.052234) vcan0 200#FF3F990A2B0503
(1712832412.052296) vcan2 050#0009D8D1
(1712832412.052310) vcan2 38A#82028000
(1712832412.052310) vcan1 1DA#024000000000E0E0
(1712832412.052316) vcan2 388#E802EA
(1712832412.052322) vcan2 5E0#00FFFFFF00008000
(1712832412.052327) vcan2 4A0#0000000000000000
(1712832412.052332) vcan2 5A0#0000004A1904102B
(1712832412.052336) vcan2 1A0#00050000FEFE000A
(1712832412.053482) vcan0 101#000000
(1712832412.053550) vcan2 320#12027F0100000000
(1712832412.056526) vcan0 111#00
(1712832412.056699) vcan1 1DA#020000000000E1C7
(1712832412.058835) vcan0 100#000000
(1712832412.058842) vcan0 110#00
(1712832412.063080) vcan0 200#FF3F940A540503
(1712832412.063086) vcan0 101#000000
(1712832412.065413) vcan0 111#00
(1712832412.065431) vcan2 3D0#0000
(1712832412.067408) vcan1 1DA#020000000000E2CD
(1712832412.067417) vcan1 55A#1C3D3C005F0082F0
(1712832412.068987) vcan2 050#0009E8E1
(1712832412.068990) vcan2 38A#92029000
(1712832412.085868) vcan0 600#03
(1712832412.085883) vcan0 200#FF3F930A580503
(1712832412.085885) vcan0 101#000000
(1712832412.085888) vcan0 111#00
(1712832412.085891) vcan0 100#000000
(1712832412.085894) vcan0 110#00
(1712832412.085897) vcan0 1A0#000002
(1712832412.085900) vcan0 200#FF3F8F0A580503
(1712832412.085902) vcan0 101#000000
(1712832412.085904) vcan0 111#00
(1712832412.085984) vcan2 388#E902EB
(1712832412.085991) vcan2 5E0#00FFFFFF00008000
(1712832412.085994) vcan2 4A0#0000000000000000
(1712832412.085997) vcan2 5A0#000000192104102B
(1712832412.085999) vcan2 1A0#00050000FEFE000B
(1712832412.086002) vcan2 320#12027F0100000000
(1712832412.086004) vcan2 470#000000FF00
(1712832412.086006) vcan2 520#404201D4135E4B03
(1712832412.086008) vcan2 3D0#0000
(1712832412.087298) vcan1 1DA#024000000000E3EA
(1712832412.087307) vcan1 1DA#024000000000E0E0
(1712832412.089244) vcan2 050#0009F8F1
(1712832412.089250) vcan2 38A#A202A000
(1712832412.089252) vcan2 388#EA02E8
(1712832412.089255) vcan2 5E0#00FFFFFF00008000
(1712832412.092168) vcan0 600#03
(1712832412.092174) vcan0 200#FF3F990A580503
(1712832412.092430) vcan2 4A0#0000000000000000
(1712832412.092436) vcan2 5A0#000000F62804102B
(1712832412.092439) vcan2 1A0#00050000FEFE000C
(1712832412.094020) vcan0 101#000000
(1712832412.094153) vcan2 320#12027F0100000000
(1712832412.096415) vcan0 111#00
(1712832412.096599) vcan1 1DA#020000000000E1C7
(1712832412.099135) vcan0 100#000000
(1712832412.099138) vcan0 110#00
(1712832412.103180) vcan0 200#FF3F720A540503
(1712832412.103186) vcan0 101#000000
(1712832412.105607) vcan0 111#00
(1712832412.105760) vcan2 3D0#0000
(1712832412.107525) vcan1 1DA#020000000000E2CD
(1712832412.109673) vcan0 600#03
(1712832412.109902) vcan2 050#00090801
(1712832412.109919) vcan2 38A#B202B000
(1712832412.109926) vcan2 388#EB02E9
(1712832412.111479) vcan2 5E0#00FFFFFF00008000
(1712832412.116993) vcan0 200#FF3F920A600503
(1712832412.117004) vcan0 101#000000
(1712832412.117014) vcan0 111#00
(1712832412.117101) vcan2 4A0#0000000000000000
(1712832412.117114) vcan2 5A0#000000B83004102B
(1712832412.117124) vcan2 1A0#00050000FEFE000D
(1712832412.117134) vcan2 320#12027F0100000000
(1712832412.117144) vcan2 5DE#0000000D00
(1712832412.118851) vcan0 100#000000
(1712832412.118862) vcan0 110#00
(1712832412.119111) vcan1 1DA#024000000000E3EA
(1712832412.123268) vcan0 200#FF3F960A5B0503
(1712832412.123278) vcan0 101#000000
(1712832412.125460) vcan0 111#00
(1712832412.125490) vcan2 3D0#0000
(1712832412.127582) vcan1 1DA#024000000000E0E0
(1712832412.128967) vcan0 600#03
(1712832412.129001) vcan2 050#00091811
(1712832412.129005) vcan2 38A#C202C000
(1712832412.131828) vcan2 388#EC02EE
(1712832412.131833) vcan2 470#000000FF00
(1712832412.131836) vcan2 570#8721FF07
(1712832412.131839) vcan2 5D0#800240A03041
(1712832412.135728) vcan2 5D8#550C000310000000
(1712832412.135750) vcan2 5E0#00FFFFFF00008000
(1712832412.135753) vcan2 4A0#0000000000000000
(1712832412.135756) vcan2 5A0#0000008F3804102B
(1712832412.135758) vcan2 1A0#00050000FEFE000E
(1712832412.138926) vcan2 320#12027F0100000000
(1712832412.138992) vcan0 200#FF3F8F0A900503
(1712832412.138994) vcan0 101#000000
(1712832412.138996) vcan0 111#00
(1712832412.138997) vcan0 110#00
(1712832412.138998) vcan0 100#000000
(1712832412.139104) vcan1 1DA#020000000000E1C7
(1712832412.148026) vcan2 3D0#0000
(1712832412.148050) vcan0 200#FF3F8B0A640503
(1712832412.148051) vcan0 101#000000
(1712832412.148053) vcan0 111#00
(1712832412.149793) vcan0 600#03
(1712832412.149812) vcan2 050#00092821
(1712832412.149815) vcan2 38A#D202D000
(1712832412.149817) vcan2 388#ED02EF
(1712832412.149819) vcan2 5E0#00FFFFFF00008000
(1712832412.150011) vcan1 1DA#020000000000E2CD
(1712832412.151820) vcan2 4A0#0000000000000000
(1712832412.151823) vcan2 5A0#000000614004102B
(1712832412.151825) vcan2 1A0#00050000FEFE000F
(1712832412.153853) vcan2 320#12027F0100000000
(1712832412.153878) vcan0 200#FF3F990A6D0503
(1712832412.153889) vcan0 101#000000
(1712832412.158411) vcan0 111#00
(1712832412.158414) vcan0 100#000000
(1712832412.158415) vcan0 110#00
(1712832412.158564) vcan1 1DA#024000000000E3EA
(1712832412.163234) vcan0 101#000000
(1712832412.163237) vcan0 200#FF3FA50A5F0503
(1712832412.165435) vcan2 3D0#0000
(1712832412.166732) vcan0 111#00
(1712832412.166920) vcan1 1DA#024000000000E0E0
(1712832412.166929) vcan1 55A#133D3C005F0082F0
(1712832412.172829) vcan2 050#00093831
(1712832412.172833) vcan2 38A#E202E000
(1712832412.172836) vcan2 388#EE02EC
(1712832412.174326) vcan0 600#03
(1712832412.174341) vcan2 5E0#00FFFFFF00008000
(1712832412.174347) vcan2 4A0#0000000000000000
(1712832412.174352) vcan2 5A0#000000364804102B
(1712832412.175689) vcan0 101#000000
(1712832412.175695) vcan0 200#FF3FB90A6F0503
(1712832412.175699) vcan0 111#00
(1712832412.177296) vcan1 1DA#020000000000E1C7
(1712832412.179249) vcan0 100#000000
(1712832412.179262) vcan0 110#00
(1712832412.179419) vcan2 1A0#00050000FEFE0000
(1712832412.179459) vcan2 320#12027F0100000000
(1712832412.179469) vcan2 470#000000FF00
(1712832412.180879) vcan0 1A0#000003
(1712832412.184546) vcan0 101#000000
(1712832412.184559) vcan0 200#FF3F900A5D0503
(1712832412.184607) vcan2 3D0#0000
(1712832412.186384) vcan0 111#00
(1712832412.186566) vcan1 1DA#020000000000E2CD
(1712832412.189593) vcan2 050#00094841
(1712832412.189607) vcan2 38A#F202F000
(1712832412.189612) vcan2 388#EF02ED
(1712832412.194061) vcan2 5E0#00FFFFFF00008000
(1712832412.194071) vcan2 4A0#0000000000000000
(1712832412.194076) vcan2 5A0#000000FB4F04102B
(1712832412.194080) vcan2 1A0#00050000FEFE0001
(1712832412.194084) vcan2 320#12027F0100000000
(1712832412.194088) vcan2 420#828A8AFF00008000
(1712832412.194096) vcan0 600#03
(1712832412.194110) vcan0 101#000000
(1712832412.194115) vcan0 200#FF3F9B0A5E0503
(1712832412.196609) vcan1 1DA#024000000000E3EA
(1712832412.196616) vcan0 111#00
(1712832412.198918) vcan0 100#000000
(1712832412.198923) vcan0 110#00
(1712832412.203349) vcan0 101#000000
(1712832412.203355) vcan0 200#FF3F960A560503
(1712832412.205695) vcan2 3D0#0000
(1712832412.207005) vcan0 111#00
(1712832412.207044) vcan1 1DA#024000000000E0E0
(1712832412.209088) vcan2 050#00095851
(1712832412.209094) vcan2 38A#02020000
(1712832412.209097) vcan2 388#F002F2
(1712832412.209110) vcan0 600#03
(1712832412.212071) vcan2 5E0#00FFFFFF00008000
(1712832412.212075) vcan2 4A0#0000000000000000
(1712832412.212078) vcan2 5A0#000000D55704102B
(1712832412.213728) vcan2 1A0#00050000FEFE0002
(1712832412.213733) vcan2 320#12027F0100000000
(1712832412.213791) vcan0 101#000000
(1712832412.213810) vcan0 200#FF3F760A5F0503
(1712832412.216529) vcan0 111#00
(1712832412.216590) vcan1 1DA#020000000000E1C7
(1712832412.218899) vcan0 100#000000
(1712832412.218901) vcan0 110#00
(1712832412.223226) vcan0 101#000000
(1712832412.223230) vcan0 200#FF3FAC0A550503
(1712832412.227299) vcan1 1DA#020000000000E2CD
(1712832412.227332) vcan0 111#00
(1712832412.227430) vcan2 3D0#0000
(1712832412.233645) vcan2 050#00096861
(1712832412.233650) vcan2 38A#12021000
(1712832412.233654) vcan2 388#F102F3
(1712832412.233657) vcan2 470#000000FF00
(1712832412.233661) vcan2 570#8721FF07
(1712832412.233664) vcan2 5D0#800240A03041
(1712832412.233667) vcan2 5D8#550C000310000000
(1712832412.233670) vcan2 5E0#00FFFFFF00008000
(1712832412.233673) vcan2 4A0#0000000000000000
(1712832412.233675) vcan2 5A0#000000955F04102B
(1712832412.233678) vcan2 1A0#00050000FEFE0003
(1712832412.238168) vcan2 320#12027F0100000000
(1712832412.239453) vcan1 1DA#024000000000E3EA
(1712832412.239506) vcan0 600#03
(1712832412.239513) vcan0 101#000000
(1712832412.239515) vcan0 200#FF3F970A6D0503
(1712832412.239517) vcan0 111#00
(1712832412.239519) vcan0 100#000000
(1712832412.239520) vcan0 110#00
(1712832412.243382) vcan0 101#000000
(1712832412.243385) vcan0 200#FF3F950A580503
(1712832412.248458) vcan2 3D0#0000
(1712832412.249620) vcan0 111#00
(1712832412.249633) vcan1 1DA#024000000000E0E0
(1712832412.249675) vcan2 050#00097871
(1712832412.252842) vcan0 600#03
(1712832412.252846) vcan0 101#000000
(1712832412.252848) vcan0 200#FF3F910A5F0503
(1712832412.252912) vcan2 38A#22022000
(1712832412.252916) vcan2 388#F202F0
(1712832412.252920) vcan2 5E0#00FFFFFF00008000
(1712832412.252922) vcan2 4A0#0000000000000000
(1712832412.252926) vcan2 5A0#000000756704102B
(1712832412.252929) vcan2 1A0#00050000FEFE0004
(1712832412.252932) vcan2 320#12027F0100000000
(1712832412.271558) vcan0 111#00
(1712832412.271569) vcan0 100#000000
(1712832412.271571) vcan0 110#00
(1712832412.271573) vcan0 101#000000
(1712832412.271575) vcan0 200#FF3F990A500503
(1712832412.271577) vcan0 111#00
(1712832412.271579) vcan0 600#03
(1712832412.271612) vcan2 3D0#0000
(1712832412.271620) vcan2 050#00098881
(1712832412.271624) vcan2 38A#32023000
(1712832412.271627) vcan2 388#F302F1
(1712832412.271630) vcan2 5E0#00FFFFFF00008000
(1712832412.271634) vcan2 4A0#0000000000000000
(1712832412.271638) vcan2 5A0#000000426F04102B
(1712832412.271641) vcan2 1A0#00050000FEFE0005
(1712832412.273336) vcan0 101#000000
(1712832412.273343) vcan0 200#FF3F9D0A2F0503
(1712832412.273404) vcan2 320#12027F0100000000
(1712832412.276577) vcan0 111#00
(1712832412.276713) vcan1 1DA#020000000000E1C7
(1712832412.276719) vcan1 1DA#020000000000E2CD
(1712832412.276722) vcan1 55A#AE3D3C005F0082F0
(1712832412.276725) vcan1 1DA#024000000000E3EA
(1712832412.278907) vcan0 100#000000
(1712832412.278912) vcan0 110#00
(1712832412.278915) vcan0 1A0#000000
(1712832412.278980) vcan2 470#000000FF00
(1712832412.283838) vcan0 101#000000
(1712832412.283843) vcan0 200#FF3F9D0A500503
(1712832412.283925) vcan2 520#FB8601D4135E4B03
(1712832412.286932) vcan2 3D0#0000
(1712832412.288257) vcan0 111#00
(1712832412.288282) vcan2 050#00099891
(1712832412.288297) vcan1 1DA#024000000000E0E0
(1712832412.293062) vcan0 600#03
(1712832412.293180) vcan2 38A#42024000
(1712832412.293189) vcan2 388#F402F6
(1712832412.293192) vcan2 5E0#00FFFFFF00008000
(1712832412.293195) vcan2 4A0#0000000000000000
(1712832412.293198) vcan2 5A0#000000097704102B
(1712832412.293200) vcan2 1A0#00050000FEFE0006
(1712832412.298492) vcan0 101#000000
(1712832412.298502) vcan0 200#FF3FA40A640503
(1712832412.300222) vcan0 111#00
(1712832412.300228) vcan0 100#000000
(1712832412.300231) vcan0 110#00
(1712832412.300289) vcan1 1DA#020000000000E1C7
(1712832412.300303) vcan2 320#12027F0100000000
(1712832412.303368) vcan0 101#000000
(1712832412.304670) vcan0 200#FF3F9D0A540503
(1712832412.304820) vcan2 3D0#0000
(1712832412.306754) vcan0 111#00
(1712832412.306805) vcan1 1DA#020000000000E2CD
(1712832412.309642) vcan2 050#0009A8A1
(1712832412.309648) vcan2 38A#52025000
(1712832412.312289) vcan0 600#03
(1712832412.312292) vcan2 388#F502F7
(1712832412.312303) vcan2 5E0#00FFFFFF00008000
(1712832412.313729) vcan0 101#000000
(1712832412.313741) vcan0 200#FF3F8B0A5F0503
(1712832412.313866) vcan2 4A0#0000000000000000
(1712832412.313876) vcan2 5A0#000000E57E04102B
(1712832412.313883) vcan2 1A0#00050000FEFE0007
(1712832412.313889) vcan2 320#12027F0100000000
(1712832412.318910) vcan0 111#00
(1712832412.318921) vcan0 100#000000
(1712832412.318927) vcan0 110#00
(1712832412.318993) vcan2 5DE#0000000D00
(1712832412.319006) vcan1 1DA#024000000000E3EA
(1712832412.323537) vcan0 101#000000
(1712832412.323551) vcan0 200#FF3FA40A730503
(1712832412.326964) vcan0 111#00
(1712832412.327097) vcan2 3D0#0000
(1712832412.327172) vcan1 1DA#024000000000E0E0
(1712832412.329556) vcan2 050#0009B8B1
(1712832412.332637) vcan0 600#03
(1712832412.332746) vcan2 38A#62026000
(1712832412.332769) vcan2 388#F602F4
(1712832412.332779) vcan2 470#000000FF00
(1712832412.332788) vcan2 570#8721FF07
(1712832412.332798) vcan2 5D0#800240A03041
(1712832412.332807) vcan2 5D8#550C000310000000
(1712832412.332815) vcan2 5E0#00FFFFFF00008000
(1712832412.332822) vcan2 4A0#0000000000000000
(1712832412.332829) vcan2 5A0#000000AC8604102B
(1712832412.336150) vcan0 101#000000
(1712832412.336166) vcan0 200#FF3F940A1F0503
(1712832412.336309) vcan2 1A0#00050000FEFE0008
(1712832412.336333) vcan2 320#12027F0100000000
(1712832412.341940) vcan0 111#00
(1712832412.341957) vcan0 100#000000
(1712832412.341963) vcan0 110#00
(1712832412.342237) vcan1 1DA#020000000000E1C7
(1712832412.343691) vcan0 101#000000
(1712832412.343702) vcan0 200#FF3F9F0A5C0503
(1712832412.345677) vcan2 3D0#0000
(1712832412.353243) vcan0 111#00
(1712832412.353400) vcan1 1DA#020000000000E2CD
(1712832412.355155) vcan0 600#03
(1712832412.355168) vcan0 101#000000
(1712832412.355174) vcan0 200#FF3F8A0A540503
(1712832412.355216) vcan2 050#0009C8C1
(1712832412.355226) vcan2 38A#72027000
(1712832412.355231) vcan2 388#F702F5
(1712832412.355235) vcan2 5E0#00FFFFFF00008000
(1712832412.355240) vcan2 4A0#0000000000000000
(1712832412.355244) vcan2 5A0#000000818E04102B
(1712832412.355250) vcan2 1A0#00050000FEFE0009
(1712832412.355255) vcan2 320#12027F0100000000
(1712832412.356918) vcan0 111#00
(1712832412.357092) vcan1 1DA#024000000000E3EA
(1712832412.360970) vcan0 100#000000
(1712832412.360975) vcan0 110#00
(1712832412.363774) vcan0 101#000000
(1712832412.363783) vcan0 200#FF3F970A580503
(1712832412.370554) vcan2 3D0#0000
(1712832412.372060) vcan2 050#0009D8D1
(1712832412.372063) vcan2 38A#82028000
(1712832412.372084) vcan0 111#00
(1712832412.372229) vcan1 1DA#024000000000E0E0
(1712832412.372237) vcan1 55A#AA3D3C005F0082F0
(1712832412.373580) vcan0 600#03
(1712832412.373590) vcan0 101#000000
(1712832412.373593) vcan0 200#FF3F7F0A530503
(1712832412.373608) vcan2 388#F802FA
(1712832412.373629) vcan2 5E0#00FFFFFF00008000
(1712832412.373634) vcan2 4A0#0000000000000000
(1712832412.373636) vcan2 5A0#000000509604102B
(1712832412.373639) vcan2 1A0#00050000FEFE000A
(1712832412.373641) vcan2 320#12027F0100000000
(1712832412.376700) vcan0 111#00
(1712832412.379498) vcan0 100#000000
(1712832412.379502) vcan0 110#00
(1712832412.379504) vcan0 1A0#000001
(1712832412.379544) vcan2 470#000000FF00
(1712832412.379571) vcan1 1DA#020000000000E1C7
(1712832412.383763) vcan0 101#000000
(1712832412.383767) vcan0 200#FF3F920A5E0503
(1712832412.385611) vcan2 3D0#0000
(1712832412.386914) vcan0 111#00
(1712832412.387118) vcan1 1DA#020000000000E2CD
(1712832412.389294) vcan2 050#0009E8E1
(1712832412.391923) vcan0 600#03
(1712832412.391933) vcan2 38A#92029000
(1712832412.391938) vcan2 388#F902FB
(1712832412.391943) vcan2 5E0#00FFFFFF00008000
(1712832412.391948) vcan2 4A0#0000000000000000
(1712832412.391952) vcan2 5A0#000000149E04102B
(1712832412.391955) vcan2 1A0#00050000FEFE000B
(1712832412.393513) vcan2 320#12027F0100000000
(1712832412.393519) vcan2 420#828A8AFF00008000
(1712832412.393520) vcan0 101#000000
(1712832412.393528) vcan0 200#FF3F980A5D0503
(1712832412.396436) vcan0 111#00
(1712832412.396567) vcan1 1DA#024000000000E3EA
(1712832412.399354) vcan0 100#000000
(1712832412.399363) vcan0 110#00
(1712832412.403683) vcan0 101#000000
(1712832412.403689) vcan0 200#FF3F9D0A500503
(1712832412.406721) vcan2 3D0#0000
(1712832412.406758) vcan0 111#00
(1712832412.408534) vcan1 1DA#024000000000E0E0
(1712832412.409841) vcan0 600#03
(1712832412.409862) vcan2 050#0009F8F1
(1712832412.409869) vcan2 38A#A202A000
(1712832412.409873) vcan2 388#FA02F8
(1712832412.409878) vcan2 5E0#00FFFFFF00008000
(1712832412.411517) vcan2 4A0#0000000000000000
(1712832412.411524) vcan2 5A0#000000EDA504102B
(1712832412.411529) vcan2 1A0#00050000FEFE000C
(1712832412.414393) vcan2 320#12027F0100000000
(1712832412.414393) vcan0 101#000000
(1712832412.414399) vcan0 200#FF3FA50A680503
(1712832412.417137) vcan0 111#00
(1712832412.417299) vcan1 1DA#020000000000E1C7
(1712832412.420788) vcan0 100#000000
(1712832412.420799) vcan0 110#00
(1712832412.423544) vcan0 101#000000
(1712832412.423552) vcan0 200#FF3F9A0A540503
(1712832412.425391) vcan2 3D0#0000
(1712832412.426781) vcan0 111#00
(1712832412.426981) vcan1 1DA#020000000000E2CD
(1712832412.431702) vcan0 600#03
(1712832412.431704) vcan2 050#00090801
(1712832412.431707) vcan2 38A#B202B000
(1712832412.431710) vcan2 388#FB02F9
(1712832412.431712) vcan2 470#000000FF00
(1712832412.431715) vcan2 570#8721FF07
(1712832412.431717) vcan2 5D0#800240A03041
(1712832412.431719) vcan2 5D8#550C000310000000
(1712832412.431721) vcan2 4A0#0000000000000000
(1712832412.431723) vcan2 5A0#000000B1AD04102B
(1712832412.431725) vcan2 1A0#00050000FEFE000D
(1712832412.434573) vcan0 101#000000
(1712832412.434576) vcan0 200#FF3FA60A730503
(1712832412.434578) vcan2 5E0#00FFFFFF00008000
(1712832412.434580) vcan2 320#12027F0100000000
(1712832412.437057) vcan0 111#00
(1712832412.437222) vcan1 1DA#024000000000E3EA
(1712832412.439249) vcan0 100#000000
(1712832412.439256) vcan0 110#00
(1712832412.443608) vcan0 101#000000
(1712832412.443612) vcan0 200#FF3F980A340503
(1712832412.445679) vcan2 3D0#0000
(1712832412.453487) vcan0 111#00
(1712832412.453487) vcan2 050#00091811
(1712832412.453502) vcan0 600#03
(1712832412.453503) vcan2 38A#C202C000
(1712832412.453660) vcan1 1DA#024000000000E0E0
(1712832412.454774) vcan2 388#FC02FE
(1712832412.454782) vcan2 5E0#00FFFFFF00008000
(1712832412.456911) vcan2 4A0#0000000000000000
(1712832412.456926) vcan2 5A0#00000090B504102B
(1712832412.456933) vcan0 101#000000
(1712832412.456939) vcan2 1A0#00050000FEFE000E
(1712832412.456947) vcan0 200#FF3F930A4E0503
(1712832412.456951) vcan2 320#12027F0100000000
(1712832412.456956) vcan0 111#00
(1712832412.457190) vcan1 1DA#020000000000E1C7
(1712832412.459183) vcan0 100#000000
(1712832412.459192) vcan0 110#00
(1712832412.463723) vcan0 101#000000
(1712832412.463735) vcan0 200#FF3FA20A580503
(1712832412.465448) vcan2 3D0#0000
(1712832412.466946) vcan0 111#00
(1712832412.467206) vcan1 1DA#020000000000E2CD
(1712832412.467228) vcan1 55A#1D3D3C005F0082F0
(1712832412.471966) vcan2 050#00092821
(1712832412.471975) vcan2 38A#D202D000
(1712832412.471982) vcan2 388#FD02FF
(1712832412.471989) vcan2 5E0#00FFFFFF00008000
(1712832412.471996) vcan2 4A0#0000000000000000
(1712832412.472002) vcan2 5A0#00000057BD04102B
(1712832412.472007) vcan2 1A0#00050000FEFE000F
(1712832412.473616) vcan2 320#12027F0100000000
(1712832412.473625) vcan0 600#03
(1712832412.473636) vcan0 101#000000
(1712832412.473642) vcan0 200#FF3F950A4C0503
(1712832412.476837) vcan0 111#00
(1712832412.477035) vcan1 1DA#024000000000E3EA
(1712832412.479223) vcan0 100#000000
(1712832412.479234) vcan0 110#00
(1712832412.479239) vcan0 1A0#000002
(1712832412.480644) vcan2 470#000000FF00
(1712832412.483685) vcan2 520#1DC401D4135E4B03
(1712832412.483687) vcan0 101#000000
(1712832412.483690) vcan0 200#FF3F9E0A6F0503
(1712832412.486669) vcan0 111#00
(1712832412.486669) vcan2 3D0#0000
(1712832412.486823) vcan1 1DA#024000000000E0E0
(1712832412.490835) vcan2 050#00093831
(1712832412.490838) vcan2 38A#E202E000
(1712832412.490840) vcan2 388#FE02FC
(1712832412.490842) vcan2 5E0#00FFFFFF00008000
(1712832412.493086) vcan0 600#03
(1712832412.493088) vcan2 4A0#0000000000000000
(1712832412.493091) vcan0 101#000000
(1712832412.493091) vcan2 5A0#00000029C504102B
(1712832412.493095) vcan2 1A0#00050000FEFE0000
(1712832412.493097) vcan2 320#12027F0100000000
(1712832412.494618) vcan0 200#FF3F940A590503
(1712832412.496865) vcan0 111#00
(1712832412.496950) vcan1 1DA#020000000000E1C7
(1712832412.499135) vcan0 100#000000
(1712832412.499138) vcan0 110#00
(1712832412.503644) vcan0 101#000000
(1712832412.503647) vcan0 200#FF3F980A5C0503
(1712832412.505695) vcan2 3D0#0000
(1712832412.506985) vcan0 111#00
(1712832412.507692) vcan1 1DA#020000000000E2CD
(1712832412.518461) vcan0 600#03
(1712832412.518462) vcan2 050#00094841
(1712832412.518469) vcan2 38A#F202F000
(1712832412.518473) vcan0 101#000000
(1712832412.518473) vcan2 388#FF02FD
(1712832412.518477) vcan0 200#FF3F9A0A440503
(1712832412.518477) vcan2 5E0#00FFFFFF00008000
(1712832412.518480) vcan0 111#00
(1712832412.518482) vcan2 4A0#0000000000000000
(1712832412.518486) vcan2 5A0#00000000CD04102B
(1712832412.518489) vcan2 1A0#00050000FEFE0001
(1712832412.518491) vcan2 320#12027F0100000000
(1712832412.518566) vcan1 1DA#024000000000E3EA
(1712832412.523132) vcan0 100#000000
(1712832412.523136) vcan0 110#00
(1712832412.523139) vcan0 101#000000
(1712832412.523143) vcan0 200#FF3F970A520503
(1712832412.525347) vcan2 5DE#0000000D00
(1712832412.525352) vcan2 3D0#0000
(1712832412.526881) vcan0 111#00
(1712832412.527091) vcan1 1DA#024000000000E0E0
(1712832412.529402) vcan0 600#03
(1712832412.529406) vcan2 050#00095851
(1712832412.529420) vcan2 38A#02020000
(1712832412.529427) vcan2 388#000202
(1712832412.533096) vcan2 470#000000FF00
(1712832412.533107) vcan2 570#8721FF07
(1712832412.533114) vcan2 5D0#800240A03041
(1712832412.533122) vcan2 5D8#550C000310000000
(1712832412.533128) vcan2 4A0#0000000000000000
(1712832412.533134) vcan2 5A0#000000C5D404102B
(1712832412.536202) vcan2 1A0#00050000FEFE0002
(1712832412.536214) vcan2 5E0#00FFFFFF00008000
(1712832412.536224) vcan2 320#12027F0100000000
(1712832412.536233) vcan0 101#000000
(1712832412.536242) vcan0 200#FF3F870A4F0503
(1712832412.539294) vcan0 111#00
(1712832412.539313) vcan0 100#000000
(1712832412.539321) vcan0 110#00
(1712832412.545046) vcan0 101#000000
(1712832412.545053) vcan0 200#FF3F940A520503
(1712832412.551597) vcan0 111#00
(1712832412.551608) vcan0 600#03
(1712832412.551627) vcan2 3D0#0000
(1712832412.551640) vcan2 050#00096861
(1712832412.551648) vcan2 38A#12021000
(1712832412.551656) vcan2 388#010203
(1712832412.551663) vcan2 5E0#00FFFFFF00008000
(1712832412.551671) vcan2 4A0#0000000000000000
(1712832412.551676) vcan2 5A0#0000009DDC04102B
(1712832412.551797) vcan1 1DA#020000000000E1C7
(1712832412.551818) vcan1 1DA#020000000000E2CD
(1712832412.555607) vcan0 101#000000
(1712832412.555611) vcan2 1A0#00050000FEFE0003
(1712832412.555616) vcan2 320#12027F0100000000
(1712832412.559233) vcan0 200#FF3F850A4F0503
(1712832412.559243) vcan0 111#00
(1712832412.559245) vcan0 110#00
(1712832412.559247) vcan0 100#000000
(1712832412.559299) vcan1 1DA#024000000000E3EA
(1712832412.563814) vcan0 101#000000
(1712832412.563819) vcan0 200#FF3F9A0A5B0503
(1712832412.565420) vcan2 3D0#0000
(1712832412.566965) vcan0 111#00
(1712832412.567002) vcan1 1DA#024000000000E0E0
(1712832412.567011) vcan1 55A#1C3D3C005F0082F0
(1712832412.569643) vcan2 050#00097871
(1712832412.569666) vcan0 600#03
(1712832412.571019) vcan2 38A#22022000
(1712832412.571021) vcan2 388#020200
(1712832412.571023) vcan2 5E0#00FFFFFF00008000
(1712832412.573532) vcan2 4A0#0000000000000000
(1712832412.573535) vcan2 5A0#00000068E404102B
(1712832412.573537) vcan2 1A0#00050000FEFE0004
(1712832412.573539) vcan2 320#12027F0100000000
(1712832412.573680) vcan0 101#000000
(1712832412.573684) vcan0 200#FF3F9E0A640503
(1712832412.577018) vcan0 111#00
(1712832412.577061) vcan1 1DA#020000000000E1C7
(1712832412.578948) vcan0 100#000000
(1712832412.578957) vcan0 110#00
(1712832412.578960) vcan0 1A0#000003
(1712832412.580260) vcan2 470#000000FF00
(1712832412.587385) vcan0 101#000000
(1712832412.587392) vcan0 200#FF3F950A5C0503
(1712832412.587395) vcan0 111#00
(1712832412.587394) vcan1 1DA#020000000000E2CD
(1712832412.589701) vcan2 3D0#0000
(1712832412.589706) vcan2 050#00098881
(1712832412.589708) vcan2 38A#32023000
(1712832412.589711) vcan2 388#030201
(1712832412.589750) vcan0 600#03
(1712832412.591030) vcan2 5E0#00FFFFFF00008000
(1712832412.591034) vcan2 4A0#0000000000000000
(1712832412.591037) vcan2 5A0#00000037EC04102B
(1712832412.592338) vcan2 1A0#00050000FEFE0005
(1712832412.593911) vcan2 320#12027F0100000000
(1712832412.593914) vcan2 420#828A8AFF00008000
(1712832412.593966) vcan0 101#000000
(1712832412.593976) vcan0 200#FF3F930A800503
(1712832412.597373) vcan0 111#00
(1712832412.597430) vcan1 1DA#024000000000E3EA
(1712832412.598835) vcan0 110#00
(1712832412.598847) vcan0 100#000000
(1712832412.603996) vcan0 101#000000
(1712832412.604021) vcan0 200#FF3F920A620503
(1712832412.605387) vcan2 3D0#0000
(1712832412.607654) vcan0 111#00
(1712832412.607696) vcan1 1DA#024000000000E0E0
(1712832412.609477) vcan2 050#00099891
(1712832412.609484) vcan2 38A#42024000
(1712832412.609488) vcan2 388#040206
(1712832412.609604) vcan0 600#03
(1712832412.610727) vcan2 5E0#00FFFFFF00008000
(1712832412.612054) vcan2 4A0#0000000000000000
(1712832412.612059) vcan2 5A0#00000010F404102B
(1712832412.616203) vcan2 1A0#00050000FEFE0006
(1712832412.616208) vcan2 320#12027F0100000000
(1712832412.616234) vcan0 101#000000
(1712832412.616244) vcan0 200#FF3F9F0A7F0503
(1712832412.616247) vcan0 111#00
(1712832412.616285) vcan1 1DA#020000000000E1C7
(1712832412.620465) vcan0 110#00
(1712832412.620473) vcan0 100#000000
(1712832412.624076) vcan0 101#000000
(1712832412.624084) vcan0 200#FF3F910A610503
(1712832412.625434) vcan2 3D0#0000
(1712832412.627049) vcan0 111#00
(1712832412.627094) vcan1 1DA#020000000000E2CD
(1712832412.633568) vcan2 050#0009A8A1
(1712832412.633574) vcan2 38A#52025000
(1712832412.633577) vcan2 388#050207
(1712832412.633580) vcan2 470#000000FF00
(1712832412.633583) vcan2 570#8721FF07
(1712832412.633587) vcan2 5D0#800240A03041
(1712832412.633589) vcan2 5D8#550C000310000000
(1712832412.633592) vcan2 4A0#0000000000000000
(1712832412.633595) vcan2 5A0#000000D5FB04102B
(1712832412.633597) vcan2 1A0#00050000FEFE0007
(1712832412.633600) vcan2 5E0#00FFFFFF00008000
(1712832412.633602) vcan2 320#12027F0100000000
(1712832412.633635) vcan0 600#03
(1712832412.633644) vcan0 101#000000
(1712832412.634915) vcan0 200#FF3F910A500503
(1712832412.636988) vcan0 111#00
(1712832412.637044) vcan1 1DA#024000000000E3EA
(1712832412.638838) vcan0 110#00
(1712832412.638845) vcan0 100#000000
(1712832412.643857) vcan0 101#000000
(1712832412.643864) vcan0 200#FF3F860A500503
(1712832412.649587) vcan0 111#00
(1712832412.649595) vcan0 600#03
(1712832412.649641) vcan1 1DA#024000000000E0E0
(1712832412.649667) vcan2 3D0#0000
(1712832412.649672) vcan2 050#0009B8B1
(1712832412.649675) vcan2 38A#62026000
(1712832412.652559) vcan2 388#060204
(1712832412.652569) vcan2 5E0#00FFFFFF00008000
(1712832412.652573) vcan2 4A0#0000000000000000
(1712832412.652576) vcan2 5A0#000000AF0304102B
(1712832412.652579) vcan2 1A0#00050000FEFE0008
(1712832412.653800) vcan0 101#000000
(1712832412.653805) vcan0 200#FF3FAC0A4D0503
(1712832412.653830) vcan2 320#12027F0100000000
(1712832412.663583) vcan0 111#00
(1712832412.663602) vcan0 110#00
(1712832412.663610) vcan0 100#000000
(1712832412.663651) vcan1 1DA#020000000000E1C7
(1712832412.664911) vcan0 101#000000
(1712832412.664928) vcan0 200#FF3F960A5F0503
(1712832412.664931) vcan2 3D0#0000
(1712832412.667037) vcan0 111#00
(1712832412.667148) vcan1 1DA#020000000000E2CD
(1712832412.667164) vcan1 55A#133D3C005F0082F0
(1712832412.670659) vcan0 600#03
(1712832412.670701) vcan2 050#0009C8C1
(1712832412.670713) vcan2 38A#72027000
(1712832412.670720) vcan2 388#070205
(1712832412.673401) vcan0 101#000000
(1712832412.673415) vcan2 5E0#00FFFFFF00008000
(1712832412.673426) vcan2 4A0#0000000000000000
(1712832412.673434) vcan2 5A0#0000007E0B04102B
(1712832412.673443) vcan2 1A0#00050000FEFE0009
(1712832412.673451) vcan2 320#12027F0100000000
(1712832412.674658) vcan0 200#FF3FA00A580503
(1712832412.677329) vcan0 111#00
(1712832412.677435) vcan1 1DA#024000000000E3EA
(1712832412.678753) vcan0 110#00
(1712832412.678762) vcan0 100#000000
(1712832412.678767) vcan0 1A0#000000
(1712832412.680384) vcan2 470#000000FF00
(1712832412.683918) vcan2 520#010101D4135E4B03
(1712832412.683953) vcan0 101#000000
(1712832412.683961) vcan0 200#FF3F5D0A960503
(1712832412.685594) vcan2 3D0#0000
(1712832412.687069) vcan0 111#00
(1712832412.687133) vcan1 1DA#024000000000E0E0
(1712832412.689825) vcan0 600#03
(1712832412.689866) vcan2 050#0009D8D1
(1712832412.689872) vcan2 38A#82028000
(1712832412.689876) vcan2 388#08020A
(1712832412.691193) vcan2 5E0#00FFFFFF00008000
(1712832412.699956) vcan0 101#000000
(1712832412.699959) vcan0 200#FF3FA20A4F0503
(1712832412.699961) vcan0 111#00
(1712832412.699963) vcan0 110#00
(1712832412.699965) vcan0 100#000000
(1712832412.699994) vcan1 1DA#020000000000E1C7
(1712832412.699999) vcan2 4A0#0000000000000000
(1712832412.700005) vcan2 5A0#000000611304102B
(1712832412.700008) vcan2 1A0#00050000FEFE000A
(1712832412.700011) vcan2 320#12027F0100000000
(1712832412.704238) vcan0 101#000000
(1712832412.704244) vcan0 200#FF3F9E0A600503
(1712832412.705625) vcan2 3D0#0000
(1712832412.707083) vcan0 111#00
(1712832412.707147) vcan1 1DA#020000000000E2CD
(1712832412.709840) vcan0 600#03
(1712832412.709936) vcan2 050#0009E8E1
(1712832412.711331) vcan2 38A#92029000
(1712832412.711346) vcan2 388#09020B
(1712832412.711350) vcan2 5E0#00FFFFFF00008000
(1712832412.713399) vcan2 4A0#0000000000000000
(1712832412.713405) vcan2 5A0#000000181B04102B
(1712832412.713408) vcan2 1A0#00050000FEFE000B
(1712832412.717050) vcan0 101#000000
(1712832412.717058) vcan0 200#FF3F960A590503
(1712832412.717061) vcan0 111#00
(1712832412.717082) vcan1 1DA#024000000000E3EA
(1712832412.717114) vcan2 320#12027F0100000000
(1712832412.717122) vcan2 5DE#0000000D00
(1712832412.718768) vcan0 110#00
(1712832412.718773) vcan0 100#000000
(1712832412.725252) vcan0 101#000000
(1712832412.725260) vcan0 200#FF3F950A5F0503
(1712832412.725262) vcan2 3D0#0000
(1712832412.727077) vcan0 111#00
(1712832412.727159) vcan1 1DA#024000000000E0E0
(1712832412.732764) vcan2 050#0009F8F1
(1712832412.732779) vcan2 38A#A202A000
(1712832412.732786) vcan2 388#0A0208
(1712832412.732793) vcan2 470#000000FF00
(1712832412.732790) vcan0 600#03
(1712832412.732800) vcan2 570#8721FF07
(1712832412.732807) vcan2 5D0#800240A03041
(1712832412.732814) vcan2 5D8#550C000310000000
(1712832412.732821) vcan2 5E0#00FFFFFF00008000
(1712832412.732829) vcan2 4A0#0000000000000000
(1712832412.732836) vcan2 5A0#000000F62204102B
(1712832412.734455) vcan2 1A0#00050000FEFE000C
(1712832412.734462) vcan2 320#12027F0100000000
(1712832412.734500) vcan0 101#000000
(1712832412.734508) vcan0 200#FF3FA50A620503
(1712832412.737187) vcan0 111#00
(1712832412.737329) vcan1 1DA#020000000000E1C7
(1712832412.738878) vcan0 110#00
(1712832412.738888) vcan0 100#000000
(1712832412.744772) vcan2 3D0#0000
(1712832412.744792) vcan0 101#000000
(1712832412.744803) vcan0 200#FF3F8F0A600503
(1712832412.746497) vcan0 111#00
(1712832412.746554) vcan1 1DA#020000000000E2CD
(1712832412.750563) vcan0 600#03
(1712832412.750643) vcan2 050#00090801
(1712832412.750667) vcan2 38A#B202B000
(1712832412.751978) vcan2 388#0B0209
(1712832412.751995) vcan2 5E0#00FFFFFF00008000
(1712832412.752006) vcan2 4A0#0000000000000000
(1712832412.752019) vcan2 5A0#000000B52A04102B
(1712832412.752030) vcan2 1A0#00050000FEFE000D
(1712832412.753739) vcan2 320#12027F0100000000
(1712832412.753768) vcan0 101#000000
(1712832412.753777) vcan0 200#FF3F930A580503
(1712832412.760355) vcan0 111#00
(1712832412.760462) vcan1 1DA#024000000000E3EA
(1712832412.761708) vcan0 110#00
(1712832412.763905) vcan0 100#000000
(1712832412.763918) vcan0 101#000000
(1712832412.763924) vcan0 200#FF3F8F0A680503
(1712832412.765504) vcan2 3D0#0000
(1712832412.767605) vcan0 111#00
(1712832412.767707) vcan1 1DA#024000000000E0E0
(1712832412.767715) vcan1 55A#AE3D3C005F0082F0
(1712832412.769839) vcan2 050#00091811
(1712832412.771413) vcan2 38A#C202C000
(1712832412.771416) vcan2 388#0C020E
(1712832412.771418) vcan2 5E0#00FFFFFF00008000
(1712832412.771419) vcan0 600#03
(1712832412.773459) vcan0 101#000000
(1712832412.773480) vcan2 4A0#0000000000000000
(1712832412.773482) vcan2 5A0#000000933204102B
(1712832412.773485) vcan2 1A0#00050000FEFE000E
(1712832412.773487) vcan2 320#12027F0100000000
(1712832412.774732) vcan0 200#FF3F750A720503
(1712832412.777610) vcan0 111#00
(1712832412.777690) vcan1 1DA#020000000000E1C7
(1712832412.782499) vcan2 470#000000FF00
(1712832412.782513) vcan0 110#00
(1712832412.782520) vcan0 100#000000
(1712832412.782522) vcan0 1A0#000001
(1712832412.783911) vcan0 101#000000
(1712832412.783915) vcan0 200#FF3F920A580503
(1712832412.785351) vcan2 3D0#0000
(1712832412.787271) vcan0 111#00
(1712832412.787338) vcan1 1DA#020000000000E2CD
(1712832412.789953) vcan0 600#03
(1712832412.789985) vcan2 050#00092821
(1712832412.789988) vcan2 38A#D202D000
(1712832412.789990) vcan2 388#0D020F
(1712832412.791681) vcan2 5E0#00FFFFFF00008000
(1712832412.791683) vcan2 4A0#0000000000000000
(1712832412.791685) vcan2 5A0#000000603A04102B
(1712832412.794398) vcan0 101#000000
(1712832412.794402) vcan0 200#FF3FB30A630503
(1712832412.794414) vcan2 1A0#00050000FEFE000F
(1712832412.794427) vcan2 320#12027F0100000000
(1712832412.794429) vcan2 420#828A8AFF00008000
(1712832412.798830) vcan0 111#00
(1712832412.798834) vcan1 1DA#024000000000E3EA
(1712832412.798842) vcan0 100#000000
(1712832412.798846) vcan0 110#00
(1712832412.803958) vcan0 101#000000
(1712832412.803967) vcan0 200#FF3F920A610503
(1712832412.805686) vcan2 3D0#0000
(1712832412.807161) vcan0 111#00
(1712832412.807237) vcan1 1DA#024000000000E0E0
(1712832412.810135) vcan0 600#03
(1712832412.810163) vcan2 050#00093831
(1712832412.810177) vcan2 38A#E202E000
(1712832412.810184) vcan2 388#0E020C
(1712832412.815080) vcan0 101#000000
(1712832412.815083) vcan2 5E0#00FFFFFF00008000
(1712832412.815090) vcan0 200#FF3F8E0A540503
(1712832412.815104) vcan2 4A0#0000000000000000
(1712832412.815115) vcan2 5A0#000000234204102B
(1712832412.815125) vcan2 1A0#00050000FEFE0000
(1712832412.815133) vcan2 320#12027F0100000000
(1712832412.816352) vcan0 111#00
(1712832412.816443) vcan1 1DA#020000000000E1C7
(1712832412.818940) vcan0 110#00
(1712832412.818952) vcan0 100#000000
(1712832412.824147) vcan0 101#000000
(1712832412.824152) vcan0 200#FF3F9F0A5B0503
(1712832412.825481) vcan2 3D0#0000
(1712832412.827122) vcan0 111#00
(1712832412.827288) vcan1 1DA#020000000000E2CD
(1712832412.830141) vcan0 600#03
(1712832412.830184) vcan2 050#00094841
(1712832412.833421) vcan2 38A#F202F000
(1712832412.833427) vcan2 388#0F020D
(1712832412.833430) vcan2 470#000000FF00
(1712832412.833433) vcan2 570#8721FF07
(1712832412.836454) vcan2 5D0#800240A03041
(1712832412.836458) vcan2 5D8#550C000310000000
(1712832412.836461) vcan2 4A0#0000000000000000
(1712832412.836465) vcan2 5A0#000000044A04102B
(1712832412.836467) vcan2 1A0#00050000FEFE0001
(1712832412.836469) vcan2 5E0#00FFFFFF00008000
(1712832412.836471) vcan2 320#12027F0100000000
(1712832412.836475) vcan0 101#000000
(1712832412.836478) vcan0 200#FF3FAD0A650503
(1712832412.836480) vcan0 111#00
(1712832412.836540) vcan1 1DA#024000000000E3EA
(1712832412.838755) vcan0 110#00
(1712832412.838767) vcan0 100#000000
(1712832412.843918) vcan0 101#000000
(1712832412.845243) vcan0 200#FF3F8F0A500503
(1712832412.846943) vcan2 3D0#0000
(1712832412.846970) vcan1 1DA#024000000000E0E0
(1712832412.852190) vcan2 050#00095851
(1712832412.852194) vcan2 38A#02020000
(1712832412.852214) vcan0 111#00
(1712832412.852216) vcan0 600#03
(1712832412.853607) vcan0 101#000000
(1712832412.853607) vcan2 388#100212
(1712832412.853611) vcan2 5E0#00FFFFFF00008000
(1712832412.853615) vcan2 4A0#0000000000000000
(1712832412.853617) vcan2 5A0#000000CA5104102B
(1712832412.853619) vcan2 1A0#00050000FEFE0002
(1712832412.853621) vcan2 320#12027F0100000000
(1712832412.856539) vcan0 200#FF3F9F0A670503
(1712832412.856541) vcan0 111#00
(1712832412.856659) vcan1 1DA#020000000000E1C7
(1712832412.858802) vcan0 110#00
(1712832412.858811) vcan0 100#000000
(1712832412.866447) vcan0 101#000000
(1712832412.866453) vcan0 200#FF3F990A5A0503
(1712832412.866456) vcan0 111#00
(1712832412.866467) vcan2 3D0#0000
(1712832412.866568) vcan1 1DA#020000000000E2CD
(1712832412.866578) vcan1 55A#AA3D3C005F0082F0
(1712832412.869946) vcan2 050#00096861
(1712832412.869949) vcan0 600#03
(1712832412.874266) vcan0 101#000000
(1712832412.874271) vcan2 38A#12021000
(1712832412.874274) vcan0 200#FF3FA90A5F0503
(1712832412.874281) vcan2 388#110213
(1712832412.874289) vcan2 5E0#00FFFFFF00008000
(1712832412.874296) vcan2 4A0#0000000000000000
(1712832412.874303) vcan2 5A0#000000A15904102B
(1712832412.874309) vcan2 1A0#00050000FEFE0003
(1712832412.874315) vcan2 320#12027F0100000000
(1712832412.877020) vcan0 111#00
(1712832412.877230) vcan1 1DA#024000000000E3EA
(1712832412.878834) vcan0 100#000000
(1712832412.878852) vcan0 110#00
(1712832412.878862) vcan0 1A0#000002
(1712832412.880832) vcan2 470#000000FF00
(1712832412.883776) vcan2 520#404201D4135E4B03
(1712832412.886953) vcan2 3D0#0000
(1712832412.887014) vcan0 101#000000
(1712832412.887022) vcan0 200#FF3F920A660503
(1712832412.887027) vcan0 111#00
(1712832412.887189) vcan1 1DA#024000000000E0E0
(1712832412.889701) vcan2 050#00097871
(1712832412.889706) vcan0 600#03
(1712832412.891282) vcan2 38A#22022000
(1712832412.891301) vcan2 388#120210
(1712832412.891305) vcan2 5E0#00FFFFFF00008000
(1712832412.891309) vcan2 4A0#0000000000000000
(1712832412.891313) vcan2 5A0#000000706104102B
(1712832412.892804) vcan2 1A0#00050000FEFE0004
(1712832412.894143) vcan2 320#12027F0100000000
(1712832412.894164) vcan0 101#000000
(1712832412.894183) vcan0 200#FF3F950ADF0503
(1712832412.897740) vcan0 111#00
(1712832412.897939) vcan1 1DA#020000000000E1C7
(1712832412.899076) vcan0 110#00
(1712832412.899080) vcan0 100#000000
(1712832412.904011) vcan0 101#000000
(1712832412.904015) vcan0 200#FF3F9B0A620503
(1712832412.905323) vcan2 3D0#0000
(1712832412.907029) vcan0 111#00
(1712832412.907215) vcan1 1DA#020000000000E2CD
(1712832412.909702) vcan2 050#00098881
(1712832412.911341) vcan2 38A#32023000
(1712832412.911345) vcan2 388#130211
(1712832412.911347) vcan0 600#03
(1712832412.911348) vcan2 5E0#00FFFFFF00008000
(1712832412.913294) vcan0 101#000000
(1712832412.913299) vcan2 4A0#0000000000000000
(1712832412.913304) vcan2 5A0#000000326904102B
(1712832412.913308) vcan2 1A0#00050000FEFE0005
(1712832412.913311) vcan2 320#12027F0100000000
(1712832412.914869) vcan0 200#FF3F9B0A580503
(1712832412.914883) vcan2 5DE#0000000D00
(1712832412.917715) vcan0 111#00
(1712832412.917928) vcan1 1DA#024000000000E3EA
(1712832412.919042) vcan0 110#00
(1712832412.919044) vcan0 100#000000
(1712832412.924585) vcan0 101#000000
(1712832412.924596) vcan0 200#FF3F8B0A5D0503
(1712832412.925889) vcan2 3D0#0000
(1712832412.927153) vcan0 111#00
(1712832412.927319) vcan1 1DA#024000000000E0E0
(1712832412.931626) vcan2 050#00099891
(1712832412.931634) vcan2 38A#42024000
(1712832412.931637) vcan2 388#140216
(1712832412.931634) vcan0 600#03
(1712832412.933339) vcan2 470#000000FF00
(1712832412.933341) vcan2 570#8721FF07
(1712832412.933344) vcan2 5D0#800240A03041
(1712832412.933347) vcan2 4A0#0000000000000000
(1712832412.933349) vcan2 5A0#0000000B7104102B
(1712832412.933351) vcan2 1A0#00050000FEFE0006
(1712832412.934969) vcan0 101#000000
(1712832412.934972) vcan0 200#FF3F9C0A680503
(1712832412.934980) vcan2 5D8#550C000310000000
(1712832412.934985) vcan2 5E0#00FFFFFF00008000
(1712832412.934987) vcan2 320#12027F0100000000
(1712832412.937151) vcan0 111#00
(1712832412.937390) vcan1 1DA#020000000000E1C7
(1712832412.941214) vcan0 110#00
(1712832412.941229) vcan0 100#000000
(1712832412.944461) vcan0 101#000000
(1712832412.944467) vcan0 200#FF3FB00A5A0503
(1712832412.947290) vcan0 111#00
(1712832412.947298) vcan2 3D0#0000
(1712832412.947564) vcan1 1DA#020000000000E2CD
(1712832412.951460) vcan0 600#03
(1712832412.951505) vcan2 050#0009A8A1
(1712832412.951518) vcan2 38A#52025000
(1712832412.951523) vcan2 388#150217
(1712832412.951529) vcan2 5E0#00FFFFFF00008000
(1712832412.951534) vcan2 4A0#0000000000000000
(1712832412.951539) vcan2 5A0#000000D37804102B
(1712832412.951544) vcan2 1A0#00050000FEFE0007
(1712832412.957848) vcan2 320#12027F0100000000
(1712832412.957888) vcan0 101#000000
(1712832412.957897) vcan0 200#FF3F920A590503
(1712832412.957901) vcan0 111#00
(1712832412.959160) vcan0 100#000000
(1712832412.959166) vcan0 110#00
(1712832412.967388) vcan0 101#000000
(1712832412.967394) vcan0 200#FF3F890A6B0503
(1712832412.969380) vcan0 111#00
(1712832412.969383) vcan0 600#03
(1712832412.969433) vcan2 3D0#0000
(1712832412.969437) vcan2 050#0009B8B1
(1712832412.969729) vcan1 1DA#024000000000E3EA
(1712832412.969740) vcan1 1DA#024000000000E0E0
(1712832412.969745) vcan1 55A#1D3D3C005F0082F0
(1712832412.971418) vcan2 38A#62026000
(1712832412.971422) vcan2 388#160214
(1712832412.971425) vcan2 5E0#00FFFFFF00008000
(1712832412.971428) vcan2 4A0#0000000000000000
(1712832412.971431) vcan2 5A0#000000B08004102B
(1712832412.971433) vcan2 1A0#00050000FEFE0008
(1712832412.975560) vcan2 320#12027F0100000000
(1712832412.975705) vcan0 101#000000
(1712832412.975718) vcan0 200#FF3FA00A5A0503
(1712832412.977135) vcan0 111#00
(1712832412.977310) vcan1 1DA#020000000000E1C7
(1712832412.981956) vcan2 470#000000FF00
(1712832412.982106) vcan0 100#000000
(1712832412.982123) vcan0 110#00
(1712832412.982131) vcan0 1A0#000003
(1712832412.984411) vcan0 101#000000
(1712832412.984435) vcan0 200#FF3F980A5F0503
(1712832412.985455) vcan2 3D0#0000
(1712832412.987208) vcan0 111#00
(1712832412.987381) vcan1 1DA#020000000000E2CD
(1712832412.990020) vcan2 050#0009C8C1
(1712832412.990239) vcan0 600#03
(1712832412.991391) vcan2 38A#72027000
(1712832412.991401) vcan2 388#170215
(1712832412.991412) vcan2 4A0#0000000000000000
(1712832412.991420) vcan2 5A0#000000798804102B
(1712832412.992696) vcan2 1A0#00050000FEFE0009
(1712832412.992707) vcan2 5E0#00FFFFFF00008000
(1712832412.994861) vcan2 320#12027F0100000000
(1712832412.997643) vcan0 101#000000
(1712832412.997666) vcan0 200#FF3F9F0A560503
(1712832412.997675) vcan0 111#00
(1712832412.997744) vcan1 1DA#024000000000E3EA
(1712832412.999025) vcan0 100#000000
(1712832412.999099) vcan0 110#00
(1712832413.004507) vcan0 101#000000
(1712832413.004529) vcan0 200#FF3F980A330503
(1712832413.005838) vcan2 420#828A8AFF00008000
(1712832413.005849) vcan2 3D0#0000
(1712832413.007059) vcan0 111#00
(1712832413.007309) vcan1 1DA#024000000000E0E0
(1712832413.010100) vcan0 600#03
(1712832413.010118) vcan2 050#0009D8D1
(1712832413.010128) vcan2 38A#82028000
(1712832413.010134) vcan2 388#18021A
(1712832413.011411) vcan2 5E0#00FFFFFF00008000
(1712832413.011426) vcan2 4A0#0000000000000000
(1712832413.013991) vcan0 101#000000
(1712832413.014027) vcan2 5A0#000000469004102B
(1712832413.014039) vcan2 1A0#00050000FEFE000A
(1712832413.014048) vcan2 320#12027F0100000000
(1712832413.016848) vcan0 200#FF3F940A580503
(1712832413.016855) vcan0 111#00
(1712832413.017219) vcan1 1DA#020000000000E1C7
(1712832413.018722) vcan0 110#00
(1712832413.018731) vcan0 100#000000
(1712832413.027115) vcan0 101#000000
(1712832413.027121) vcan2 3D0#0000
(1712832413.027126) vcan0 200#FF3F9F0A600503
(1712832413.027131) vcan0 111#00
(1712832413.027412) vcan1 1DA#020000000000E2CD
(1712832413.034477) vcan0 600#03
(1712832413.034495) vcan0 101#000000
(1712832413.034494) vcan2 050#0009E8E1
(1712832413.034506) vcan2 38A#92029000
(1712832413.034514) vcan2 388#19021B
(1712832413.034522) vcan2 470#000000FF00
(1712832413.034529) vcan2 570#8721FF07
(1712832413.034537) vcan2 4A0#0000000000000000
(1712832413.034544) vcan2 5A0#0000001C9804102B
(1712832413.034551) vcan2 1A0#00050000FEFE000B
(1712832413.034557) vcan2 5D0#800240A03041
(1712832413.034564) vcan2 5D8#550C000310000000
(1712832413.034569) vcan2 5E0#00FFFFFF00008000
(1712832413.034574) vcan2 320#12027F0100000000
(1712832413.036866) vcan0 200#FF3F970A780503
(1712832413.036871) vcan0 111#00
(1712832413.037149) vcan1 1DA#024000000000E3EA
(1712832413.038793) vcan0 110#00
(1712832413.038797) vcan0 100#000000
(1712832413.044282) vcan0 101#000000
(1712832413.044291) vcan0 200#FF3F900A500503
(1712832413.045431) vcan2 3D0#0000
(1712832413.047083) vcan0 111#00
(1712832413.047223) vcan1 1DA#024000000000E0E0
(1712832413.051568) vcan2 050#0009F8F1
(1712832413.051572) vcan2 38A#A202A000
(1712832413.051574) vcan2 388#1A0218
(1712832413.051576) vcan2 5E0#00FFFFFF00008000
(1712832413.051578) vcan2 4A0#0000000000000000
(1712832413.051580) vcan2 5A0#000000E79F04102B
(1712832413.051582) vcan2 1A0#00050000FEFE000C
(1712832413.051664) vcan0 600#03
(1712832413.057074) vcan2 320#12027F0100000000
(1712832413.057178) vcan0 101#000000
(1712832413.057186) vcan0 200#FF3FA80A940503
(1712832413.058444) vcan0 111#00
(1712832413.058451) vcan0 100#000000
(1712832413.058454) vcan0 110#00
(1712832413.058598) vcan1 1DA#020000000000E1C7
(1712832413.067648) vcan2 3D0#0000
(1712832413.067681) vcan0 101#000000
(1712832413.067689) vcan0 200#FF3F920A550503
(1712832413.069947) vcan1 1DA#020000000000E2CD
(1712832413.069955) vcan1 55A#1C3D3C005F0082F0
(1712832413.071443) vcan2 050#00090801
(1712832413.071446) vcan2 38A#B202B000
(1712832413.071448) vcan2 388#1B0219
(1712832413.071451) vcan2 5E0#00FFFFFF00008000
(1712832413.071453) vcan2 4A0#0000000000000000
(1712832413.071455) vcan2 5A0#000000BEA704102B
(1712832413.071457) vcan2 1A0#00050000FEFE000D
(1712832413.071546) vcan0 111#00
(1712832413.071551) vcan0 600#03
(1712832413.075368) vcan2 320#12027F0100000000
(1712832413.075516) vcan0 101#000000
(1712832413.075524) vcan0 200#FF3F970A580503
(1712832413.077109) vcan0 111#00
(1712832413.077283) vcan1 1DA#024000000000E3EA
(1712832413.082054) vcan0 100#000000
(1712832413.082063) vcan0 110#00
(1712832413.085018) vcan2 470#000000FF00
(1712832413.085023) vcan2 520#FB8601D4135E4B03
(1712832413.085025) vcan2 3D0#0000
(1712832413.085048) vcan0 1A0#000000
(1712832413.085053) vcan0 101#000000
(1712832413.085057) vcan0 200#FF3F940A600503
(1712832413.087121) vcan0 111#00
(1712832413.087180) vcan1 1DA#024000000000E0E0
(1712832413.089826) vcan2 050#00091811
(1712832413.089898) vcan0 600#03
(1712832413.091364) vcan2 38A#C202C000
(1712832413.091368) vcan2 388#1C021E
(1712832413.091370) vcan2 5E0#00FFFFFF00008000
(1712832413.091372) vcan2 4A0#0000000000000000
(1712832413.091373) vcan2 5A0#0000008CAF04102B
(1712832413.094462) vcan2 1A0#00050000FEFE000E
(1712832413.094464) vcan2 320#12027F0100000000
(1712832413.094600) vcan0 101#000000
(1712832413.094609) vcan0 200#FF3F970A530503
(1712832413.098343) vcan0 111#00
(1712832413.098405) vcan1 1DA#020000000000E1C7
(1712832413.100372) vcan0 100#000000
(1712832413.100379) vcan0 110#00
(1712832413.104357) vcan2 3D0#0000
(1712832413.104451) vcan0 101#000000
(1712832413.104459) vcan0 200#FF3FAA0A5C0503
(1712832413.107116) vcan0 111#00
(1712832413.107274) vcan1 1DA#020000000000E2CD
(1712832413.113414) vcan2 050#00092821
(1712832413.113418) vcan2 38A#D202D000
(1712832413.113421) vcan2 388#1D021F
(1712832413.113424) vcan2 5E0#00FFFFFF00008000
(1712832413.113427) vcan2 4A0#0000000000000000
(1712832413.113429) vcan2 5A0#0000005AB704102B
(1712832413.113432) vcan2 1A0#00050000FEFE000F
(1712832413.113434) vcan2 320#12027F0100000000
(1712832413.113464) vcan0 600#03
(1712832413.113474) vcan0 101#000000
(1712832413.115154) vcan2 5DE#0000000D00
(1712832413.115186) vcan0 200#FF3F910A5C0503
(1712832413.118654) vcan0 111#00
(1712832413.118747) vcan1 1DA#024000000000E3EA
(1712832413.121240) vcan0 110#00
(1712832413.121247) vcan0 100#000000
(1712832413.124313) vcan0 101#000000
(1712832413.124319) vcan0 200#FF3F940A5F0503
(1712832413.125557) vcan2 3D0#0000
(1712832413.127278) vcan0 111#00
(1712832413.127411) vcan1 1DA#024000000000E0E0
(1712832413.133598) vcan2 050#00093831
(1712832413.133603) vcan2 38A#E202E000
(1712832413.133606) vcan2 388#1E021C
(1712832413.133609) vcan2 470#000000FF00
(1712832413.133613) vcan2 570#8721FF07
(1712832413.133616) vcan2 4A0#0000000000000000
(1712832413.133620) vcan2 5A0#00000033BF04102B
(1712832413.133623) vcan2 1A0#00050000FEFE0000
(1712832413.133626) vcan2 5D0#800240A03041
(1712832413.133629) vcan2 5D8#550C000310000000
(1712832413.133632) vcan2 5E0#00FFFFFF00008000
(1712832413.133635) vcan2 320#12027F0100000000
(1712832413.133663) vcan0 600#03
(1712832413.134967) vcan0 101#000000
(1712832413.134976) vcan0 200#FF3F950A660503
(1712832413.137051) vcan0 111#00
(1712832413.137200) vcan1 1DA#020000000000E1C7
(1712832413.138937) vcan0 100#000000
(1712832413.138951) vcan0 110#00
(1712832413.144355) vcan2 3D0#0000
(1712832413.144533) vcan0 101#000000
(1712832413.144556) vcan0 200#FF3F960A570503
(1712832413.147157) vcan0 111#00
(1712832413.147297) vcan1 1DA#020000000000E2CD
(1712832413.149992) vcan2 050#00094841
(1712832413.150179) vcan0 600#03
(1712832413.151311) vcan2 38A#F202F000
(1712832413.151319) vcan2 388#1F021D
(1712832413.151327) vcan2 5E0#00FFFFFF00008000
(1712832413.151333) vcan2 4A0#0000000000000000
(1712832413.153722) vcan2 5A0#000000F8C604102B
(1712832413.153731) vcan2 1A0#00050000FEFE0001
(1712832413.153738) vcan2 320#12027F0100000000
(1712832413.153916) vcan0 101#000000
(1712832413.155460) vcan0 200#FF3F9C0A3F0503
(1712832413.159563) vcan0 111#00
(1712832413.159807) vcan1 1DA#024000000000E3EA
(1712832413.160953) vcan0 110#00
(1712832413.160979) vcan0 100#000000
(1712832413.163968) vcan0 101#000000
(1712832413.170121) vcan2 3D0#0000
(1712832413.170232) vcan0 200#FF3F990A6E0503
(1712832413.170242) vcan0 111#00
(1712832413.170408) vcan1 1DA#024000000000E0E0
(1712832413.170420) vcan1 55A#133D3C005F0082F0
(1712832413.174435) vcan2 050#00095851
(1712832413.174445) vcan2 38A#02020000
(1712832413.174450) vcan2 388#200222
(1712832413.174456) vcan2 5E0#00FFFFFF00008000
(1712832413.174460) vcan2 4A0#0000000000000000
(1712832413.174464) vcan2 5A0#000000D0CE04102B
(1712832413.174468) vcan2 1A0#00050000FEFE0002
(1712832413.174472) vcan2 320#12027F0100000000
(1712832413.174512) vcan0 600#03
(1712832413.174525) vcan0 101#000000
(1712832413.176171) vcan0 200#FF3F8C0A7F0503
(1712832413.177345) vcan0 111#00
(1712832413.177401) vcan1 1DA#020000000000E1C7
(1712832413.178942) vcan0 110#00
(1712832413.178947) vcan0 100#000000
(1712832413.178955) vcan0 1A0#000001
(1712832413.181577) vcan2 470#000000FF00
(1712832413.184447) vcan0 101#000000
(1712832413.187290) vcan2 3D0#0000
(1712832413.187353) vcan0 200#FF3F9A0A5C0503
(1712832413.187357) vcan0 111#00
(1712832413.187400) vcan1 1DA#020000000000E2CD
(1712832413.190021) vcan2 050#00096861
(1712832413.190096) vcan0 600#03
(1712832413.192741) vcan2 38A#12021000
(1712832413.192747) vcan2 388#210223
(1712832413.192750) vcan2 5E0#00FFFFFF00008000
(1712832413.192753) vcan2 4A0#0000000000000000
(1712832413.192756) vcan2 5A0#000000A0D604102B
(1712832413.192758) vcan2 1A0#00050000FEFE0003
(1712832413.194361) vcan2 320#12027F0100000000
(1712832413.194496) vcan0 101#000000
(1712832413.196497) vcan2 420#828A8AFF00008000
(1712832413.196542) vcan1 1DA#024000000000E3EA
(1712832413.196757) vcan0 200#FF3F960A5A0503
(1712832413.198202) vcan0 111#00
(1712832413.198209) vcan0 100#000000
(1712832413.199488) vcan0 110#00
(1712832413.204424) vcan2 3D0#0000
(1712832413.204488) vcan0 101#000000
(1712832413.205733) vcan0 200#FF3F8A0A600503
(1712832413.207134) vcan0 111#00
(1712832413.207283) vcan1 1DA#024000000000E0E0
(1712832413.211459) vcan0 600#03
(1712832413.211490) vcan2 050#00097871
(1712832413.211509) vcan2 38A#22022000
(1712832413.211515) vcan2 388#220220
(1712832413.211523) vcan2 5E0#00FFFFFF00008000
(1712832413.211530) vcan2 4A0#0000000000000000
(1712832413.211537) vcan2 5A0#00000076DE04102B
(1712832413.211543) vcan2 1A0#00050000FEFE0004
(1712832413.215709) vcan2 320#12027F0100000000
(1712832413.215731) vcan0 101#000000
(1712832413.215793) vcan0 200#FF3F930A4C0503
(1712832413.218787) vcan0 111#00
(1712832413.218810) vcan0 100#000000
(1712832413.218817) vcan0 110#00
(1712832413.218922) vcan1 1DA#020000000000E1C7
(1712832413.224541) vcan0 101#000000
(1712832413.224566) vcan2 3D0#0000
(1712832413.226165) vcan0 200#FF3F9C0A4D0503
(1712832413.227607) vcan0 111#00
(1712832413.227785) vcan1 1DA#020000000000E2CD
(1712832413.231901) vcan0 600#03
(1712832413.231986) vcan2 050#00098881
(1712832413.232003) vcan2 38A#32023000
(1712832413.232010) vcan2 388#230221
(1712832413.234672) vcan2 470#000000FF00
(1712832413.234698) vcan2 4A0#0000000000000000
(1712832413.234708) vcan2 570#8721FF07
(1712832413.234717) vcan2 5A0#00000037E604102B
(1712832413.234726) vcan2 1A0#00050000FEFE0005
(1712832413.234735) vcan2 5D0#800240A03041
(1712832413.234743) vcan2 5D8#550C000310000000
(1712832413.234750) vcan2 5E0#00FFFFFF00008000
(1712832413.235999) vcan2 320#12027F0100000000
(1712832413.236027) vcan0 101#000000
(1712832413.236047) vcan0 200#FF3FC80A580503
(1712832413.237285) vcan0 111#00
(1712832413.237611) vcan1 1DA#024000000000E3EA
(1712832413.238810) vcan0 100#000000
(1712832413.238817) vcan0 110#00
(1712832413.244504) vcan0 101#000000
(1712832413.244515) vcan2 3D0#0000
(1712832413.245947) vcan0 200#FF3F9E0A540503
(1712832413.247282) vcan0 111#00
(1712832413.247516) vcan1 1DA#024000000000E0E0
(1712832413.250412) vcan0 600#03
(1712832413.250516) vcan2 050#00099891
(1712832413.253728) vcan2 38A#42024000
(1712832413.253737) vcan2 388#240226
(1712832413.253748) vcan2 5E0#00FFFFFF00008000
(1712832413.253753) vcan2 4A0#0000000000000000
(1712832413.253758) vcan2 5A0#00000015EE04102B
(1712832413.253762) vcan2 1A0#00050000FEFE0006
(1712832413.253765) vcan2 320#12027F0100000000
(1712832413.254757) vcan0 101#000000
(1712832413.254763) vcan0 200#FF3FA20A590503
(1712832413.256910) vcan0 111#00
(1712832413.257164) vcan1 1DA#020000000000E1C7
(1712832413.261823) vcan0 100#000000
(1712832413.261833) vcan0 110#00
(1712832413.264548) vcan0 101#000000
(1712832413.264551) vcan0 200#FF3F9D0A6F0503
(1712832413.264654) vcan2 3D0#0000
(1712832413.267207) vcan0 111#00
(1712832413.267362) vcan1 1DA#020000000000E2CD
(1712832413.267366) vcan1 55A#AE3D3B005F0082F0
(1712832413.272402) vcan0 600#03
(1712832413.272500) vcan2 050#0009A8A1
(1712832413.274645) vcan2 38A#52025000
(1712832413.274649) vcan2 388#250227
(1712832413.277094) vcan0 101#000000
(1712832413.277097) vcan0 200#FF3F9F0A5F0503
(1712832413.277098) vcan0 111#00
(1712832413.277208) vcan2 4A0#0000000000000000
(1712832413.277213) vcan2 5A0#000000D8F504102B
(1712832413.277217) vcan2 1A0#00050000FEFE0007
(1712832413.277220) vcan2 5E0#00FFFFFF00008000
(1712832413.277222) vcan2 320#12027F0100000000
(1712832413.277318) vcan1 1DA#024000000000E3EA
(1712832413.278838) vcan0 110#00
(1712832413.278847) vcan0 100#000000
(1712832413.278849) vcan0 1A0#000002
(1712832413.281495) vcan2 470#000000FF00
(1712832413.284574) vcan0 101#000000
(1712832413.284772) vcan2 520#1DC401D4135E4B03
(1712832413.285873) vcan0 200#FF3F9C0A570503
(1712832413.286045) vcan2 3D0#0000
(1712832413.287068) vcan0 111#00
(1712832413.287261) vcan1 1DA#024000000000E0E0
(1712832413.291445) vcan0 600#03
(1712832413.291650) vcan2 050#0009B8B1
(1712832413.291662) vcan2 38A#62026000
(1712832413.291665) vcan2 388#260224
(1712832413.293585) vcan0 101#000000
(1712832413.293805) vcan2 5E0#00FFFFFF00008000
(1712832413.293819) vcan2 4A0#0000000000000000
(1712832413.293825) vcan2 5A0#000000C2FD04102B
(1712832413.293830) vcan2 1A0#00050000FEFE0008
(1712832413.293834) vcan2 320#12027F0100000000
(1712832413.295943) vcan0 200#FF3F970A150503
(1712832413.297399) vcan0 111#00
(1712832413.297639) vcan1 1DA#020000000000E1C7
(1712832413.298856) vcan0 110#00
(1712832413.298869) vcan0 100#000000
(1712832413.304397) vcan0 101#000000
(1712832413.306134) vcan0 200#FF3FA00A6F0503
(1712832413.306331) vcan2 3D0#0000
(1712832413.307679) vcan0 111#00
(1712832413.307980) vcan1 1DA#020000000000E2CD
(1712832413.310689) vcan0 600#03
(1712832413.310823) vcan2 050#0009C8C1
(1712832413.310834) vcan2 38A#72027000
(1712832413.310838) vcan2 388#270225
(1712832413.312096) vcan2 5E0#00FFFFFF00008000
(1712832413.312106) vcan2 4A0#0000000000000000
(1712832413.312111) vcan2 5A0#000000830504102B
(1712832413.314672) vcan0 101#000000
(1712832413.314685) vcan0 200#FF3F9E0A6F0503
(1712832413.314780) vcan2 1A0#00050000FEFE0009
(1712832413.314788) vcan2 320#12027F0100000000
(1712832413.314792) vcan2 5DE#0000000D00
(1712832413.316903) vcan0 111#00
(1712832413.317152) vcan1 1DA#024000000000E3EA
(1712832413.318997) vcan0 100#000000
(1712832413.319004) vcan0 110#00
(1712832413.324625) vcan0 101#000000
(1712832413.324640) vcan2 3D0#0000
(1712832413.325903) vcan0 200#FF3F930A6A0503
(1712832413.327214) vcan0 111#00
(1712832413.327325) vcan1 1DA#024000000000E0E0
(1712832413.330015) vcan2 050#0009D8D1
(1712832413.330043) vcan0 600#03
(1712832413.331689) vcan2 38A#82028000
(1712832413.331694) vcan2 388#28022A
(1712832413.334702) vcan0 101#000000
(1712832413.334716) vcan2 4A0#0000000000000000
(1712832413.334721) vcan2 470#000000FF00
(1712832413.334723) vcan2 5A0#000000460D04102B
(1712832413.334726) vcan2 1A0#00050000FEFE000A
(1712832413.334728) vcan2 570#8721FF07
(1712832413.334730) vcan2 5D0#800240A03041
(1712832413.334732) vcan2 5D8#550C000310000000
(1712832413.334734) vcan2 5E0#00FFFFFF00008000
(1712832413.334736) vcan2 320#12027F0100000000
(1712832413.336327) vcan0 200#FF3FAC0A590503
(1712832413.337889) vcan0 111#00
(1712832413.338004) vcan1 1DA#020000000000E1C7
(1712832413.340790) vcan0 100#000000
(1712832413.340796) vcan0 110#00
(1712832413.344603) vcan0 101#000000
(1712832413.344743) vcan2 3D0#0000
(1712832413.345813) vcan0 200#FF3F7E0A640503
(1712832413.347152) vcan0 111#00
(1712832413.347264) vcan1 1DA#020000000000E2CD
(1712832413.350034) vcan0 600#03
(1712832413.350156) vcan2 050#0009E8E1
(1712832413.352821) vcan2 38A#92029000
(1712832413.352830) vcan2 388#29022B
(1712832413.352840) vcan2 5E0#00FFFFFF00008000
(1712832413.352850) vcan2 4A0#0000000000000000
(1712832413.352854) vcan2 5A0#000000251504102B
(1712832413.352858) vcan2 1A0#00050000FEFE000B
(1712832413.355714) vcan0 101#000000
(1712832413.355726) vcan0 200#FF3F920A600503
(1712832413.355835) vcan2 320#12027F0100000000
(1712832413.357260) vcan0 111#00
(1712832413.357395) vcan1 1DA#024000000000E3EA
(1712832413.358792) vcan0 110#00
(1712832413.358805) vcan0 100#000000
(1712832413.364809) vcan0 101#000000
(1712832413.364876) vcan2 3D0#0000
(1712832413.366079) vcan0 200#FF3F960A840503
(1712832413.367243) vcan0 111#00
(1712832413.367414) vcan1 1DA#024000000000E0E0
(1712832413.367438) vcan1 55A#AA3D3C005F0082F0
(1712832413.369910) vcan0 600#03
(1712832413.369980) vcan2 050#0009F8F1
(1712832413.378152) vcan2 38A#A202A000
(1712832413.378181) vcan2 388#2A0228
(1712832413.378206) vcan2 4A0#0000000000000000
(1712832413.378217) vcan2 5A0#000000EC1C04102B
(1712832413.378228) vcan2 1A0#00050000FEFE000C
(1712832413.378237) vcan2 5E0#00FFFFFF00008000
(1712832413.378246) vcan2 320#12027F0100000000
(1712832413.379294) vcan0 101#000000
(1712832413.379319) vcan0 200#FF3F9A0A640503
(1712832413.379327) vcan0 111#00
(1712832413.379334) vcan0 110#00
(1712832413.379342) vcan0 100#000000
(1712832413.379348) vcan0 1A0#000003
(1712832413.379426) vcan1 1DA#020000000000E1C7
(1712832413.381404) vcan2 470#000000FF00
(1712832413.384717) vcan2 3D0#0000
(1712832413.384752) vcan0 101#000000
(1712832413.386028) vcan0 200#FF3F9F0A500503
(1712832413.386153) vcan1 1DA#020000000000E2CD
(1712832413.387862) vcan0 111#00
(1712832413.390571) vcan2 050#00090801
(1712832413.390592) vcan0 600#03
(1712832413.391966) vcan2 4A0#0000000000000000
(1712832413.391976) vcan2 38A#B202B000
(1712832413.391981) vcan2 5A0#000000C02404102B
(1712832413.391985) vcan2 1A0#00050000FEFE000D
(1712832413.391988) vcan2 388#2B0229
(1712832413.394837) vcan2 5E0#00FFFFFF00008000
(1712832413.394848) vcan2 320#12027F0100000000
(1712832413.394852) vcan2 420#828A8AFF00008000
(1712832413.394927) vcan0 101#000000
(1712832413.394935) vcan0 200#FF3F9E0A5F0503
(1712832413.398989) vcan0 111#00
(1712832413.398995) vcan0 110#00
(1712832413.398997) vcan0 100#000000
(1712832413.399015) vcan1 1DA#024000000000E3EA
(1712832413.404563) vcan2 3D0#0000
(1712832413.404657) vcan0 101#000000
(1712832413.405880) vcan0 200#FF3F9A0A4A0503
(1712832413.407128) vcan0 111#00
(1712832413.407254) vcan1 1DA#024000000000E0E0
(1712832413.411929) vcan0 600#03
(1712832413.411955) vcan2 050#00091811
(1712832413.413884) vcan2 38A#C202C000
(1712832413.413891) vcan2 4A0#0000000000000000
(1712832413.413894) vcan2 388#2C022E
(1712832413.413897) vcan2 5A0#0000008F2C04102B
(1712832413.413900) vcan2 1A0#00050000FEFE000E
(1712832413.413903) vcan2 5E0#00FFFFFF00008000
(1712832413.415178) vcan0 101#000000
(1712832413.415183) vcan0 200#FF3F7F0A550503
(1712832413.415284) vcan2 320#12027F0100000000
(1712832413.417226) vcan0 111#00
