(1719308090.099058) can0 3B5#80FE12020C002000
(1719308090.102835) can0 3DD#8A1C100000000000
(1719308090.103047) can0 120#8B0000020008FF01
(1719308090.103286) can0 121#CE00000030627EFE
(1719308090.103567) can0 0A7#0FE09E7BFDB9E71E
(1719308090.103761) can0 0A8#FAD0BF078A640000
(1719308090.104035) can0 0B2#0000000000000000
(1719308090.104284) can0 0FD#5BEB3F8000000000
(1719308090.104555) can0 101#F70B7DE181060000
(1719308090.104764) can0 086#9E079C2000000000
(1719308090.105022) can0 106#2D8B640000007B00
(1719308090.105242) can0 147#0000000000000000
(1719308090.105480) can0 380#860F6000000000FF
(1719308090.105718) can0 09F#0E376880010700F0
(1719308090.105971) can0 11D#110300007E200000
(1719308090.106210) can0 391#00671D0000290000
(1719308090.106448) can0 3D8#0000040000000000
(1719308090.106710) can0 040#0809000541000042
(1719308090.107914) can0 2B7#71070000000010FE
(1719308090.108858) can0 381#FFFFFFFFFF000000
(1719308090.109093) can0 382#FFFFFFFFFF000000
(1719308090.109385) can0 48E#0000000000000000
(1719308090.109636) can0 497#0000000041470020
(1719308090.113196) can0 31E#EEEA3F0000000000
(1719308090.113403) can0 107#0000FE0040000000
(1719308090.113670) can0 0A7#87E19E7BFDB9E71E
(1719308090.113875) can0 0A8#80D1BF078A640000
(1719308090.114157) can0 0B2#0000000000000000
(1719308090.114348) can0 116#1F0B0000000000FF
(1719308090.114648) can0 086#DC089C2000000000
(1719308090.114875) can0 117#020A0040680000FF
(1719308090.115112) can0 11E#290B000000000000
(1719308090.115347) can0 122#880A00FE07000010
(1719308090.115578) can0 3C7#1410080000408300
(1719308090.115852) can0 09F#4C386880010700F0
(1719308090.116045) can0 12E#3AEA7F000000C0FF
(1719308090.116324) can0 520#530A000800AA0200
(1719308090.116578) can0 365#930000000000003C
(1719308090.116806) can0 545#0000500001000100
(1719308090.117056) can0 3D5#C800000400000000
(1719308090.117291) can0 12B#8844802A00000000
(1719308090.122834) can0 1B000010#1000010525000000
(1719308090.123036) can0 120#7E0100020008FF01
(1719308090.123264) can0 121#A201000030627EFE
(1719308090.123469) can0 0A7#F3E29E7BFDB9E71E
(1719308090.123720) can0 0A8#6CD2BF078A640000
(1719308090.123959) can0 3DB#501001050710019F
(1719308090.124196) can0 0B2#0000000000000000
(1719308090.124443) can0 0FD#C2EC3F8000000000
(1719308090.124697) can0 086#B8099C2000000000
(1719308090.124944) can0 101#A10C7DE181040000
(1719308090.125184) can0 106#AC8C630000007B00
(1719308090.125420) can0 147#0000000000000000
(1719308090.125660) can0 09F#28396880010700F0
(1719308090.125889) can0 11D#020400007E200000
(1719308090.126138) can0 30B#7F00800008000000
(1719308090.126386) can0 3FB#0000000000000001
(1719308090.126650) can0 3D6#0400000000000000
(1719308090.126898) can0 6B4#0000000000575647
(1719308090.133160) can0 107#0000FE0040000000
(1719308090.133370) can0 0A7#72E39E7BFDB9E71E
(1719308090.133555) can0 0A8#83D3BF078A640000
(1719308090.133839) can0 117#660B0040680000FF
(1719308090.134069) can0 11B#0000000000000000
(1719308090.134315) can0 0B2#0000000000000000
(1719308090.134567) can0 116#0C0C0000000000FF
(1719308090.134810) can0 086#140A9C2000000000
(1719308090.135047) can0 11E#3A0C000000000000
(1719308090.135271) can0 122#590B00FE07000010
(1719308090.135555) can0 32C#0003000098240818
(1719308090.135773) can0 09F#843A6880010700F0
(1719308090.136022) can0 12E#CEEB7F000000C0FF
(1719308090.136249) can0 3E5#9328000000000000
(1719308090.142929) can0 120#860200020008FF01
(1719308090.143145) can0 121#2D02000030627EFE
(1719308090.143443) can0 15A#660E000001D20000
(1719308090.143663) can0 0A8#2FD4BF078A640000
(1719308090.143923) can0 3BE#A82F070122C00880
(1719308090.144163) can0 0B2#0000000000000000
(1719308090.144402) can0 0A7#48E49E7BFDB9E71E
(1719308090.144619) can0 31B#A67F000000008000
(1719308090.144866) can0 086#700B9C2000000000
(1719308090.145163) can0 0FD#4BED3F8000000000
(1719308090.145333) can0 101#800D7DE181060000
(1719308090.145563) can0 106#C88D630000007B00
(1719308090.145813) can0 09F#E03B6880010700F0
(1719308090.146051) can0 11D#660500007E200000
(1719308090.146276) can0 32A#E20B1A0000020000
(1719308090.146559) can0 32F#007F000000000000
(1719308090.146777) can0 147#0000000000000000
(1719308090.146981) can0 3C0#FA090300
(1719308090.147265) can0 1B000015#1500010205000000
(1719308090.147422) can0 5A0#4F05832078
(1719308090.153157) can0 107#0000FE0040000000
(1719308090.153371) can0 0A7#33E59E7BFDB9E71E
(1719308090.153621) can0 0A8#45D5BF078A640000
(1719308090.153848) can0 117#750C0040680000FF
(1719308090.154078) can0 122#090C00FE07000010
(1719308090.154339) can0 0B2#0000000000000000
(1719308090.154568) can0 086#630C9C2000000000
(1719308090.154814) can0 11E#5E0D000000000000
(1719308090.155049) can0 12E#6DEC7F000000C0FF
(1719308090.155285) can0 392#9600000000000004
(1719308090.155567) can0 116#680D0000000000FF
(1719308090.155804) can0 09F#F33C6880010700F0
(1719308090.156042) can0 040#8C0A000541000044
(1719308090.157241) can0 12B#2D45802A00000000
(1719308090.158033) can0 2B7#A3080000000010FE
(1719308090.162944) can0 120#540300020008FF01
(1719308090.163149) can0 121#DF03000030627EFE
(1719308090.163397) can0 31E#C8EB3F0000000000
(1719308090.163651) can0 0A7#A0E69E7BFDB9E71E
(1719308090.163886) can0 0A8#75D6BF078A640000
(1719308090.164147) can0 670#15100000FE000080
(1719308090.164366) can0 0B2#0000000000000000
(1719308090.164626) can0 0FD#B4EE3F8000000000
(1719308090.164831) can0 086#070D9C2000000000
(1719308090.165112) can0 101#690E7DE181040000
(1719308090.165341) can0 106#648E630000007B00
(1719308090.165570) can0 147#0000000000000000
(1719308090.165820) can0 11D#CA0600007E200000
(1719308090.166074) can0 09F#973D6880010700F0
(1719308090.166321) can0 23D#0000F8FFFFFF3F00
(1719308090.166470) can0 64A#00008000
(1719308090.166721) can0 33C#0000012080000000
(1719308090.167004) can0 365#930000000000003C
(1719308090.167255) can0 5F0#FD006400004B0000
(1719308090.169745) can0 1B000012#1200010105000000
(1719308090.173081) can0 107#0000FE0040000000
(1719308090.173306) can0 0A7#29E79E7BFDB9E71E
(1719308090.173578) can0 0A8#60D7BF078A640000
(1719308090.173818) can0 117#110D0040680000FF
(1719308090.174025) can0 122#0B0D00FE07000010
(1719308090.174282) can0 0B2#0000000000000000
(1719308090.174578) can0 116#C40E0000000000FF
(1719308090.174762) can0 086#AB0E9C2000000000
(1719308090.175026) can0 11E#F20E000000000000
(1719308090.175250) can0 12E#47ED7F000000C0FF
(1719308090.175577) can0 17F00013#20130000001E0000
(1719308090.175763) can0 09F#3B3E6880010700F0
(1719308090.175979) can0 30B#7F01800008000000
(1719308090.176316) can0 16A9540A#0000000000000000
(1719308090.177262) can0 12B#3446802A00000000
(1719308090.182855) can0 3EC#E100000000032000
(1719308090.183025) can0 120#020400020008FF01
(1719308090.183284) can0 121#6204000030627EFE
(1719308090.183502) can0 0A7#64E89E7BFDB9E71E
(1719308090.183784) can0 0A8#42D8BF078A640000
(1719308090.184004) can0 32C#0003000098240818
(1719308090.184262) can0 0B2#0000000000000000
(1719308090.184490) can0 0FD#23EF3F8000000000
(1719308090.184719) can0 086#CF0F9C2000000000
(1719308090.184958) can0 101#770F7DE181030000
(1719308090.185195) can0 106#008F630000007B00
(1719308090.185443) can0 147#0000000000000000
(1719308090.185671) can0 09F#5F3F6880010700F0
(1719308090.185942) can0 11D#AE0700007E200000
(1719308090.186194) can0 380#C4006000000000FF
(1719308090.188776) can0 381#FFFFFFFFFF000010
(1719308090.189022) can0 382#FFFFFFFFFF000010
(1719308090.193126) can0 107#0000FE0040000000
(1719308090.193327) can0 0A7#B4E99E7BFDB9E71E
(1719308090.193564) can0 0A8#30D9BF078A640000
(1719308090.193797) can0 117#BD0E0040680000FF
(1719308090.194018) can0 32F#007F000000000000
(1719308090.194317) can0 0B2#0000000000000000
(1719308090.194567) can0 116#A00F0000000000FF
(1719308090.194816) can0 086#8D009C2000000000
(1719308090.194998) can0 11E#960F000000000000
(1719308090.195250) can0 122#8A0E00FE07000010
(1719308090.195491) can0 31B#AB70000000008000
(1719308090.195717) can0 09F#1D306880010700F0
(1719308090.195955) can0 12E#9DEE7F000000C0FF
(1719308090.196211) can0 32A#F10C1A0000020000
(1719308090.199055) can0 3B5#80FE12020C002000
(1719308090.199580) can0 668#0200000000000000
(1719308090.202837) can0 3DD#8A1C100000000000
(1719308090.203079) can0 120#000500020008FF01
(1719308090.203315) can0 121#5505000030627EFE
(1719308090.203590) can0 0A7#B2EA9E7BFDB9E71E
(1719308090.203764) can0 0A8#6FDABF078A640000
(1719308090.204033) can0 0B2#0000000000000000
(1719308090.204270) can0 0FD#59E03F8000000000
(1719308090.204521) can0 101#0A007DE181060000
(1719308090.204717) can0 086#E9019C2000000000
(1719308090.205009) can0 106#4280630000007B00
(1719308090.205259) can0 147#0000000000000000
(1719308090.205467) can0 3FB#0000000000000002
(1719308090.205710) can0 09F#79316880010700F0
(1719308090.205946) can0 11D#EC0800007E200000
(1719308090.206185) can0 3D8#0000040000000000
(1719308090.206466) can0 040#150B000541000046
(1719308090.206660) can0 65F#0030000000002C7F
(1719308090.206943) can0 56F#0000B8037DFC0000
(1719308090.207172) can0 391#00671D0000290000
(1719308090.207850) can0 2B7#CC090000000010FE
(1719308090.208830) can0 48E#0000000000000000
(1719308090.209089) can0 497#0000000041470020
(1719308090.213142) can0 31E#6BEC3F0000000000
(1719308090.213364) can0 107#0000FE0040000000
(1719308090.213571) can0 0A7#DCEB9E7BFDB9E71E
(1719308090.213820) can0 0A8#A2DBBF078A640000
(1719308090.214073) can0 0B2#0000000000000000
(1719308090.214319) can0 117#D90F0040680000FF
(1719308090.214570) can0 11E#D400000000000000
(1719308090.214829) can0 086#45029C2000000000
(1719308090.215068) can0 122#060F00FE07000010
(1719308090.215306) can0 1A2#4509000000000000
(1719308090.215571) can0 12E#9AEF7F000000C0FF
(1719308090.215737) can0 09F#D5326880010700F0
(1719308090.215976) can0 1AB#968D840A00001000
(1719308090.216218) can0 116#E2000000000000FF
(1719308090.216482) can0 365#930000000000003C
(1719308090.216719) can0 3C7#FD10080000408300
(1719308090.216971) can0 3D5#9F01000400000000
(1719308090.217210) can0 12B#1147802A00000000
(1719308090.222751) can0 3DB#501001050710019F
(1719308090.223000) can0 120#EF0600020008FF01
(1719308090.223239) can0 121#5206000030627EFE
(1719308090.223479) can0 0A8#BCDCBF078A640000
(1719308090.223713) can0 0A7#63EC9E7BFDB9E71E
(1719308090.223966) can0 147#0000000000000000
(1719308090.224204) can0 0B2#0000000000000000
(1719308090.224442) can0 0FD#53E13F8000000000
(1719308090.224701) can0 086#21039C2000000000
(1719308090.224942) can0 101#51017DE181030000
(1719308090.225182) can0 106#2681630000007B00
(1719308090.225420) can0 30B#7F02800008000000
(1719308090.225654) can0 09F#B1336880010700F0
(1719308090.225930) can0 11D#880900007E200000
(1719308090.226137) can0 3D6#0500000000000000
(1719308090.233222) can0 107#0000FE0040000000
(1719308090.233399) can0 0A7#93ED9E7BFDB9E71E
(1719308090.233661) can0 0A8#AFDDBF078A640000
(1719308090.233899) can0 117#9B000040680000FF
(1719308090.234140) can0 0B2#0000000000000000
(1719308090.234379) can0 116#86010000000000FF
(1719308090.234615) can0 086#32049C2000000000
(1719308090.234867) can0 11B#0000000000000000
(1719308090.235101) can0 11E#B001000000000000
(1719308090.235375) can0 122#120000FE07000010
(1719308090.235558) can0 09F#A2346880010700F0
(1719308090.235860) can0 12E#B3E07F000000C0FF
(1719308090.236113) can0 32C#0003000098240818
(1719308090.236336) can0 3E5#7E29000000000000
(1719308090.236638) can0 1B000013#1300010205000000
(1719308090.237265) can0 12B#C448802A00000000
(1719308090.242944) can0 120#ED0700020008FF01
(1719308090.243151) can0 121#0107000030627EFE
(1719308090.243400) can0 15A#730F000001820200
(1719308090.243661) can0 0A8#1DDEBF078A640000
(1719308090.243897) can0 3BE#1120070122C00880
(1719308090.244139) can0 0B2#0000000000000000
(1719308090.244377) can0 0A7#18EE9E7BFDB9E71E
(1719308090.244615) can0 23D#0000F8FFFFFF3F00
(1719308090.244824) can0 086#56059C2000000000
(1719308090.245069) can0 31B#7D71000000008000
(1719308090.245343) can0 0FD#9CE23F8000000000
(1719308090.245558) can0 101#B8027DE181010000
(1719308090.245774) can0 09F#C6356880010700F0
(1719308090.246070) can0 106#8A82630000007B00
(1719308090.246309) can0 11D#240A00007E200000
(1719308090.246568) can0 32A#950D1A0000020000
(1719308090.246757) can0 32F#007F000000000000
(1719308090.247033) can0 147#0000000000000000
(1719308090.247191) can0 3C0#0A0A0300
(1719308090.247465) can0 17F00012#2012000000000000
(1719308090.247743) can0 33C#0000012080000000
(1719308090.252827) can0 385#0000000000000000
(1719308090.253021) can0 3E8#0000000000000000
(1719308090.253318) can0 0A7#C6EF9E7BFDB9E71E
(1719308090.253574) can0 107#0000FE0040000000
(1719308090.253761) can0 0A8#92DFBF078A640000
(1719308090.254010) can0 3FE#0000000000000000
(1719308090.254262) can0 0B2#0000000000000000
(1719308090.254495) can0 117#FF010040680000FF
(1719308090.254760) can0 086#FA069C2000000000
(1719308090.254999) can0 11E#1C02000000000000
(1719308090.255239) can0 122#990100FE07000010
(1719308090.255483) can0 392#F201000000000004
(1719308090.255716) can0 09F#2B366880010800F0
(1719308090.255956) can0 116#2A020000000000FF
(1719308090.256192) can0 040#AB0C000541000048
(1719308090.256438) can0 12E#BDE17F000000C0FF
(1719308090.257875) can0 2B7#C20A0000000010FE
(1719308090.262971) can0 120#B40800020008FF01
(1719308090.263151) can0 121#C208000030627EFE
(1719308090.263513) can0 31E#C2ED3F0000000000
(1719308090.263649) can0 0A7#0FE09E7BFDB9E71E
(1719308090.263933) can0 0A8#FAD0BF078A640000
(1719308090.264163) can0 0B2#0000000000000000
(1719308090.264414) can0 0FD#E9E33F8000000000
(1719308090.264670) can0 086#9E079C2000000000
(1719308090.264911) can0 101#99037DE181030000
(1719308090.265146) can0 106#EE83630000007B00
(1719308090.265376) can0 147#0000000000000000
(1719308090.265645) can0 09F#0E376880010700F0
(1719308090.265874) can0 11D#400B00007E200000
(1719308090.266147) can0 365#920000000000003C
(1719308090.266375) can0 380#A0016000000000FF
(1719308090.268810) can0 381#FFFFFFFFFF000020
(1719308090.269011) can0 382#FFFFFFFFFF000020
(1719308090.273151) can0 107#0000FE0040000000
(1719308090.273357) can0 0A7#87E19E7BFDB9E71E
(1719308090.273644) can0 0A8#80D1BF078A640000
(1719308090.273873) can0 117#53020040680000FF
(1719308090.274101) can0 0B2#0000000000000000
(1719308090.274344) can0 116#4E030000000000FF
(1719308090.274591) can0 086#DC089C2000000000
(1719308090.274829) can0 11E#7803000000000000
(1719308090.275067) can0 122#630200FE07000010
(1719308090.275288) can0 12E#74E27F000000C0FF
(1719308090.275588) can0 30B#7F03800008000000
(1719308090.275781) can0 09F#4C386880010700F0
(1719308090.277264) can0 12B#CC49802A00000000
(1719308090.280827) can0 1B000076#7600010105000000
(1719308090.282966) can0 120#E20900020008FF01
(1719308090.283191) can0 121#3D09000030627EFE
(1719308090.283445) can0 0A8#6CD2BF078A640000
(1719308090.283656) can0 0A7#F3E29E7BFDB9E71E
(1719308090.283943) can0 147#0000000000000000
(1719308090.284190) can0 0B2#0000000000000000
(1719308090.284421) can0 0FD#7FE43F8000000000
(1719308090.284654) can0 086#B8099C2000000000
(1719308090.284885) can0 101#CF047DE181010000
(1719308090.285134) can0 106#FD84630000007B00
(1719308090.285385) can0 32C#0003000098240818
(1719308090.285596) can0 09F#28396880010700F0
(1719308090.285871) can0 11D#530C00007E200000
(1719308090.286122) can0 3FB#0000000000000003
(1719308090.293061) can0 107#0000FE0040000000
(1719308090.293272) can0 0A7#72E39E7BFDB9E71E
(1719308090.293500) can0 0A8#83D3BF078A640000
(1719308090.293763) can0 117#37030040680000FF
(1719308090.294001) can0 32F#007F000000000000
(1719308090.294240) can0 0B2#0000000000000000
(1719308090.294568) can0 116#5D040000000000FF
(1719308090.294738) can0 086#140A9C2000000000
(1719308090.294999) can0 11E#6B04000000000000
(1719308090.295229) can0 122#460300FE07000010
(1719308090.295485) can0 31B#1E72000000008000
(1719308090.295720) can0 09F#843A6880010700F0
(1719308090.295958) can0 12E#EDE37F000000C0FF
(1719308090.296197) can0 32A#390E1A0000020000
(1719308090.297268) can0 12B#DC4A802A00000000
(1719308090.299053) can0 3B5#80FE12020C002000
(1719308090.302949) can0 120#390A00020008FF01
(1719308090.303174) can0 121#580A000030627EFE
(1719308090.303423) can0 3DD#8A1C100000000000
(1719308090.303634) can0 0A7#48E49E7BFDB9E71E
(1719308090.303865) can0 0A8#2FD4BF078A640000
(1719308090.304096) can0 0B2#0000000000000000
(1719308090.304372) can0 0FD#E5E53F8000000000
(1719308090.304578) can0 101#AB057DE181010000
(1719308090.304852) can0 086#700B9C2000000000
(1719308090.305092) can0 106#9985630000007B00
(1719308090.305342) can0 147#0000000000000000
(1719308090.305635) can0 17F00076#2076000000000000
(1719308090.305887) can0 09F#E03B6880010700F0
(1719308090.306104) can0 11D#370D00007E200000
(1719308090.306351) can0 3D8#0000040000000000
(1719308090.306588) can0 040#1A0D00054100004C
(1719308090.306822) can0 640#0281FE937E200300
(1719308090.307024) can0 647#B8FDFF7F00000020
(1719308090.307338) can0 391#00671D0000290000
(1719308090.307945) can0 2B7#B40B0000000010FE
(1719308090.308829) can0 48E#0000000000000000
(1719308090.309080) can0 497#0000000041470020
(1719308090.313192) can0 31E#B7EE3F0000000000
(1719308090.313442) can0 107#0000FE0040000000
(1719308090.313648) can0 0A7#33E59E7BFDB9E71E
(1719308090.313884) can0 0A8#45D5BF078A640000
(1719308090.314124) can0 0B2#0000000000000000
(1719308090.314362) can0 116#39050000000000FF
(1719308090.314623) can0 086#630C9C2000000000
(1719308090.314869) can0 117#24040040680000FF
(1719308090.315101) can0 11E#0F05000000000000
(1719308090.315347) can0 122#440400FE07000010
(1719308090.315553) can0 3C7#1410080000408300
(1719308090.315795) can0 09F#F33C6880010700F0
(1719308090.316017) can0 12E#CAE47F000000C0FF
(1719308090.316311) can0 520#370B000800AA0200
(1719308090.316562) can0 365#920000000000003C
(1719308090.316811) can0 545#0000500001000100
(1719308090.316993) can0 3D5#5E02000400000000
(1719308090.322812) can0 1B000010#1000010505000000
(1719308090.323035) can0 120#950B00020008FF01
(1719308090.323264) can0 121#F30B000030627EFE
(1719308090.323556) can0 0A7#A0E69E7BFDB9E71E
(1719308090.323740) can0 0A8#75D6BF078A640000
(1719308090.323977) can0 147#0000000000000000
(1719308090.324249) can0 0B2#0000000000000000
(1719308090.324452) can0 0FD#F7E63F8000000000
(1719308090.324707) can0 086#070D9C2000000000
(1719308090.324943) can0 101#43067DE181004000
(1719308090.325184) can0 106#A786640000007B00
(1719308090.325423) can0 3DB#501001050710019F
(1719308090.325677) can0 09F#973D6880010700F0
(1719308090.325908) can0 11D#9B0E00007E200000
(1719308090.326139) can0 23D#0000180802804D7F
(1719308090.326396) can0 30B#7F04800008000000
(1719308090.326643) can0 33C#0000F11F805D0000
(1719308090.326900) can0 3D6#0600000000000000
(1719308090.327107) can0 6B4#015A5A5A43315A4B
(1719308090.333171) can0 107#0000FE0040000000
(1719308090.333395) can0 0A7#29E79E7BFDB9E71E
(1719308090.333620) can0 0A8#60D7BF078A640000
(1719308090.333831) can0 117#40050040680000FF
(1719308090.334112) can0 11B#0000000000000000
(1719308090.334341) can0 0B2#0000000000000000
(1719308090.334590) can0 086#AB0E9C2000000000
(1719308090.334818) can0 11E#A306000000000000
(1719308090.335065) can0 116#95060000000000FF
(1719308090.335314) can0 122#DD0500FE07000010
(1719308090.335588) can0 32C#0003000098240818
(1719308090.335774) can0 09F#3B3E6880010700F0
(1719308090.336032) can0 12E#2AE57F000000C0FF
(1719308090.336273) can0 557#0000000000000000
(1719308090.336510) can0 3E5#E62A000000000000
(1719308090.337200) can0 12B#794B802A00000000
(1719308090.342969) can0 120#4F0C00020008FF01
(1719308090.343191) can0 121#360C000030627EFE
(1719308090.343465) can0 15A#8B00000001820200
(1719308090.343691) can0 0A8#42D8BF078A640000
(1719308090.343930) can0 380#0C026000000000FF
(1719308090.344181) can0 0B2#0000000000000000
(1719308090.344418) can0 0FD#CDE73F8000000000
(1719308090.344645) can0 086#CF0F9C2000000000
(1719308090.344895) can0 31B#7273000000008000
(1719308090.345124) can0 101#AD077DE181044000
(1719308090.345373) can0 106#5187630000007B00
(1719308090.345600) can0 09F#5F3F6880010700F0
(1719308090.345859) can0 11D#FF0F00007E200000
(1719308090.346089) can0 32A#5D0F1A0000020000
(1719308090.346337) can0 32F#007F000000000000
(1719308090.346610) can0 3BE#6521070122C00880
(1719308090.346851) can0 147#0000000000000000
(1719308090.347089) can0 0A7#64E89E7BFDB9E71E
(1719308090.347279) can0 2C2#000000FC07000000
(1719308090.347461) can0 3C0#BF0B0300
(1719308090.347757) can0 1B000015#1500010205000000
(1719308090.347965) can0 5A0#4F05832078
(1719308090.348870) can0 381#FFFFFFFFFF000030
(1719308090.349122) can0 382#FFFFFFFFFF000030
(1719308090.353173) can0 107#0000FE0040000000
(1719308090.353565) can0 0A7#B4E99E7BFDB9E71E
(1719308090.353589) can0 0A8#30D9BF078A640000
(1719308090.353872) can0 17332610#3982030026000302
(1719308090.354169) can0 0B2#0000000000000000
(1719308090.354361) can0 117#EC060040680000FF
(1719308090.354613) can0 086#8D009C2000000000
(1719308090.354850) can0 11E#C707000000000000
(1719308090.355091) can0 122#240600FE07000010
(1719308090.355331) can0 392#5E02000000000004
(1719308090.355565) can0 09F#1D306880010700F0
(1719308090.355840) can0 116#F1070000000000FF
(1719308090.356045) can0 040#4B0E00054100004E
(1719308090.356296) can0 12E#60E67F000000C0FF
(1719308090.357246) can0 12B#3C4C802A00000000
(1719308090.357857) can0 2B7#570C0000000010FE
(1719308090.362966) can0 120#FF0D00020008FF01
(1719308090.363214) can0 121#250D000030627EFE
(1719308090.363440) can0 31E#5EEF3F0000000000
(1719308090.363623) can0 0A7#B2EA9E7BFDB9E71E
(1719308090.363918) can0 0A8#6FDABF078A640000
(1719308090.364125) can0 0B2#0000000000000000
(1719308090.364363) can0 0FD#0AE83F8000000000
(1719308090.364603) can0 086#E9019C2000000000
(1719308090.364848) can0 101#AA087DE181064000
(1719308090.365108) can0 106#1388630000007B00
(1719308090.365386) can0 147#0000000000000000
(1719308090.365569) can0 09F#79316880010700F0
(1719308090.365863) can0 11D#BD0000007E200000
(1719308090.366112) can0 3FB#0000000000000004
(1719308090.366317) can0 5F0#FD006400004B0000
(1719308090.366572) can0 365#920000000000003C
(1719308090.369768) can0 1B000012#1200010105000000
(1719308090.373088) can0 107#0000FE0040000000
(1719308090.373284) can0 0A7#DCEB9E7BFDB9E71E
(1719308090.373556) can0 0A8#A2DBBF078A640000
(1719308090.373791) can0 117#88070040680000FF
(1719308090.374021) can0 122#330700FE07000010
(1719308090.374250) can0 0B2#0000000000000000
(1719308090.374569) can0 116#B3080000000000FF
(1719308090.374774) can0 086#45029C2000000000
(1719308090.375012) can0 11E#8508000000000000
(1719308090.375249) can0 12E#73E77F000000C0FF
(1719308090.375488) can0 30B#7F05800008000000
(1719308090.375715) can0 09F#D5326880010700F0
(1719308090.382815) can0 3EC#E100000000032000
(1719308090.383020) can0 120#940E00020008FF01
(1719308090.383295) can0 121#B60E000030627EFE
(1719308090.383499) can0 0A7#63EC9E7BFDB9E71E
(1719308090.383715) can0 0A8#BCDCBF078A640000
(1719308090.383990) can0 0B2#0000000000000000
(1719308090.384239) can0 0FD#38E93F8000000000
(1719308090.384447) can0 101#CE097DE181064000
(1719308090.384708) can0 086#21039C2000000000
(1719308090.384945) can0 106#7789630000007B00
(1719308090.385185) can0 147#0000000000000000
(1719308090.385442) can0 32C#0003000098240818
(1719308090.385706) can0 09F#B1336880010700F0
(1719308090.385945) can0 11D#D90100007E200000
(1719308090.386184) can0 16A954C2#0313FF2F0008408A
(1719308090.393135) can0 107#0000FE0040000000
(1719308090.393351) can0 0A7#93ED9E7BFDB9E71E
(1719308090.393563) can0 0A8#AFDDBF078A640000
(1719308090.393799) can0 32F#007F000000000000
(1719308090.394088) can0 0B2#0000000000000000
(1719308090.394319) can0 116#D7090000000000FF
(1719308090.394568) can0 086#32049C2000000000
(1719308090.394772) can0 117#CA080040680000FF
(1719308090.395012) can0 11E#E109000000000000
(1719308090.395251) can0 122#4A0800FE07000010
(1719308090.395490) can0 31B#6E74000000008000
(1719308090.395762) can0 09F#A2346880010700F0
(1719308090.395968) can0 12E#1AE87F000000C0FF
(1719308090.396208) can0 32A#1F001A0000020000
(1719308090.396570) can0 17F00015#0015000000000000
(1719308090.397243) can0 12B#684D802A00000000
(1719308090.399051) can0 3B5#80FE12020C002000
(1719308090.399594) can0 668#0200000000000000
(1719308090.402819) can0 3DD#8A1C100000000000
(1719308090.403062) can0 120#410F00020008FF01
(1719308090.403293) can0 121#000F000030627EFE
(1719308090.403586) can0 0A8#1DDEBF078A640000
(1719308090.403752) can0 3BE#9722070102C00880
(1719308090.404020) can0 147#0000000000000000
(1719308090.404258) can0 0A7#18EE9E7BFDB9E71E
(1719308090.404506) can0 0B2#0000000000000000
(1719308090.404718) can0 086#56059C2000000000
(1719308090.404957) can0 0FD#74EA3F8000000000
(1719308090.405193) can0 101#5D0A7DE181034000
(1719308090.405433) can0 106#DB8A630000007B00
(1719308090.405717) can0 09F#C6356880010700F0
(1719308090.405925) can0 11D#750200007E200000
(1719308090.406136) can0 23D#0000180802804D7F
(1719308090.406385) can0 391#00671D0000290000
(1719308090.406645) can0 33C#0000F11F805C0000
(1719308090.406884) can0 3D8#0000040000000000
(1719308090.407135) can0 040#A70F000541000050
(1719308090.407966) can0 2B7#620D0000000010FE
(1719308090.408852) can0 48E#0000000000000000
(1719308090.409134) can0 497#0000000041470020
(1719308090.409373) can0 54B#0000000000000024
(1719308090.409701) can0 17F0000A#000A000000000000
(1719308090.413117) can0 31E#CDE03F0000000000
(1719308090.413358) can0 107#0000FE0040000000
(1719308090.413564) can0 0A7#C6EF9E7BFDB9E71E
(1719308090.413818) can0 0A8#92DFBF078A640000
(1719308090.414041) can0 117#AE090040680000FF
(1719308090.414339) can0 0B2#0000000000000000
(1719308090.414553) can0 122#230900FE07000010
(1719308090.414770) can0 086#FA069C2000000000
(1719308090.415017) can0 11E#4D0A000000000000
(1719308090.415248) can0 12E#66E97F000000C0FF
(1719308090.415496) can0 1A2#B00A000000000000
(1719308090.415760) can0 09F#6A366880010700F0
(1719308090.415997) can0 1AB#1A8E840A00001000
(1719308090.416237) can0 116#7B0A0000000000FF
(1719308090.416485) can0 3C7#FD10080000408300
(1719308090.416715) can0 3D5#5203000400000000
(1719308090.416953) can0 365#920000000000003C
(1719308090.417192) can0 12B#274E802A00000000
(1719308090.422789) can0 3DB#501001050710019F
(1719308090.423023) can0 120#8B0000020008FF01
(1719308090.423242) can0 121#CE00000030627EFE
(1719308090.423498) can0 0A7#0FE09E7BFDB9E71E
(1719308090.423782) can0 0A8#FAD0BF078A640000
(1719308090.424020) can0 380#68036000000000FF
(1719308090.424241) can0 0B2#0000000000000000
(1719308090.424498) can0 0FD#5BEB3F8000000000
(1719308090.424734) can0 086#9E079C2000000000
(1719308090.424966) can0 101#390B7DE181034000
(1719308090.425206) can0 106#BF8B630000007B00
(1719308090.425461) can0 147#0000000000000000
(1719308090.425723) can0 09F#0E376880010700F0
(1719308090.425960) can0 11D#110300007E200000
(1719308090.426192) can0 30B#7F06800008000000
(1719308090.426440) can0 3D6#0700000000000000
(1719308090.428796) can0 381#FFFFFFFFFF000040
(1719308090.429088) can0 382#FFFFFFFFFF000040
(1719308090.433218) can0 107#0000FE0040000000
(1719308090.433418) can0 0A7#87E19E7BFDB9E71E
(1719308090.433678) can0 0A8#80D1BF078A640000
(1719308090.433920) can0 117#020A0040680000FF
(1719308090.434140) can0 0B2#0000000000000000
(1719308090.434398) can0 116#1F0B0000000000FF
(1719308090.434630) can0 086#DC089C2000000000
(1719308090.434883) can0 11B#0000000000000000
(1719308090.435101) can0 11E#290B000000000000
(1719308090.435392) can0 122#880A00FE07000010
(1719308090.435573) can0 09F#4C386880010700F0
(1719308090.435859) can0 12E#3AEA7F000000C0FF
(1719308090.436069) can0 32C#0003000098240818
(1719308090.436317) can0 3E5#6D2B000000000000
(1719308090.436613) can0 1B000013#1300010205000000
(1719308090.442940) can0 120#7E0100020008FF01
(1719308090.443142) can0 121#A201000030627EFE
(1719308090.443392) can0 15A#4A01000001D20000
(1719308090.443645) can0 0A7#F3E29E7BFDB9E71E
(1719308090.443884) can0 0A8#6CD2BF078A640000
(1719308090.444126) can0 0B2#0000000000000000
(1719308090.444363) can0 0FD#C2EC3F8000000000
(1719308090.444553) can0 31B#8375000000008000
(1719308090.444859) can0 086#B8099C2000000000
(1719308090.445042) can0 101#6F0C7DE181014000
(1719308090.445326) can0 106#AC8C630000007B00
(1719308090.445561) can0 32A#7B011A0000020000
(1719308090.445794) can0 09F#28396880010700F0
(1719308090.446029) can0 11D#020400007E200000
(1719308090.446270) can0 32F#007F000000000000
(1719308090.446461) can0 3C0#C50C0300
(1719308090.446699) can0 147#0000000000000000
(1719308090.446926) can0 3FB#0000000000000020
(1719308090.453123) can0 107#0000FE0040000000
(1719308090.453348) can0 0A7#72E39E7BFDB9E71E
(1719308090.453583) can0 0A8#83D3BF078A640000
(1719308090.453807) can0 117#660B0040680000FF
(1719308090.454062) can0 0B2#0000000000000000
(1719308090.454291) can0 122#590B00FE07000010
(1719308090.454585) can0 11E#3A0C000000000000
(1719308090.454751) can0 086#140A9C2000000000
(1719308090.455020) can0 12E#CEEB7F000000C0FF
(1719308090.455258) can0 392#3A03000000000004
(1719308090.455506) can0 116#0C0C0000000000FF
(1719308090.455717) can0 09F#843A6880010700F0
(1719308090.456022) can0 040#1800000541000052
(1719308090.457241) can0 12B#0D4F802A00000000
(1719308090.457862) can0 2B7#E60E0000000010FE
(1719308090.462923) can0 120#860200020008FF01
(1719308090.463212) can0 121#2D02000030627EFE
(1719308090.463441) can0 31E#07E13F0000000000
(1719308090.463711) can0 0A7#48E49E7BFDB9E71E
(1719308090.463929) can0 0A8#2FD4BF078A640000
(1719308090.464199) can0 0B2#0000000000000000
(1719308090.464438) can0 0FD#4BED3F8000000000
(1719308090.464666) can0 086#700B9C2000000000
(1719308090.464897) can0 101#0B0D7DE181014000
(1719308090.465126) can0 106#C88D630000007B00
(1719308090.465391) can0 147#0000000000000000
(1719308090.465668) can0 09F#E03B6880010700F0
(1719308090.465840) can0 11D#660500007E200000
(1719308090.466112) can0 365#920000000000003C
(1719308090.473142) can0 107#0000FE0040000000
(1719308090.473358) can0 0A7#33E59E7BFDB9E71E
(1719308090.473563) can0 0A8#45D5BF078A640000
(1719308090.473815) can0 117#750C0040680000FF
(1719308090.474051) can0 0B2#0000000000000000
(1719308090.474303) can0 116#680D0000000000FF
(1719308090.474560) can0 086#630C9C2000000000
(1719308090.474792) can0 11E#5E0D000000000000
(1719308090.475041) can0 122#090C00FE07000010
(1719308090.475270) can0 12E#6DEC7F000000C0FF
(1719308090.475564) can0 30B#7F07800008000000
(1719308090.475756) can0 09F#F33C6880010700F0
(1719308090.477234) can0 12B#8640802A00000000
(1719308090.480840) can0 1B000076#7600010105000000
(1719308090.482943) can0 120#540300020008FF01
(1719308090.483190) can0 121#DF03000030627EFE
(1719308090.483419) can0 0A8#75D6BF078A640000
(1719308090.483646) can0 0A7#A0E69E7BFDB9E71E
(1719308090.483887) can0 147#0000000000000000
(1719308090.484167) can0 0B2#0000000000000000
(1719308090.484419) can0 0FD#B4EE3F8000000000
(1719308090.484611) can0 086#070D9C2000000000
(1719308090.484895) can0 101#A70E7DE181014000
(1719308090.485124) can0 106#648E630000007B00
(1719308090.485372) can0 23D#0000180802804D7F
(1719308090.485555) can0 09F#973D6880010700F0
(1719308090.485838) can0 11D#CA0600007E200000
(1719308090.486111) can0 32C#0003000098240818
(1719308090.486348) can0 33C#0000F11F805C0000
(1719308090.493061) can0 107#0000FE0040000000
(1719308090.493274) can0 0A7#29E79E7BFDB9E71E
(1719308090.493578) can0 0A8#60D7BF078A640000
(1719308090.493762) can0 117#110D0040680000FF
(1719308090.493996) can0 32F#007F000000000000
(1719308090.494249) can0 0B2#0000000000000000
(1719308090.494515) can0 116#C40E0000000000FF
(1719308090.494732) can0 086#AB0E9C2000000000
(1719308090.495006) can0 11E#F20E000000000000
(1719308090.495194) can0 122#0B0D00FE07000010
(1719308090.495460) can0 31B#E376000000008000
(1719308090.495687) can0 09F#3B3E6880010700F0
(1719308090.495961) can0 12E#47ED7F000000C0FF
(1719308090.496173) can0 32A#D7021A0000020000
(1719308090.499062) can0 3B5#80FE12020C002000
(1719308090.502836) can0 3DD#8A1C100000000000
(1719308090.503074) can0 120#020400020008FF01
(1719308090.503294) can0 121#6204000030627EFE
(1719308090.503585) can0 0A8#42D8BF078A640000
(1719308090.503825) can0 380#7B046000000000FF
(1719308090.504045) can0 0B2#0000000000000000
(1719308090.504270) can0 0FD#23EF3F8000000000
(1719308090.504555) can0 101#C30F7DE181014000
(1719308090.504737) can0 086#CF0F9C2000000000
(1719308090.504986) can0 106#008F630000007B00
(1719308090.505237) can0 147#0000000000000000
(1719308090.505473) can0 391#00671D0000290000
(1719308090.505716) can0 09F#5F3F6880010700F0
(1719308090.505941) can0 11D#AE0700007E200000
(1719308090.506187) can0 3BE#6423070102C00880
(1719308090.506442) can0 0A7#64E89E7BFDB9E71E
(1719308090.506703) can0 3D8#0000040000000000
(1719308090.506939) can0 040#A901000541000056
(1719308090.507128) can0 17331F10#47D20101
(1719308090.507801) can0 2B7#4F0F0000000010FE
(1719308090.508899) can0 381#FFFFFFFFFF000050
(1719308090.509117) can0 382#FFFFFFFFFF000050
(1719308090.509393) can0 48E#0000000000000000
(1719308090.509646) can0 497#0000000041470020
(1719308090.513176) can0 31E#BDE23F0000000000
(1719308090.513418) can0 107#0000FE0040000000
(1719308090.513618) can0 0A7#B4E99E7BFDB9E71E
(1719308090.513895) can0 0A8#30D9BF078A640000
(1719308090.514099) can0 0B2#0000000000000000
(1719308090.514338) can0 116#A00F0000000000FF
(1719308090.514620) can0 086#8D009C2000000000
(1719308090.514850) can0 117#BD0E0040680000FF
(1719308090.515087) can0 11E#960F000000000000
(1719308090.515340) can0 122#8A0E00FE07000010
(1719308090.515554) can0 09F#1D306880010700F0
(1719308090.515771) can0 12E#9DEE7F000000C0FF
(1719308090.516040) can0 3C7#1410080000408300
(1719308090.516289) can0 365#920000000000003C
(1719308090.516567) can0 520#240C000800AA0200
(1719308090.516780) can0 3D5#F204000400000000
(1719308090.517054) can0 545#0000500001000100
(1719308090.517261) can0 12B#F441802A00000000
(1719308090.522788) can0 1B000010#1000010505000000
(1719308090.523022) can0 120#000500020008FF01
(1719308090.523255) can0 121#5505000030627EFE
(1719308090.523496) can0 0A7#B2EA9E7BFDB9E71E
(1719308090.523715) can0 0A8#6FDABF078A640000
(1719308090.523985) can0 3DB#501001050710019F
(1719308090.524225) can0 0B2#0000000000000000
(1719308090.524461) can0 0FD#59E03F8000000000
(1719308090.524705) can0 086#E9019C2000000000
(1719308090.524960) can0 101#0F007DE181084000
(1719308090.525199) can0 106#4280630000007B00
(1719308090.525438) can0 147#0000000000000000
(1719308090.525655) can0 09F#79316880010700F0
(1719308090.525902) can0 11D#EC0800007E200000
(1719308090.526152) can0 30B#7F08800008000000
(1719308090.526403) can0 3FB#0000000000000021
(1719308090.526666) can0 3D6#0800000000000000
(1719308090.526919) can0 643#0002030000000000
(1719308090.527188) can0 6B4#0000000000575647
(1719308090.528054) can0 1A55552F#00108CFFB52F0B00
(1719308090.533179) can0 107#0000FE0040000000
(1719308090.533328) can0 0A7#DCEB9E7BFDB9E71E
(1719308090.533564) can0 0A8#A2DBBF078A640000
(1719308090.533841) can0 117#D90F0040680000FF
(1719308090.534077) can0 11B#0000000000000000
(1719308090.534335) can0 0B2#0000000000000000
(1719308090.534565) can0 086#45029C2000000000
(1719308090.534812) can0 11E#D400000000000000
(1719308090.535039) can0 116#E2000000000000FF
(1719308090.535289) can0 122#060F00FE07000010
(1719308090.535563) can0 32C#0003000098240818
(1719308090.535752) can0 09F#D5326880010700F0
(1719308090.536005) can0 12E#9AEF7F000000C0FF
(1719308090.536257) can0 3E5#9E2C000000000000
(1719308090.537264) can0 12B#5042802A00000000
(1719308090.542996) can0 120#EF0600020008FF01
(1719308090.543192) can0 121#5206000030627EFE
(1719308090.543488) can0 15A#1E02000001D20000
(1719308090.543715) can0 0A8#BCDCBF078A640000
(1719308090.543954) can0 0A7#63EC9E7BFDB9E71E
(1719308090.544209) can0 0B2#0000000000000000
(1719308090.544449) can0 0FD#53E13F8000000000
(1719308090.544667) can0 086#21039C2000000000
(1719308090.544921) can0 31B#0377000000008000
(1719308090.545190) can0 101#2A017DE181074000
(1719308090.545416) can0 106#2681630000007B00
(1719308090.545665) can0 09F#B1336880010700F0
(1719308090.545850) can0 11D#880900007E200000
(1719308090.546108) can0 32A#B3031A0000020000
(1719308090.546328) can0 32F#007F000000000000
(1719308090.546629) can0 147#0000000000000000
(1719308090.546759) can0 3C0#700D0300
(1719308090.547091) can0 1B000015#1500010205000000
(1719308090.547236) can0 5A0#4F05832078
(1719308090.553174) can0 107#0000FE0040000000
(1719308090.553377) can0 0A7#93ED9E7BFDB9E71E
(1719308090.553617) can0 0A8#AFDDBF078A640000
(1719308090.553890) can0 117#9B000040680000FF
(1719308090.554139) can0 0B2#0000000000000000
(1719308090.554398) can0 122#120000FE07000010
(1719308090.554665) can0 086#32049C2000000000
(1719308090.554872) can0 11E#B001000000000000
(1719308090.555109) can0 12E#B3E07F000000C0FF
(1719308090.555351) can0 392#2904000000000004
(1719308090.555635) can0 09F#A2346880010700F0
(1719308090.555874) can0 116#86010000000000FF
(1719308090.556112) can0 040#A802000541000058
(1719308090.557842) can0 2B7#6D000000000010FE
(1719308090.562918) can0 120#ED0700020008FF01
(1719308090.563122) can0 121#0107000030627EFE
(1719308090.563372) can0 0A7#18EE9E7BFDB9E71E
(1719308090.563606) can0 0A8#1DDEBF078A640000
(1719308090.563880) can0 31E#FFE33F0000000000
(1719308090.564109) can0 0B2#0000000000000000
(1719308090.564359) can0 0FD#9CE23F8000000000
(1719308090.564563) can0 101#49027DE181014000
(1719308090.564804) can0 086#56059C2000000000
(1719308090.565041) can0 106#8A82630000007B00
(1719308090.565266) can0 147#0000000000000000
(1719308090.565549) can0 11D#240A00007E200000
(1719308090.565779) can0 09F#C6356880010700F0
(1719308090.566028) can0 23D#0000180802808D7F
(1719308090.566257) can0 33C#0000F11F805C0000
(1719308090.566549) can0 365#920000000000003C
(1719308090.566780) can0 5F0#FD006400004B0000
(1719308090.569719) can0 1B000012#1200010105000000
(1719308090.570779) can0 12DD5470#3D03000000000000
(1719308090.573099) can0 107#0000FE0040000000
(1719308090.573265) can0 0A7#C6EF9E7BFDB9E71E
(1719308090.573541) can0 0A8#92DFBF078A640000
(1719308090.573768) can0 117#FF010040680000FF
(1719308090.574014) can0 122#990100FE07000010
(1719308090.574290) can0 0B2#0000000000000000
(1719308090.574493) can0 116#2A020000000000FF
(1719308090.574756) can0 086#FA069C2000000000
(1719308090.574993) can0 11E#1C02000000000000
(1719308090.575233) can0 12E#BDE17F000000C0FF
(1719308090.575474) can0 30B#7F09800008000000
(1719308090.575709) can0 09F#6A366880010700F0
(1719308090.575963) can0 65E#00007E0100000000
(1719308090.577234) can0 12B#0843802A00000000
(1719308090.582803) can0 3EC#E100000000032000
(1719308090.583049) can0 120#B40800020008FF01
(1719308090.583260) can0 121#C208000030627EFE
(1719308090.583572) can0 0A8#FAD0BF078A640000
(1719308090.583755) can0 0A7#0FE09E7BFDB9E71E
(1719308090.583992) can0 147#0000000000000000
(1719308090.584249) can0 0B2#0000000000000000
(1719308090.584512) can0 0FD#E9E33F8000000000
(1719308090.584729) can0 086#9E079C2000000000
(1719308090.585005) can0 101#99037DE181030000
(1719308090.585192) can0 106#EE83630000007B00
(1719308090.585450) can0 32C#0003000098240818
(1719308090.585733) can0 09F#0E376880010700F0
(1719308090.585970) can0 11D#400B00007E200000
(1719308090.586191) can0 380#1F056000000000FF
(1719308090.588762) can0 381#FFFFFFFFFF000060
(1719308090.588998) can0 382#FFFFFFFFFF000060
(1719308090.593143) can0 107#0000FE0040000000
(1719308090.593325) can0 0A7#87E19E7BFDB9E71E
(1719308090.593571) can0 0A8#80D1BF078A640000
(1719308090.593856) can0 117#53020040680000FF
(1719308090.594108) can0 0B2#0000000000000000
(1719308090.594330) can0 116#4E030000000000FF
(1719308090.594582) can0 086#DC089C2000000000
(1719308090.594812) can0 11E#7803000000000000
(1719308090.595043) can0 122#630200FE07000010
(1719308090.595272) can0 31B#0178000000008000
(1719308090.595565) can0 12E#74E27F000000C0FF
(1719308090.595758) can0 32A#A0041A0000020000
(1719308090.595986) can0 09F#4C386880010700F0
(1719308090.596235) can0 32F#007F000000000000
(1719308090.597258) can0 12B#8844802A00000000
(1719308090.599009) can0 3B5#80FE12020C002000
(1719308090.599859) can0 668#0200000000000000
(1719308090.602829) can0 3DD#8A1C100000000000
(1719308090.603029) can0 120#E20900020008FF01
(1719308090.603278) can0 121#3D09000030627EFE
(1719308090.603551) can0 0A8#6CD2BF078A640000
(1719308090.603755) can0 3BE#9324070102C00880
(1719308090.603996) can0 0B2#0000000000000000
(1719308090.604233) can0 0A7#F3E29E7BFDB9E71E
(1719308090.604473) can0 0FD#7FE43F8000000000
(1719308090.604707) can0 086#B8099C2000000000
(1719308090.604963) can0 101#8A047DE181030000
(1719308090.605201) can0 106#FD84630000007B00
(1719308090.605437) can0 147#0000000000000000
(1719308090.605697) can0 09F#28396880010700F0
(1719308090.605937) can0 11D#530C00007E200000
(1719308090.606178) can0 391#00671D0000290000
(1719308090.606416) can0 3D8#0000040000000000
(1719308090.606650) can0 040#310300054100005A
(1719308090.606927) can0 3FB#0000000000000022
(1719308090.607905) can0 2B7#3C010000000010FE
(1719308090.608847) can0 48E#0000000000000000
(1719308090.609132) can0 497#0000000041470020
(1719308090.613133) can0 31E#52E43F0000000000
(1719308090.613393) can0 107#0000FE0040000000
(1719308090.613564) can0 0A7#72E39E7BFDB9E71E
(1719308090.613804) can0 0A8#83D3BF078A640000
(1719308090.614087) can0 117#37030040680000FF
(1719308090.614339) can0 0B2#0000000000000000
(1719308090.614552) can0 086#140A9C2000000000
(1719308090.614781) can0 11E#6B04000000000000
(1719308090.615029) can0 08A#5333000000000000
(1719308090.615256) can0 122#460300FE07000010
(1719308090.615552) can0 1A2#540B000000000000
(1719308090.615736) can0 09F#843A6880010700F0
(1719308090.615972) can0 12E#EDE37F000000C0FF
(1719308090.616267) can0 3C7#FD10080000408300
(1719308090.616513) can0 365#920000000000003C
(1719308090.616712) can0 65D#83242B000000E47B
(1719308090.616959) can0 1AB#548F840A00001000
(1719308090.617212) can0 116#5D040000000000FF
(1719308090.617465) can0 3D5#7905000400000000
(1719308090.617707) can0 1A555521#0000000000000000
(1719308090.618040) can0 16A954C3#0016000000000000
(1719308090.622781) can0 3DB#501001050710019F
(1719308090.623027) can0 120#390A00020008FF01
(1719308090.623261) can0 121#580A000030627EFE
(1719308090.623469) can0 0A7#48E49E7BFDB9E71E
(1719308090.623730) can0 0A8#2FD4BF078A640000
(1719308090.624004) can0 147#0000000000000000
(1719308090.624191) can0 0B2#0000000000000000
(1719308090.624449) can0 0FD#E5E53F8000000000
(1719308090.624733) can0 086#700B9C2000000000
(1719308090.624976) can0 101#94057DE181040000
(1719308090.625191) can0 106#9985630000007B00
(1719308090.625449) can0 30B#7F0A800008000000
(1719308090.625662) can0 09F#E03B6880010700F0
(1719308090.625917) can0 11D#370D00007E200000
(1719308090.626165) can0 3D6#0900000000000000
(1719308090.626394) can0 6B7#5E1E714D000F008F
(1719308090.626644) can0 6B8#BE0798C017500000
(1719308090.633196) can0 107#0000FE0040000000
(1719308090.633391) can0 0A7#33E59E7BFDB9E71E
(1719308090.633642) can0 0A8#45D5BF078A640000
(1719308090.633889) can0 117#24040040680000FF
(1719308090.634118) can0 11B#0000000000000000
(1719308090.634366) can0 0B2#0000000000000000
(1719308090.634603) can0 086#630C9C2000000000
(1719308090.634877) can0 11E#0F05000000000000
(1719308090.635106) can0 116#39050000000000FF
(1719308090.635353) can0 122#440400FE07000010
(1719308090.635560) can0 09F#F33C6880010700F0
(1719308090.635801) can0 12E#CAE47F000000C0FF
(1719308090.636083) can0 32C#0003000098240818
(1719308090.636285) can0 3E5#AA2D000000000000
(1719308090.636609) can0 1B000013#1300010205000000
(1719308090.637268) can0 12B#2D45802A00000000
(1719308090.642962) can0 120#950B00020008FF01
(1719308090.643169) can0 121#F30B000030627EFE
(1719308090.643393) can0 15A#9C03000001820200
(1719308090.643611) can0 0A7#A0E69E7BFDB9E71E
(1719308090.643849) can0 0A8#75D6BF078A640000
(1719308090.644088) can0 0B2#0000000000000000
(1719308090.644329) can0 0FD#F7E63F8000000000
(1719308090.644563) can0 086#070D9C2000000000
(1719308090.644804) can0 23D#0000180402808C7F
(1719308090.645084) can0 31B#8079000000008000
(1719308090.645289) can0 101#7D067DE181060000
(1719308090.645565) can0 106#3586630000007B00
(1719308090.645805) can0 09F#973D6880010700F0
(1719308090.646043) can0 11D#9B0E00007E200000
(1719308090.646269) can0 32A#C4051A0000020000
(1719308090.646553) can0 32F#007F000000000000
(1719308090.646737) can0 147#0000000000000000
(1719308090.646942) can0 3C0#800E0300
(1719308090.647190) can0 33C#0000F11F805C0000
(1719308090.653127) can0 107#0000FE0040000000
(1719308090.653345) can0 0A7#29E79E7BFDB9E71E
(1719308090.653563) can0 0A8#60D7BF078A640000
(1719308090.653813) can0 117#40050040680000FF
(1719308090.654037) can0 122#DD0500FE07000010
(1719308090.654331) can0 0B2#0000000000000000
(1719308090.654564) can0 086#AB0E9C2000000000
(1719308090.654815) can0 11E#A306000000000000
(1719308090.655037) can0 12E#2AE57F000000C0FF
(1719308090.655276) can0 392#4D05000000000004
(1719308090.655497) can0 116#95060000000000FF
(1719308090.655781) can0 09F#3B3E6880010700F0
(1719308090.656015) can0 040#0A0400054100005C
(1719308090.657258) can0 12B#3446802A00000000
(1719308090.657861) can0 2B7#E4020000000010FE
(1719308090.662963) can0 120#4F0C00020008FF01
(1719308090.663141) can0 121#360C000030627EFE
(1719308090.663505) can0 31E#2DE53F0000000000
(1719308090.663711) can0 0A8#42D8BF078A640000
(1719308090.663900) can0 0A7#64E89E7BFDB9E71E
(1719308090.664174) can0 0B2#0000000000000000
(1719308090.664380) can0 0FD#CDE73F8000000000
(1719308090.664638) can0 086#CF0F9C2000000000
(1719308090.664890) can0 101#19077DE181060000
(1719308090.665097) can0 106#5187630000007B00
(1719308090.665378) can0 380#B3066000000000FF
(1719308090.665590) can0 09F#5F3F6880010700F0
(1719308090.665821) can0 11D#FF0F00007E200000
(1719308090.666081) can0 365#920000000000003C
(1719308090.666266) can0 64A#00008000
(1719308090.666558) can0 670#15100000FE000080
(1719308090.666743) can0 147#0000000000000000
(1719308090.668767) can0 381#FFFFFFFFFF000070
(1719308090.669017) can0 382#FFFFFFFFFF000070
(1719308090.673148) can0 107#0000FE0040000000
(1719308090.673387) can0 0A7#B4E99E7BFDB9E71E
(1719308090.673638) can0 0A8#30D9BF078A640000
(1719308090.673867) can0 117#EC060040680000FF
(1719308090.674076) can0 122#240600FE07000010
(1719308090.674354) can0 0B2#0000000000000000
(1719308090.674582) can0 086#8D009C2000000000
(1719308090.674822) can0 11E#C707000000000000
(1719308090.675042) can0 116#F1070000000000FF
(1719308090.675287) can0 12E#60E67F000000C0FF
(1719308090.675571) can0 09F#1D306880010700F0
(1719308090.675798) can0 30B#7F0B800008000000
(1719308090.676079) can0 17F00013#20130000001E0000
(1719308090.680804) can0 1B000076#7600010105000000
(1719308090.683007) can0 120#FF0D00020008FF01
(1719308090.683186) can0 121#250D000030627EFE
(1719308090.683418) can0 0A8#6FDABF078A640000
(1719308090.683676) can0 0A7#B2EA9E7BFDB9E71E
(1719308090.683916) can0 147#0000000000000000
(1719308090.684169) can0 0B2#0000000000000000
(1719308090.684419) can0 0FD#0AE83F8000000000
(1719308090.684628) can0 086#E9019C2000000000
(1719308090.684883) can0 101#65087DE181004000
(1719308090.685111) can0 106#1388630000007B00
(1719308090.685363) can0 32C#0003000098240818
(1719308090.685639) can0 09F#79316880010700F0
(1719308090.685867) can0 11D#BD0000007E200000
(1719308090.686105) can0 3FB#0000000000000023
(1719308090.693052) can0 107#0000FE0040000000
(1719308090.693276) can0 0A7#DCEB9E7BFDB9E71E
(1719308090.693567) can0 0A8#A2DBBF078A640000
(1719308090.693756) can0 117#88070040680000FF
(1719308090.693993) can0 32F#007F000000000000
(1719308090.694231) can0 0B2#0000000000000000
(1719308090.694472) can0 116#B3080000000000FF
(1719308090.694705) can0 086#45029C2000000000
(1719308090.694959) can0 11E#8508000000000000
(1719308090.695199) can0 122#330700FE07000010
(1719308090.695435) can0 31B#DA7A000000008000
(1719308090.695695) can0 09F#D5326880010700F0
(1719308090.695959) can0 12E#73E77F000000C0FF
(1719308090.696175) can0 32A#68061A0000020000
(1719308090.697234) can0 12B#1147802A00000000
(1719308090.699040) can0 3B5#80FE12020C002000
(1719308090.702869) can0 3DD#8A1C100000000000
(1719308090.703076) can0 120#940E00020008FF01
(1719308090.703312) can0 121#B60E000030627EFE
(1719308090.703550) can0 0A8#BCDCBF078A640000
(1719308090.703779) can0 3BE#EC25070102C00880
(1719308090.704029) can0 147#0000000000000000
(1719308090.704258) can0 0A7#63EC9E7BFDB9E71E
(1719308090.704550) can0 0B2#0000000000000000
(1719308090.704753) can0 086#21039C2000000000
(1719308090.704989) can0 0FD#38E93F8000000000
(1719308090.705262) can0 101#00097DE181030000
(1719308090.705448) can0 106#7789630000007B00
(1719308090.705720) can0 09F#B1336880010700F0
(1719308090.705958) can0 11D#D90100007E200000
(1719308090.706205) can0 3D8#0000040000000000
(1719308090.706420) can0 040#5105000541000060
(1719308090.706722) can0 65F#0020000000002C7F
(1719308090.706958) can0 56F#0000B8037DFC0000
(1719308090.707197) can0 556#0000FEFE8100FE00
(1719308090.707418) can0 641#1313214F130A4632
(1719308090.707670) can0 391#00671D0000290000
(1719308090.707901) can0 2B7#BD030000000010FE
(1719308090.708859) can0 48E#0000000000000000
(1719308090.709133) can0 497#0000000041470020
(1719308090.713212) can0 31E#AAE63F0000000000
(1719308090.713414) can0 107#0000FE0040000000
(1719308090.713661) can0 0A7#93ED9E7BFDB9E71E
(1719308090.713884) can0 0A8#AFDDBF078A640000
(1719308090.714138) can0 117#CA080040680000FF
(1719308090.714386) can0 0B2#0000000000000000
(1719308090.714637) can0 086#32049C2000000000
(1719308090.714848) can0 11E#E109000000000000
(1719308090.715093) can0 116#D7090000000000FF
(1719308090.715354) can0 122#4A0800FE07000010
(1719308090.715583) can0 09F#A2346880010700F0
(1719308090.715814) can0 12E#1AE87F000000C0FF
(1719308090.716063) can0 3C7#1410080000408300
(1719308090.716291) can0 365#920000000000003C
(1719308090.716572) can0 520#400D000800AA0200
(1719308090.716771) can0 3D5#E606000400000000
(1719308090.717036) can0 545#0000500001000100
(1719308090.717266) can0 12B#C448802A00000000
(1719308090.722803) can0 1B000010#1000010505000000
(1719308090.723029) can0 120#410F00020008FF01
(1719308090.723258) can0 121#000F000030627EFE
(1719308090.723551) can0 0A7#18EE9E7BFDB9E71E
(1719308090.723736) can0 0A8#1DDEBF078A640000
(1719308090.723969) can0 147#0000000000000000
(1719308090.724242) can0 0B2#0000000000000000
(1719308090.724445) can0 0FD#74EA3F8000000000
(1719308090.724700) can0 086#56059C2000000000
(1719308090.724934) can0 101#AC0A7DE181030000
(1719308090.725184) can0 106#DB8A630000007B00
(1719308090.725417) can0 3DB#501001050710019F
(1719308090.725651) can0 09F#C6356880010700F0
(1719308090.725878) can0 11D#750200007E200000
(1719308090.726129) can0 23D#0000180402808C7F
(1719308090.726366) can0 30B#7F0C800008000000
(1719308090.726641) can0 33C#00000120805C0000
(1719308090.726882) can0 3D6#0A00000000000000
(1719308090.727119) can0 6B4#0259393031343733
(1719308090.733155) can0 107#0000FE0040000000
(1719308090.733367) can0 0A7#C6EF9E7BFDB9E71E
(1719308090.733616) can0 0A8#92DFBF078A640000
(1719308090.733843) can0 117#AE090040680000FF
(1719308090.734071) can0 11B#0000000000000000
(1719308090.734331) can0 0B2#0000000000000000
(1719308090.734558) can0 086#FA069C2000000000
(1719308090.734809) can0 11E#4D0A000000000000
(1719308090.735038) can0 116#7B0A0000000000FF
(1719308090.735286) can0 122#230900FE07000010
(1719308090.735558) can0 09F#6A366880010700F0
(1719308090.735764) can0 12E#66E97F000000C0FF
(1719308090.736004) can0 32C#0003000098240818
(1719308090.736245) can0 3E5#282E000000000000
(1719308090.742921) can0 120#8B0000020008FF01
(1719308090.743139) can0 121#CE00000030627EFE
(1719308090.743437) can0 15A#3804000001820200
(1719308090.743673) can0 0A8#FAD0BF078A640000
(1719308090.743929) can0 0A7#0FE09E7BFDB9E71E
(1719308090.744134) can0 0B2#0000000000000000
(1719308090.744437) can0 0FD#5BEB3F8000000000
(1719308090.744673) can0 086#9E079C2000000000
(1719308090.744895) can0 31B#C70B000000000000
(1719308090.745153) can0 101#C90B7DE181004000
(1719308090.745392) can0 106#BF8B630000007B00
(1719308090.745628) can0 09F#0E376880010700F0
(1719308090.745817) can0 11D#110300007E200000
(1719308090.746082) can0 32A#0C071A0000020000
(1719308090.746303) can0 32F#007F000000000000
(1719308090.746582) can0 147#0000000000000000
(1719308090.746803) can0 380#D7076000000000FF
(1719308090.747060) can0 585#012C0A7F11000000
(1719308090.747392) can0 17F00012#2012000000000000
(1719308090.747581) can0 3C0#350F0300
(1719308090.747804) can0 1B000015#1500010205000000
(1719308090.748006) can0 5A0#4F05832078
(1719308090.748831) can0 381#FFFFFFFFFF000080
(1719308090.749109) can0 382#FFFFFFFFFF000080
(1719308090.752833) can0 570#FB00000000000000
(1719308090.753173) can0 107#0000FE0040000000
(1719308090.753402) can0 0A7#87E19E7BFDB9E71E
(1719308090.753610) can0 0A8#80D1BF078A640000
(1719308090.753849) can0 117#020A0040680000FF
(1719308090.754086) can0 122#880A00FE07000010
(1719308090.754325) can0 0B2#0000000000000000
(1719308090.754608) can0 086#DC089C2000000000
(1719308090.754855) can0 11E#290B000000000000
(1719308090.755088) can0 12E#3AEA7F000000C0FF
(1719308090.755326) can0 392#E106000000000004
(1719308090.755560) can0 09F#4C386880010700F0
(1719308090.755788) can0 116#1F0B0000000000FF
(1719308090.756035) can0 040#0006000541000062
(1719308090.757260) can0 12B#CC49802A00000000
(1719308090.757865) can0 2B7#0D040000000010FE
(1719308090.762940) can0 120#7E0100020008FF01
(1719308090.763187) can0 121#A201000030627EFE
(1719308090.763392) can0 31E#ACE73F0000000000
(1719308090.763640) can0 0A7#F3E29E7BFDB9E71E
(1719308090.763879) can0 0A8#6CD2BF078A640000
(1719308090.764161) can0 0B2#0000000000000000
(1719308090.764366) can0 0FD#C2EC3F8000000000
(1719308090.764641) can0 086#B8099C2000000000
(1719308090.764833) can0 101#DA0C7DE181004000
(1719308090.765085) can0 106#AC8C630000007B00
(1719308090.765324) can0 147#0000000000000000
(1719308090.765560) can0 09F#69396880010800F0
(1719308090.765789) can0 11D#020400007E200000
(1719308090.766038) can0 3FB#0000000000000024
(1719308090.766314) can0 5F0#FD006400004B0000
(1719308090.766564) can0 365#920000000000003C
(1719308090.769679) can0 1B000012#1200010105000000
(1719308090.773118) can0 107#0000FE0040000000
(1719308090.773343) can0 0A7#72E39E7BFDB9E71E
(1719308090.773579) can0 0A8#83D3BF078A640000
(1719308090.773794) can0 117#660B0040680000FF
(1719308090.774035) can0 122#590B00FE07000010
(1719308090.774275) can0 0B2#0000000000000000
(1719308090.774513) can0 086#140A9C2000000000
(1719308090.774759) can0 11E#3A0C000000000000
(1719308090.775014) can0 116#0C0C0000000000FF
(1719308090.775254) can0 12E#CEEB7F000000C0FF
(1719308090.775500) can0 30B#7F0D800008000000
(1719308090.775732) can0 09F#843A6880010700F0
(1719308090.777242) can0 12B#DC4A802A00000000
(1719308090.782834) can0 3EC#E100000000032000
(1719308090.783074) can0 120#860200020008FF01
(1719308090.783292) can0 121#2D02000030627EFE
(1719308090.783586) can0 0A7#48E49E7BFDB9E71E
(1719308090.783777) can0 0A8#2FD4BF078A640000
(1719308090.784004) can0 32C#0003000098240818
(1719308090.784234) can0 0B2#0000000000000000
(1719308090.784507) can0 0FD#4BED3F8000000000
(1719308090.784777) can0 086#700B9C2000000000
(1719308090.784969) can0 101#FA0D7DE181010000
(1719308090.785222) can0 106#C88D630000007B00
(1719308090.785480) can0 147#0000000000000000
(1719308090.785697) can0 09F#E03B6880010700F0
(1719308090.785924) can0 11D#660500007E200000
(1719308090.793123) can0 107#0000FE0040000000
(1719308090.793320) can0 0A7#33E59E7BFDB9E71E
(1719308090.793557) can0 0A8#45D5BF078A640000
(1719308090.793791) can0 117#750C0040680000FF
(1719308090.794071) can0 32F#007F000000000000
(1719308090.794299) can0 0B2#0000000000000000
(1719308090.794550) can0 086#630C9C2000000000
(1719308090.794788) can0 11E#5E0D000000000000
(1719308090.795027) can0 116#680D0000000000FF
(1719308090.795265) can0 122#090C00FE07000010
(1719308090.795550) can0 31B#FE0C000000000000
(1719308090.795733) can0 09F#F33C6880010700F0
(1719308090.796016) can0 12E#6DEC7F000000C0FF
(1719308090.796223) can0 32A#4E081A0000020000
(1719308090.799012) can0 3B5#80FE12020C002000
(1719308090.799581) can0 668#0200000000000000
(1719308090.802830) can0 3DD#8A1C100000000000
(1719308090.803050) can0 120#540300020008FF01
(1719308090.803299) can0 121#DF03000030627EFE
(1719308090.803573) can0 0A8#75D6BF078A640000
(1719308090.803760) can0 3BE#F126070102C00880
(1719308090.804017) can0 147#0000000000000000
(1719308090.804256) can0 0A7#A0E69E7BFDB9E71E
(1719308090.804500) can0 0B2#0000000000000000
(1719308090.804712) can0 086#070D9C2000000000
(1719308090.804970) can0 0FD#B4EE3F8000000000
(1719308090.805207) can0 101#560E7DE181010000
(1719308090.805446) can0 106#648E630000007B00
(1719308090.805642) can0 09F#973D6880010700F0
(1719308090.805933) can0 11D#CA0600007E200000
(1719308090.806181) can0 23D#0000180402808C7F
(1719308090.806411) can0 3D8#0000040000000000
(1719308090.806644) can0 040#4C07000541000064
(1719308090.806910) can0 33C#00000120805C0000
(1719308090.807184) can0 17F00076#2076000000000000
(1719308090.807432) can0 640#0281FE937E200300
(1719308090.807646) can0 647#B8FDFF7F00000059
(1719308090.807902) can0 2B7#F5050000000010FE
(1719308090.808145) can0 391#00671D0000290000
(1719308090.808378) can0 642#000000000C180F1E
(1719308090.808868) can0 48E#0000000000000000
(1719308090.809136) can0 497#0000000041470020
(1719308090.813151) can0 31E#E5E83F0000000000
(1719308090.813365) can0 107#0000FE0040000000
(1719308090.813608) can0 0A7#29E79E7BFDB9E71E
(1719308090.813833) can0 0A8#60D7BF078A640000
(1719308090.814062) can0 117#110D0040680000FF
(1719308090.814301) can0 0B2#0000000000000000
(1719308090.814562) can0 086#AB0E9C2000000000
(1719308090.814829) can0 11E#F20E000000000000
(1719308090.815062) can0 122#0B0D00FE07000010
(1719308090.815286) can0 1A2#FE0C000000000000
(1719308090.815551) can0 09F#3B3E6880010700F0
(1719308090.815786) can0 12E#47ED7F000000C0FF
(1719308090.815991) can0 1AB#5880840A00001000
(1719308090.816232) can0 116#C40E0000000000FF
(1719308090.816499) can0 365#920000000000003C
(1719308090.816729) can0 3C7#FD10080000408300
(1719308090.816982) can0 3D5#FD07000400000000
(1719308090.817265) can0 12B#794B802A00000000
(1719308090.820693) can0 6B2#D55E1E8131BCC40F
(1719308090.822783) can0 3DB#501001050710019F
(1719308090.823026) can0 120#020400020008FF01
(1719308090.823276) can0 121#6204000030627EFE
(1719308090.823460) can0 0A7#64E89E7BFDB9E71E
(1719308090.823695) can0 0A8#42D8BF078A640000
(1719308090.823969) can0 147#0000000000000000
(1719308090.824207) can0 0B2#0000000000000000
(1719308090.824460) can0 0FD#23EF3F8000000000
(1719308090.824709) can0 086#CF0F9C2000000000
(1719308090.824950) can0 101#760F7DE181004000
(1719308090.825187) can0 106#008F630000007B00
(1719308090.825428) can0 30B#7F0E800008000000
(1719308090.825640) can0 09F#5F3F6880010700F0
(1719308090.825918) can0 11D#AE0700007E200000
(1719308090.826115) can0 380#95086000000000FF
(1719308090.826401) can0 3D6#0B00000000000000
(1719308090.828832) can0 381#FFFFFFFFFF000090
(1719308090.829124) can0 382#FFFFFFFFFF000090
(1719308090.833241) can0 107#0000FE0040000000
(1719308090.833457) can0 0A7#B4E99E7BFDB9E71E
(1719308090.833662) can0 0A8#30D9BF078A640000
(1719308090.833902) can0 117#BD0E0040680000FF
(1719308090.834121) can0 11B#0000000000000000
(1719308090.834421) can0 0B2#0000000000000000
(1719308090.834660) can0 086#8D009C2000000000
(1719308090.834899) can0 11E#960F000000000000
(1719308090.835118) can0 116#A00F0000000000FF
(1719308090.835387) can0 122#8A0E00FE07000010
(1719308090.835623) can0 09F#5C306880010800F0
(1719308090.835853) can0 12E#9DEE7F000000C0FF
(1719308090.836084) can0 32C#0003000098240818
(1719308090.836356) can0 3E5#182F000000000000
(1719308090.836568) can0 557#0000000000000000
(1719308090.836886) can0 1B000013#1300010205000000
(1719308090.837210) can0 12B#3C4C802A00000000
(1719308090.842939) can0 120#000500020008FF01
(1719308090.843209) can0 121#5505000030627EFE
(1719308090.843415) can0 15A#7105000001D20000
(1719308090.843644) can0 0A7#B2EA9E7BFDB9E71E
(1719308090.843902) can0 0A8#6FDABF078A640000
(1719308090.844170) can0 0B2#0000000000000000
(1719308090.844388) can0 0FD#59E03F8000000000
(1719308090.844644) can0 086#E9019C2000000000
(1719308090.844852) can0 2C2#000000FC07000000
(1719308090.845104) can0 31B#F50D000000000000
(1719308090.845344) can0 101#70007DE181010000
(1719308090.845562) can0 09F#79316880010700F0
(1719308090.845812) can0 106#4280630000007B00
(1719308090.846047) can0 11D#EC0800007E200000
(1719308090.846329) can0 32A#2A091A0000020000
(1719308090.846562) can0 32F#007F000000000000
(1719308090.846728) can0 3C0#74000300
(1719308090.846967) can0 147#0000000000000000
(1719308090.847249) can0 3FB#0000000000000040
(1719308090.853125) can0 107#0000FE0040000000
(1719308090.853319) can0 0A7#DCEB9E7BFDB9E71E
(1719308090.853556) can0 0A8#A2DBBF078A640000
(1719308090.853789) can0 117#D90F0040680000FF
(1719308090.854010) can0 122#060F00FE07000010
(1719308090.854306) can0 0B2#0000000000000000
(1719308090.854556) can0 086#45029C2000000000
(1719308090.854751) can0 11E#D400000000000000
(1719308090.855022) can0 12E#9AEF7F000000C0FF
(1719308090.855231) can0 392#8507000000000004
(1719308090.855476) can0 116#E2000000000000FF
(1719308090.855706) can0 09F#94326880010800F0
(1719308090.855946) can0 040#F308000541000066
(1719308090.857807) can0 2B7#23060000000010FE
(1719308090.862945) can0 120#EF0600020008FF01
(1719308090.863161) can0 121#5206000030627EFE
(1719308090.863438) can0 31E#DAE93F0000000000
(1719308090.863717) can0 0A8#BCDCBF078A640000
(1719308090.863955) can0 0A7#63EC9E7BFDB9E71E
(1719308090.864204) can0 0B2#0000000000000000
(1719308090.864420) can0 0FD#53E13F8000000000
(1719308090.864672) can0 086#21039C2000000000
(1719308090.864900) can0 101#50017DE181004000
(1719308090.865150) can0 106#2681630000007B00
(1719308090.865370) can0 147#0000000000000000
(1719308090.865661) can0 09F#B1336880010700F0
(1719308090.865854) can0 11D#880900007E200000
(1719308090.866106) can0 365#920000000000003C
(1719308090.873146) can0 107#0000FE0040000000
(1719308090.873389) can0 0A7#93ED9E7BFDB9E71E
(1719308090.873624) can0 0A8#AFDDBF078A640000
(1719308090.873853) can0 117#9B000040680000FF
(1719308090.874085) can0 122#120000FE07000010
(1719308090.874354) can0 0B2#0000000000000000
(1719308090.874569) can0 086#32049C2000000000
(1719308090.874842) can0 11E#B001000000000000
(1719308090.875016) can0 116#86010000000000FF
(1719308090.875328) can0 12E#B3E07F000000C0FF
(1719308090.875580) can0 09F#A2346880010700F0
(1719308090.875820) can0 30B#7F0F800008000000
(1719308090.877256) can0 12B#684D802A00000000
(1719308090.880859) can0 1B000076#7600010105000000
(1719308090.883003) can0 120#ED0700020008FF01
(1719308090.883186) can0 121#0107000030627EFE
(1719308090.883432) can0 0A7#18EE9E7BFDB9E71E
(1719308090.883682) can0 0A8#1DDEBF078A640000
(1719308090.883933) can0 32C#0003000098240818
(1719308090.884174) can0 0B2#0000000000000000
(1719308090.884412) can0 0FD#9CE23F8000000000
(1719308090.884647) can0 086#56059C2000000000
(1719308090.884877) can0 101#1D027DE081014000
(1719308090.885127) can0 106#8A82630000007B00
(1719308090.885361) can0 147#0000000000000000
(1719308090.885638) can0 09F#C6356880010700F0
(1719308090.885829) can0 11D#240A00007E200000
(1719308090.886081) can0 23D#0000180402808C7F
(1719308090.886363) can0 33C#0000F11F805C0000
(1719308090.893313) can0 107#0000FE0040000000
(1719308090.893480) can0 0A7#C6EF9E7BFDB9E71E
(1719308090.893707) can0 0A8#92DFBF078A640000
(1719308090.893948) can0 117#FF010040680000FF
(1719308090.894228) can0 0B2#0000000000000000
(1719308090.894436) can0 116#2A020000000000FF
(1719308090.894698) can0 086#FA069C2000000000
(1719308090.894931) can0 11E#1C02000000000000
(1719308090.895182) can0 122#990100FE07000010
(1719308090.895414) can0 31B#B00E000000000000
(1719308090.895648) can0 09F#6A366880010700F0
(1719308090.895877) can0 12E#BDE17F000000C0FF
(1719308090.896148) can0 32A#860A1A0000020000
(1719308090.896377) can0 32F#007F000000000000
(1719308090.896638) can0 17F00015#0015000000000000
(1719308090.897236) can0 12B#274E802A00000000
(1719308090.899019) can0 3B5#80FE12020C002000
(1719308090.902874) can0 3DD#8A1C100000000000
(1719308090.903108) can0 120#B40800020008FF01
(1719308090.903327) can0 121#C208000030627EFE
(1719308090.903581) can0 0A8#FAD0BF078A640000
(1719308090.903810) can0 130#9A839C8000000400
(1719308090.904059) can0 147#0000000000000000
(1719308090.904269) can0 0B2#0000000000000000
(1719308090.904580) can0 0FD#E9E33F8000000000
(1719308090.904814) can0 086#9E079C2000000000
(1719308090.905050) can0 101#CC037DE081004000
(1719308090.905269) can0 106#EE83630000007B00
(1719308090.905573) can0 380#F1096000000000FF
(1719308090.905757) can0 09F#0E376880010700F0
(1719308090.905991) can0 11D#400B00007E200000
(1719308090.906200) can0 391#00671D0000290000
(1719308090.906478) can0 3BE#7D27070102C00880
(1719308090.906708) can0 0A7#0FE09E7BFDB9E71E
(1719308090.906957) can0 3D8#0000040000000000
(1719308090.907190) can0 040#C70900054100006A
(1719308090.907453) can0 041#6002000000000000
(1719308090.907960) can0 2B7#71070000000010FE
(1719308090.908878) can0 381#FFFFFFFFFF0000A0
(1719308090.909131) can0 382#FFFFFFFFFF0000A0
(1719308090.909401) can0 48E#0000000000000000
(1719308090.909660) can0 497#0000000041470020
(1719308090.909909) can0 54B#0000000000000024
(1719308090.910234) can0 17F0000A#000A000000000000
(1719308090.913212) can0 31E#EEEA3F0000000000
(1719308090.913412) can0 107#0000FE0040000000
(1719308090.913639) can0 0A7#87E19E7BFDB9E71E
(1719308090.913879) can0 0A8#80D1BF078A640000
(1719308090.914117) can0 117#53020040680000FF
(1719308090.914356) can0 0B2#0000000000000000
(1719308090.914615) can0 086#DC089C2000000000
(1719308090.914817) can0 11E#7803000000000000
(1719308090.915057) can0 116#4E030000000000FF
(1719308090.915297) can0 122#630200FE07000010
(1719308090.915557) can0 09F#4C386880010700F0
(1719308090.915795) can0 12E#74E27F000000C0FF
(1719308090.916035) can0 3C7#1410080000408300
(1719308090.916261) can0 365#910000000000003C
(1719308090.916546) can0 520#EC0E000800AA0200
(1719308090.916775) can0 3D5#F808000400000000
(1719308090.917023) can0 545#0000500001000100
(1719308090.922824) can0 1B000010#1000010505000000
(1719308090.923025) can0 120#E20900020008FF01
(1719308090.923274) can0 121#3D09000030627EFE
(1719308090.923548) can0 0A7#F3E29E7BFDB9E71E
(1719308090.923706) can0 0A8#6CD2BF078A640000
(1719308090.923959) can0 3DB#501001050710019F
(1719308090.924199) can0 0B2#0000000000000000
(1719308090.924435) can0 0FD#7FE43F8000000000
(1719308090.924708) can0 086#B8099C2000000000
(1719308090.924980) can0 101#A4047DE081040000
(1719308090.925196) can0 106#FD84630000007B00
(1719308090.925456) can0 147#0000000000000000
(1719308090.925649) can0 09F#28396880010700F0
(1719308090.925899) can0 11D#530C00007E200000
(1719308090.926185) can0 30B#7F00800008000000
(1719308090.926437) can0 3FB#0000000000000041
(1719308090.926672) can0 3D6#0C00000000000000
(1719308090.926881) can0 6B4#0000000000575647
(1719308090.933215) can0 107#0000FE0040000000
(1719308090.933412) can0 0A7#72E39E7BFDB9E71E
(1719308090.933658) can0 0A8#83D3BF078A640000
(1719308090.933898) can0 117#37030040680000FF
(1719308090.934131) can0 11B#0000000000000000
(1719308090.934385) can0 0B2#0000000000000000
(1719308090.934659) can0 086#140A9C2000000000
(1719308090.934900) can0 11E#6B04000000000000
(1719308090.935120) can0 116#5D040000000000FF
(1719308090.935376) can0 122#460300FE07000010
(1719308090.935569) can0 09F#843A6880010700F0
(1719308090.935852) can0 12E#EDE37F000000C0FF
(1719308090.936086) can0 32C#0003000098240818
(1719308090.936344) can0 3E5#F320000000000000
(1719308090.937234) can0 12B#0D4F802A00000000
(1719308090.942973) can0 120#390A00020008FF01
(1719308090.943185) can0 121#580A000030627EFE
(1719308090.943468) can0 15A#B106000001D20000
(1719308090.943706) can0 0A8#2FD4BF078A640000
(1719308090.943958) can0 0A7#48E49E7BFDB9E71E
(1719308090.944198) can0 0B2#0000000000000000
(1719308090.944432) can0 0FD#E5E53F8000000000
(1719308090.944646) can0 086#700B9C2000000000
(1719308090.944919) can0 31B#740F000000000000
(1719308090.945125) can0 101#85057DE081060000
(1719308090.945365) can0 106#9985630000007B00
(1719308090.945602) can0 09F#A13B6880010800F0
(1719308090.945853) can0 11D#370D00007E200000
(1719308090.946087) can0 32A#E20B1A0000020000
(1719308090.946362) can0 32F#007F000000000000
(1719308090.946637) can0 147#0000000000000000
(1719308090.946766) can0 3C0#C1010300
(1719308090.947058) can0 17330A10#328203010A000406
(1719308090.947204) can0 5A0#4E05832078
(1719308090.947582) can0 1B000015#1500010205000000
(1719308090.953168) can0 107#0000FE0040000000
(1719308090.953366) can0 0A7#33E59E7BFDB9E71E
(1719308090.953589) can0 0A8#45D5BF078A640000
(1719308090.953863) can0 117#24040040680000FF
(1719308090.954067) can0 122#440400FE07000010
(1719308090.954353) can0 0B2#0000000000000000
(1719308090.954559) can0 086#630C9C2000000000
(1719308090.954808) can0 11E#0F05000000000000
(1719308090.955041) can0 12E#CAE47F000000C0FF
(1719308090.955262) can0 392#C708000000000004
(1719308090.955547) can0 09F#F33C6880010700F0
(1719308090.955764) can0 116#39050000000000FF
(1719308090.956013) can0 040#430A00054100006C
(1719308090.957257) can0 12B#8640802A00000000
(1719308090.957863) can0 2B7#A3080000000010FE
(1719308090.962937) can0 120#950B00020008FF01
(1719308090.963139) can0 121#F30B000030627EFE
(1719308090.963389) can0 31E#C8EB3F0000000000
(1719308090.963669) can0 0A7#A0E69E7BFDB9E71E
(1719308090.963908) can0 0A8#75D6BF078A640000
(1719308090.964153) can0 0B2#0000000000000000
(1719308090.964369) can0 0FD#F7E63F8000000000
(1719308090.964624) can0 086#070D9C2000000000
(1719308090.964831) can0 101#29067DE081060000
(1719308090.965077) can0 106#3586630000007B00
(1719308090.965334) can0 147#0000000000000000
(1719308090.965569) can0 09F#973D6880010700F0
(1719308090.965786) can0 11D#9B0E00007E200000
(1719308090.966084) can0 23D#0000180402808C7F
(1719308090.966310) can0 33C#00000120805B0000
(1719308090.966567) can0 365#910000000000003C
(1719308090.966788) can0 5F0#FD006400004B0000
(1719308090.967083) can0 16A954C2#0019000000000000
(1719308090.969756) can0 1B000012#1200010105000000
(1719308090.973134) can0 107#0000FE0040000000
(1719308090.973324) can0 0A7#29E79E7BFDB9E71E
(1719308090.973575) can0 0A8#60D7BF078A640000
(1719308090.973790) can0 117#40050040680000FF
(1719308090.974027) can0 122#DD0500FE07000010
(1719308090.974263) can0 0B2#0000000000000000
(1719308090.974546) can0 086#AB0E9C2000000000
(1719308090.974782) can0 11E#A306000000000000
(1719308090.974976) can0 116#95060000000000FF
(1719308090.975227) can0 12E#2AE57F000000C0FF
(1719308090.975461) can0 09F#3B3E6880010700F0
(1719308090.975749) can0 2AC#AA83FEFE1E7E0000
(1719308090.975989) can0 30B#7F01800008000000
(1719308090.982854) can0 3EC#E100000000032000
(1719308090.983014) can0 120#4F0C00020008FF01
(1719308090.983327) can0 121#360C000030627EFE
(1719308090.983510) can0 0A7#64E89E7BFDB9E71E
(1719308090.983774) can0 0A8#42D8BF078A640000
(1719308090.983994) can0 32C#0003000098240818
(1719308090.984250) can0 0B2#0000000000000000
(1719308090.984490) can0 0FD#CDE73F8000000000
(1719308090.984725) can0 086#CF0F9C2000000000
(1719308090.984960) can0 101#B9077DE081080000
(1719308090.985218) can0 106#5187630000007B00
(1719308090.985455) can0 147#0000000000000000
(1719308090.985717) can0 09F#5F3F6880010700F0
(1719308090.985937) can0 11D#FF0F00007E200000
(1719308090.986194) can0 380#5D0A6000000000FF
(1719308090.988763) can0 381#FFFFFFFFFF0000B0
(1719308090.989033) can0 382#FFFFFFFFFF0000B0
(1719308090.993141) can0 107#0000FE0040000000
(1719308090.993336) can0 0A7#B4E99E7BFDB9E71E
(1719308090.993566) can0 0A8#30D9BF078A640000
(1719308090.993839) can0 32F#007F000000000000
(1719308090.994013) can0 117#EC060040680000FF
(1719308090.994307) can0 0B2#0000000000000000
(1719308090.994577) can0 086#8D009C2000000000
(1719308090.994810) can0 11E#C707000000000000
(1719308090.995014) can0 116#F1070000000000FF
(1719308090.995271) can0 122#4B0600FE07000020
(1719308090.995567) can0 09F#1D306880010700F0
(1719308090.995751) can0 12E#60E67F000000C0FF
(1719308090.995966) can0 31B#7900000000000000
(1719308090.996240) can0 32A#F10C1A0000020000
(1719308090.996505) can0 658#0000040000000000
(1719308090.997253) can0 12B#F441802A00000000
(1719308090.999018) can0 3B5#80FE12020C002000
(1719308090.999584) can0 668#0200000000000000
(1719308091.002860) can0 3DD#8A1C100000000000
(1719308091.003093) can0 120#FF0D00020008FF01
(1719308091.003311) can0 121#250D000030627EFE
(1719308091.003565) can0 0A8#6FDABF078A640000
(1719308091.003794) can0 3BE#8728070102C00880
(1719308091.004044) can0 147#0000000000000000
(1719308091.004254) can0 0A7#B2EA9E7BFDB9E71E
(1719308091.004565) can0 0B2#0000000000000000
(1719308091.004751) can0 086#E9019C2000000000
(1719308091.005014) can0 0FD#0AE83F8000000000
(1719308091.005219) can0 101#BE087DE0810A0000
(1719308091.005458) can0 106#1388630000007B00
(1719308091.005708) can0 09F#38316880010800F0
(1719308091.005964) can0 11D#BD0000007E200000
(1719308091.006184) can0 391#00671D0000290000
(1719308091.006467) can0 3D8#0000040000000000
(1719308091.006705) can0 040#DA0B00054100006E
(1719308091.006909) can0 3FB#0000000000000042
(1719308091.007912) can0 2B7#CC090000000010FE
(1719308091.008845) can0 48E#0000000000000000
(1719308091.009125) can0 497#0000000041470020
(1719308091.013147) can0 31E#6BEC3F0000000000
(1719308091.013351) can0 107#0000FE0040000000
(1719308091.013544) can0 0A7#DCEB9E7BFDB9E71E
(1719308091.013795) can0 0A8#A2DBBF078A640000
(1719308091.014032) can0 117#88070040680000FF
(1719308091.014307) can0 0B2#0000000000000000
(1719308091.014557) can0 086#45029C2000000000
(1719308091.014804) can0 11E#8508000000000000
(1719308091.015036) can0 122#5C0700FE07000020
(1719308091.015257) can0 1A2#350D000000000000
(1719308091.015543) can0 09F#D5326880010700F0
(1719308091.015728) can0 12E#73E77F000000C0FF
(1719308091.015963) can0 1AB#BF81840A00001000
(1719308091.016213) can0 116#B3080000000000FF
(1719308091.016453) can0 365#910000000000003C
(1719308091.016683) can0 3C7#FD10080000408300
(1719308091.016932) can0 3D5#C609000400000000
(1719308091.017229) can0 12B#5042802A00000000
(1719308091.020591) can0 17FC0115#100B80013520261A
(1719308091.021817) can0 17FE0115#300F05AAAAAAAAAA
(1719308091.022791) can0 3DB#521001050710019F
(1719308091.023039) can0 120#940E00020008FF01
(1719308091.023262) can0 121#B60E000030627EFE
(1719308091.023501) can0 0A7#63EC9E7BFDB9E71E
(1719308091.023728) can0 0A8#BCDCBF078A640000
(1719308091.023950) can0 147#0000000000000000
(1719308091.024254) can0 0B2#0000000000000000
(1719308091.024480) can0 0FD#38E93F8000000000
(1719308091.024729) can0 086#21039C2000000000
(1719308091.024950) can0 101#2E097DE081040000
(1719308091.025206) can0 106#7789630000007B00
(1719308091.025456) can0 3EC#E100000000034000
(1719308091.025705) can0 09F#B1336880010700F0
(1719308091.025934) can0 11D#D90100007E200000
(1719308091.026193) can0 30B#7F02800008000000
(1719308091.026430) can0 3D6#0D00000000000000
(1719308091.026715) can0 17FC0115#21F3B3BA9D86AAAA
(1719308091.026978) can0 1A55552F#00108CFFB52F0B00
(1719308091.033216) can0 107#0000FE0040000000
(1719308091.033414) can0 0A7#93ED9E7BFDB9E71E
(1719308091.033675) can0 0A8#AFDDBF078A640000
(1719308091.033914) can0 117#CA080040680000FF
(1719308091.034150) can0 11B#0000000000000000
(1719308091.034387) can0 0B2#0000000000000000
(1719308091.034623) can0 086#32049C2000000000
(1719308091.034858) can0 11E#E109000000000000
(1719308091.035110) can0 116#D7090000000000FF
(1719308091.035340) can0 122#250800FE07000020
(1719308091.035576) can0 09F#A2346880010700F0
(1719308091.035834) can0 12E#1AE87F000000C0FF
(1719308091.036091) can0 32C#0003000098240818
(1719308091.036353) can0 3E5#B221000000000000
(1719308091.036581) can0 676#0000410000008001
(1719308091.036859) can0 1B000013#1300010205000000
(1719308091.042939) can0 120#410F00020008FF01
(1719308091.043137) can0 121#000F000030627EFE
(1719308091.043385) can0 15A#1D07000001820200
(1719308091.043636) can0 0A7#18EE9E7BFDB9E71E
(1719308091.043826) can0 0A8#1DDEBF078A640000
(1719308091.044079) can0 0B2#0000000000000000
(1719308091.044321) can0 0FD#74EA3F8000000000
(1719308091.044553) can0 086#56059C2000000000
(1719308091.044830) can0 23D#0000180402808C7F
(1719308091.045079) can0 31B#AF01000000000000
(1719308091.045331) can0 101#4C0A7DE081014000
(1719308091.045542) can0 09F#C6356880010700F0
(1719308091.045773) can0 106#DB8A630000007B00
(1719308091.046022) can0 11D#750200007E200000
(1719308091.046249) can0 32A#950D1A0000020000
(1719308091.046540) can0 32F#007F000000000000
(1719308091.046760) can0 147#0000000000000000
(1719308091.046917) can0 3C0#31020300
(1719308091.047191) can0 33C#00000120805B0000
(1719308091.053119) can0 107#0000FE0040000000
(1719308091.053339) can0 0A7#C6EF9E7BFDB9E71E
(1719308091.053576) can0 0A8#92DFBF078A640000
(1719308091.053852) can0 17330710#800831C338038100
(1719308091.054070) can0 117#AE090040680000FF
(1719308091.054333) can0 0B2#0000000000000000
(1719308091.054580) can0 086#FA069C2000000000
(1719308091.054825) can0 11E#4D0A000000000000
(1719308091.055037) can0 122#4C0900FE07000020
(1719308091.055304) can0 392#A309000000000004
(1719308091.055578) can0 09F#2B366880010800F0
(1719308091.055769) can0 116#7B0A0000000000FF
(1719308091.055980) can0 040#410C000541000070
(1719308091.056252) can0 12E#66E97F000000C0FF
(1719308091.056501) can0 366#0000000080030000
(1719308091.057256) can0 12B#0843802A00000000
(1719308091.057818) can0 2B7#C20A0000000010FE
(1719308091.062936) can0 120#8B0000020008FF01
(1719308091.063204) can0 121#CE00000030627EFE
(1719308091.063501) can0 31E#C2ED3F0000000000
(1719308091.063708) can0 0A8#FAD0BF078A640000
(1719308091.063967) can0 0A7#0FE09E7BFDB9E71E
(1719308091.064203) can0 0B2#0000000000000000
(1719308091.064453) can0 0FD#5BEB3F8000000000
(1719308091.064703) can0 086#9E079C2000000000
(1719308091.064955) can0 101#C90B7DE181004000
(1719308091.065145) can0 106#BF8B630000007B00
(1719308091.065421) can0 147#0000000000000000
(1719308091.065606) can0 09F#4F376880010800F0
(1719308091.065908) can0 11D#110300007E200000
(1719308091.066112) can0 365#910000000000003C
(1719308091.066394) can0 380#390B6000000000FF
(1719308091.068758) can0 381#FFFFFFFFFF0000C0
(1719308091.069011) can0 382#FFFFFFFFFF0000C0
(1719308091.069947) can0 126#3902000000FE0700
(1719308091.071004) can0 12DD5470#8404000000000000
(1719308091.073142) can0 107#0000FE0040000000
(1719308091.073352) can0 0A7#87E19E7BFDB9E71E
(1719308091.073544) can0 0A8#80D1BF078A640000
(1719308091.074136) can0 0B2#0000000000000000
(1719308091.074337) can0 116#1F0B0000000000FF
(1719308091.074586) can0 086#DC089C2000000000
(1719308091.074860) can0 117#020A0040680000FF
(1719308091.075064) can0 11E#290B000000000000
(1719308091.075301) can0 122#E70A00FE07000020
(1719308091.075553) can0 09F#4C386880010700F0
(1719308091.075787) can0 12E#3AEA7F000000C0FF
(1719308091.076008) can0 30B#7F03800008000000
(1719308091.076302) can0 65E#00007E0100000000
(1719308091.076603) can0 16A954C2#F61B0C0400000001
(1719308091.077252) can0 12B#8844802A00000000
(1719308091.080813) can0 1B000076#7600010105000000
(1719308091.083024) can0 120#7E0100020008FF01
(1719308091.083228) can0 121#A201000030627EFE
(1719308091.083477) can0 3FB#0000000000000043
(1719308091.083704) can0 0A7#F3E29E7BFDB9E71E
(1719308091.083921) can0 0A8#6CD2BF078A640000
(1719308091.084190) can0 0B2#0000000000000000
(1719308091.084431) can0 0FD#C2EC3F8000000000
(1719308091.084706) can0 086#B8099C2000000000
(1719308091.084890) can0 101#DA0C7DE181004000
(1719308091.085150) can0 106#AC8C630000007B00
(1719308091.085388) can0 147#0000000000000000
(1719308091.085627) can0 09F#28396880010700F0
(1719308091.085860) can0 11D#020400007E200000
(1719308091.086161) can0 32C#0003000098240818
(1719308091.090281) can0 16A954C4#00FF000000000000
(1719308091.093099) can0 107#0000FE0040000000
(1719308091.093309) can0 0A7#72E39E7BFDB9E71E
(1719308091.093562) can0 0A8#83D3BF078A640000
(1719308091.093792) can0 32F#007F000000000000
(1719308091.093979) can0 117#660B0040680000FF
(1719308091.094272) can0 0B2#0000000000000000
(1719308091.094564) can0 086#140A9C2000000000
(1719308091.094747) can0 11E#3A0C000000000000
(1719308091.095032) can0 116#0C0C0000000000FF
(1719308091.095219) can0 122#360B00FE07000020
(1719308091.095457) can0 31B#CC02000000000000
(1719308091.095706) can0 12E#CEEB7F000000C0FF
(1719308091.095945) can0 09F#843A6880010700F0
(1719308091.096182) can0 32A#390E1A0000020000
(1719308091.096421) can0 3D4#2509820600060000
(1719308091.096705) can0 65A#0000001000803D00
(1719308091.099042) can0 3B5#80FE12020C002000
(1719308091.102866) can0 3DD#8A1C100000000000
(1719308091.103066) can0 120#860200020008FF01
(1719308091.103259) can0 121#2D02000030627EFE
(1719308091.103544) can0 0A8#2FD4BF078A640000
(1719308091.103770) can0 3BE#2529070142C008C0
(1719308091.104020) can0 147#0000000000000000
(1719308091.104249) can0 0A7#48E49E7BFDB9E71E
(1719308091.104542) can0 0B2#0000000000000000
(1719308091.104724) can0 086#700B9C2000000000
(1719308091.104961) can0 0FD#4BED3F8000000000
(1719308091.105234) can0 101#4E0D7DE181034000
(1719308091.105438) can0 106#C88D630000007B00
(1719308091.105690) can0 09F#E03B6880010700F0
(1719308091.105929) can0 11D#660500007E200000
(1719308091.106169) can0 391#0067200000290000
(1719308091.106407) can0 3D8#0000040000000000
(1719308091.106689) can0 040#F00D000541000074
(1719308091.106929) can0 17330710#C000000000
(1719308091.107900) can0 2B7#B40B0000000010FE
(1719308091.108873) can0 48E#0000000000000000
(1719308091.109081) can0 497#0000000041470020
(1719308091.113165) can0 31E#B7EE3F0000000000
(1719308091.113429) can0 107#0000FE0040000000
(1719308091.113630) can0 0A7#33E59E7BFDB9E71E
(1719308091.113889) can0 0A8#45D5BF078A640000
(1719308091.114111) can0 117#750C0040680000FF
(1719308091.114395) can0 0B2#0000000000000000
(1719308091.114625) can0 086#630C9C2000000000
(1719308091.114875) can0 11E#5E0D000000000000
(1719308091.115109) can0 116#680D0000000000FF
(1719308091.115337) can0 122#660C00FE07000020
(1719308091.115577) can0 09F#B23C6880010800F0
(1719308091.115790) can0 12E#6DEC7F000000C0FF
(1719308091.116032) can0 3C7#1410080000408300
(1719308091.116326) can0 365#910000000000003C
(1719308091.116576) can0 520#880F000800AA0200
(1719308091.116752) can0 3D5#F50A000400000000
(1719308091.116998) can0 545#0000500001000100
(1719308091.117280) can0 12B#2D45802A00000000
(1719308091.122937) can0 1B000010#1000010505000000
(1719308091.123205) can0 120#540300020008FF01
(1719308091.123409) can0 0A8#75D6BF078A640000
(1719308091.123657) can0 0A7#A0E69E7BFDB9E71E
(1719308091.123897) can0 121#DF03000030627EFE
(1719308091.124136) can0 0B2#0000000000000000
(1719308091.124384) can0 0FD#B4EE3F8000000000
(1719308091.124632) can0 086#070D9C2000000000
(1719308091.124842) can0 101#E20E7DE181034000
(1719308091.125087) can0 106#648E630000007B00
(1719308091.125348) can0 147#0000000000000000
(1719308091.125576) can0 09F#973D6880010700F0
(1719308091.125800) can0 11D#CA0600007E200000
(1719308091.126055) can0 3DB#501001050710019F
(1719308091.126294) can0 23D#0000180402808C7F
(1719308091.126577) can0 30B#7F04800008000000
(1719308091.126808) can0 33C#00000120805B0000
(1719308091.127058) can0 3D6#0E00000000000000
(1719308091.127282) can0 6B4#015A5A5A43315A4B
(1719308091.133145) can0 107#0000FE0040000000
(1719308091.133360) can0 0A7#29E79E7BFDB9E71E
(1719308091.133611) can0 0A8#60D7BF078A640000
(1719308091.133838) can0 32C#0003000098240818
(1719308091.134066) can0 117#110D0040680000FF
(1719308091.134326) can0 0B2#0000000000000000
(1719308091.134555) can0 086#AB0E9C2000000000
(1719308091.134804) can0 11B#0000000000000000
(1719308091.135076) can0 11E#F20E000000000000
(1719308091.135280) can0 116#C40E0000000000FF
(1719308091.135552) can0 09F#3B3E6880010700F0
(1719308091.135785) can0 122#640D00FE07000020
(1719308091.136007) can0 12E#47ED7F000000C0FF
(1719308091.136305) can0 3E5#6F22000000000000
(1719308091.137232) can0 12B#3446802A00000000
(1719308091.142966) can0 120#020400020008FF01
(1719308091.143139) can0 121#6204000030627EFE
(1719308091.143475) can0 15A#F808000001820200
(1719308091.143705) can0 0A8#42D8BF078A640000
(1719308091.143897) can0 0A7#64E89E7BFDB9E71E
(1719308091.144191) can0 0B2#0000000000000000
(1719308091.144420) can0 0FD#23EF3F8000000000
(1719308091.144636) can0 086#CF0F9C2000000000
(1719308091.144876) can0 31B#A003000000000000
(1719308091.145114) can0 101#760F7DE181004000
(1719308091.145353) can0 106#008F630000007B00
(1719308091.145590) can0 09F#5F3F6880010700F0
(1719308091.145828) can0 11D#AE0700007E200000
(1719308091.146099) can0 32A#5D0F1A0000020000
(1719308091.146320) can0 32F#007F000000000000
(1719308091.146602) can0 147#0000000000000000
(1719308091.146842) can0 380#2A0C6000000000FF
(1719308091.146982) can0 3C0#84030300
(1719308091.147269) can0 1B000015#1500010205000000
(1719308091.147472) can0 5A0#4F06832078
(1719308091.148818) can0 381#FFFFFFFFFF0000D0
(1719308091.149044) can0 382#FFFFFFFFFF0000D0
(1719308091.153184) can0 107#0000FE0040000000
(1719308091.153386) can0 0A7#B4E99E7BFDB9E71E
(1719308091.153589) can0 0A8#30D9BF078A640000
(1719308091.153862) can0 117#BD0E0040680000FF
(1719308091.154066) can0 122#E50E00FE07000020
(1719308091.154349) can0 0B2#0000000000000000
(1719308091.154556) can0 086#8D009C2000000000
(1719308091.154796) can0 11E#960F000000000000
(1719308091.155077) can0 12E#9DEE7F000000C0FF
(1719308091.155282) can0 392#0F0A000000000004
(1719308091.155556) can0 09F#1D306880010700F0
(1719308091.155759) can0 116#A00F0000000000FF
(1719308091.156000) can0 040#A10E000541000076
(1719308091.157807) can0 2B7#570C0000000010FE
(1719308091.162955) can0 120#000500020008FF01
(1719308091.163158) can0 121#5505000030627EFE
(1719308091.163380) can0 31E#5EEF3F0000000000
(1719308091.163601) can0 0A7#B2EA9E7BFDB9E71E
(1719308091.163840) can0 0A8#6FDABF078A640000
(1719308091.164078) can0 0B2#0000000000000000
(1719308091.164319) can0 0FD#59E03F8000000000
(1719308091.164600) can0 086#E9019C2000000000
(1719308091.164841) can0 101#70007DE181010000
(1719308091.165100) can0 106#4280630000007B00
(1719308091.165320) can0 3FB#0000000000000044
(1719308091.165555) can0 09F#79316880010700F0
(1719308091.165782) can0 11D#EC0800007E200000
(1719308091.166030) can0 5F0#FD006400004B0000
(1719308091.166211) can0 64A#00000000
(1719308091.166463) can0 365#910000000000003C
(1719308091.166701) can0 670#15100000FE000080
(1719308091.166954) can0 147#0000000000000000
(1719308091.169638) can0 1B000012#1200010105000000
(1719308091.173074) can0 107#0000FE0040000000
(1719308091.173293) can0 0A7#DCEB9E7BFDB9E71E
(1719308091.173563) can0 0A8#A2DBBF078A640000
(1719308091.173830) can0 117#D90F0040680000FF
(1719308091.174052) can0 122#690F00FE07000020
(1719308091.174327) can0 0B2#0000000000000000
(1719308091.174577) can0 086#45029C2000000000
(1719308091.174763) can0 11E#D400000000000000
(1719308091.175020) can0 116#E2000000000000FF
(1719308091.175259) can0 12E#9AEF7F000000C0FF
(1719308091.175496) can0 09F#94326880010800F0
(1719308091.175751) can0 30B#7F05800008000000
(1719308091.176053) can0 17F00013#20130000001E0000
(1719308091.176334) can0 16A9540A#0000000000000000
(1719308091.177254) can0 12B#1147802A00000000
(1719308091.177816) can0 17FE0115#100BC00176C04832
(1719308091.180567) can0 17FC0115#300F05AAAAAAAAAA
(1719308091.181833) can0 17FE0115#21D2B574A586AAAA
(1719308091.183002) can0 120#EF0600020008FF01
(1719308091.183229) can0 121#5206000030627EFE
(1719308091.183576) can0 0A8#BCDCBF078A640000
(1719308091.183729) can0 0A7#63EC9E7BFDB9E71E
(1719308091.184005) can0 147#0000000000000000
(1719308091.184235) can0 0B2#0000000000000000
(1719308091.184464) can0 0FD#53E13F8000000000
(1719308091.184702) can0 086#21039C2000000000
(1719308091.184931) can0 101#51017DE181030000
(1719308091.185180) can0 106#2681630000007B00
(1719308091.185431) can0 32C#0003000098240818
(1719308091.185692) can0 11D#880900007E200000
(1719308091.185929) can0 09F#B1336880010700F0
(1719308091.193142) can0 107#0000FE0040000000
(1719308091.193334) can0 0A7#93ED9E7BFDB9E71E
(1719308091.193563) can0 0A8#AFDDBF078A640000
(1719308091.193818) can0 32F#007F000000000000
(1719308091.194077) can0 117#9B000040680000FF
(1719308091.194306) can0 0B2#0000000000000000
(1719308091.194555) can0 086#32049C2000000000
(1719308091.194804) can0 11E#B001000000000000
(1719308091.195032) can0 116#86010000000000FF
(1719308091.195281) can0 122#7D0000FE07000020
(1719308091.195554) can0 09F#E3346880010800F0
(1719308091.195747) can0 12E#B3E07F000000C0FF
(1719308091.195998) can0 31B#BC04000000000000
(1719308091.196235) can0 32A#1F001A0000020000
(1719308091.197255) can0 12B#C448802A00000000
(1719308091.199006) can0 3B5#80FE12020C002000
(1719308091.199573) can0 668#0200000000000000
(1719308091.202812) can0 3DD#8A1C100000000000
(1719308091.203028) can0 120#ED0700020008FF01
(1719308091.203259) can0 121#0107000030627EFE
(1719308091.203552) can0 0A8#1DDEBF078A640000
(1719308091.203736) can0 3BE#EE2A070142C008C0
(1719308091.203984) can0 147#0000000000000000
(1719308091.204214) can0 0A7#18EE9E7BFDB9E71E
(1719308091.204464) can0 0B2#0000000000000000
(1719308091.204749) can0 086#56059C2000000000
(1719308091.204939) can0 0FD#9CE23F8000000000
(1719308091.205213) can0 101#FD027DE181030000
(1719308091.205451) can0 106#8A82630000007B00
(1719308091.205689) can0 09F#C6356880010700F0
(1719308091.205918) can0 11D#240A00007E200000
(1719308091.206125) can0 23D#0000180402808C7F
(1719308091.206407) can0 3D8#0000040000000000
(1719308091.206647) can0 040#680F000541000078
(1719308091.206885) can0 33C#0000F11F805B0000
(1719308091.207125) can0 65F#0020000000002C7F
(1719308091.207364) can0 56F#0000B8037DFC0000
(1719308091.207601) can0 391#0067200000290000
(1719308091.208028) can0 16A954C6#001D000000000000
(1719308091.208307) can0 2B7#620D0000000010FE
(1719308091.208881) can0 48E#0000000000000000
(1719308091.209105) can0 497#0000000041470020
(1719308091.213140) can0 31E#CDE03F0000000000
(1719308091.213386) can0 107#0000FE0040000000
(1719308091.213602) can0 0A7#C6EF9E7BFDB9E71E
(1719308091.213851) can0 0A8#92DFBF078A640000
(1719308091.214100) can0 117#FF010040680000FF
(1719308091.214353) can0 0B2#0000000000000000
(1719308091.214545) can0 086#FA069C2000000000
(1719308091.214839) can0 11E#1C02000000000000
(1719308091.215031) can0 122#F60100FE07000020
(1719308091.215323) can0 1A2#9E0E000000000000
(1719308091.215557) can0 09F#6A366880010700F0
(1719308091.215757) can0 12E#BDE17F000000C0FF
(1719308091.216008) can0 1AB#2482840A00001000
(1719308091.216250) can0 116#2A020000000000FF
(1719308091.216496) can0 365#910000000000003C
(1719308091.216726) can0 3C7#FD10080000408300
(1719308091.217010) can0 3D5#1A0B000400000000
(1719308091.222812) can0 3DB#501001050710019F
(1719308091.222989) can0 120#B40800020008FF01
(1719308091.223247) can0 121#C208000030627EFE
(1719308091.223493) can0 0A7#0FE09E7BFDB9E71E
(1719308091.223723) can0 0A8#FAD0BF078A640000
(1719308091.223989) can0 147#0000000000000000
(1719308091.224260) can0 0B2#0000000000000000
(1719308091.224495) can0 0FD#E9E33F8000000000
(1719308091.224723) can0 086#9E079C2000000000
(1719308091.224943) can0 101#98037DE181004000
(1719308091.225179) can0 106#EE83630000007B00
(1719308091.225421) can0 380#4E0D6000000000FF
(1719308091.225705) can0 11D#400B00007E200000
(1719308091.225895) can0 09F#0E376880010700F0
(1719308091.226169) can0 3EC#E100000000034000
(1719308091.226419) can0 30B#7F16800008000000
(1719308091.226636) can0 3D6#0F00000000000000
(1719308091.228785) can0 381#FFFFFFFFFF0000E0
(1719308091.229033) can0 382#FFFFFFFFFF0000E0
(1719308091.233210) can0 107#0000FE0040000000
(1719308091.233402) can0 0A7#87E19E7BFDB9E71E
(1719308091.233646) can0 0A8#80D1BF078A640000
(1719308091.233884) can0 117#53020040680000FF
(1719308091.234124) can0 11B#0000000000000000
(1719308091.234406) can0 0B2#0000000000000000
(1719308091.234645) can0 086#DC089C2000000000
(1719308091.234884) can0 11E#7803000000000000
(1719308091.235123) can0 116#4E030000000000FF
(1719308091.235361) can0 122#0C0200FE07000020
(1719308091.235598) can0 09F#4C386880010700F0
(1719308091.235806) can0 12E#74E27F000000C0FF
(1719308091.236070) can0 32C#0003000098240818
(1719308091.236290) can0 3E5#3B23000000000000
(1719308091.236552) can0 676#0000410001008001
(1719308091.236827) can0 1B000013#1300010205000000
(1719308091.237224) can0 12B#CC49802A00000000
(1719308091.242960) can0 120#E20900020008FF01
(1719308091.243178) can0 121#3D09000030627EFE
(1719308091.243407) can0 15A#8509000001D20000
(1719308091.243635) can0 0A7#F3E29E7BFDB9E71E
(1719308091.243895) can0 0A8#6CD2BF078A640000
(1719308091.244114) can0 0B2#0000000000000000
(1719308091.244371) can0 0FD#7FE43F8000000000
(1719308091.244608) can0 086#B8099C2000000000
(1719308091.244845) can0 31B#5105000000000000
(1719308091.245080) can0 101#8B047DE181004000
(1719308091.245338) can0 106#FD84630000007B00
(1719308091.245573) can0 09F#28396880010700F0
(1719308091.245786) can0 11D#530C00007E200000
(1719308091.246008) can0 32A#0B01000000020000
(1719308091.246305) can0 32F#007F000000000000
(1719308091.246471) can0 3C0#FE040300
(1719308091.246748) can0 147#0000000000000000
(1719308091.246974) can0 3FB#0000000000000060
(1719308091.247276) can0 17F00012#2012000000000000
(1719308091.252816) can0 385#0000000000000000
(1719308091.253063) can0 3E8#0000000000000000
(1719308091.253284) can0 0A7#72E39E7BFDB9E71E
(1719308091.253574) can0 107#0000FE0040000000
(1719308091.253808) can0 0A8#83D3BF078A640000
(1719308091.254044) can0 3FE#0000000000000000
(1719308091.254282) can0 0B2#0000000000000000
(1719308091.254564) can0 086#140A9C2000000000
(1719308091.254749) can0 117#37030040680000FF
(1719308091.254983) can0 11E#6B04000000000000
(1719308091.255238) can0 122#290300FE07000020
(1719308091.255460) can0 09F#843A6880010700F0
(1719308091.255714) can0 12E#EDE37F000000C0FF
(1719308091.255949) can0 040#D70000054100007A
(1719308091.256173) can0 392#6B0B000000000004
(1719308091.256429) can0 116#5D040000000000FF
(1719308091.257228) can0 12B#DC4A802A00000000
(1719308091.257865) can0 2B7#E60E0000000010FE
(1719308091.262982) can0 120#390A00020008FF01
(1719308091.263178) can0 121#580A000030627EFE
(1719308091.263475) can0 31E#07E13F0000000000
(1719308091.263700) can0 0A8#2FD4BF078A640000
(1719308091.263941) can0 0A7#48E49E7BFDB9E71E
(1719308091.264177) can0 0B2#0000000000000000
(1719308091.264418) can0 0FD#E5E53F8000000000
(1719308091.264703) can0 086#700B9C2000000000
(1719308091.264894) can0 101#EE057DE181030000
(1719308091.265168) can0 106#9985630000007B00
(1719308091.265415) can0 147#0000000000000000
(1719308091.265630) can0 09F#E03B6880010700F0
(1719308091.265873) can0 11D#370D00007E200000
(1719308091.266111) can0 365#910000000000003C
(1719308091.273162) can0 107#0000FE0040000000
(1719308091.273365) can0 0A7#33E59E7BFDB9E71E
(1719308091.273607) can0 0A8#45D5BF078A640000
(1719308091.274114) can0 0B2#0000000000000000
(1719308091.274336) can0 116#39050000000000FF
(1719308091.274556) can0 086#630C9C2000000000
(1719308091.274804) can0 117#24040040680000FF
(1719308091.275041) can0 11E#0F05000000000000
(1719308091.275323) can0 122#2B0400FE07000020
(1719308091.275556) can0 09F#F33C6880010700F0
(1719308091.275818) can0 12E#CAE47F000000C0FF
(1719308091.276056) can0 30B#7F17800008000000
(1719308091.280847) can0 1B000076#7600010105000000
(1719308091.282979) can0 120#950B00020008FF01
(1719308091.283200) can0 121#F30B000030627EFE
(1719308091.283405) can0 0A7#A0E69E7BFDB9E71E
(1719308091.283652) can0 0A8#75D6BF078A640000
(1719308091.283874) can0 32C#0003000098240818
(1719308091.284147) can0 0B2#0000000000000000
(1719308091.284379) can0 0FD#F7E63F8000000000
(1719308091.284627) can0 086#070D9C2000000000
(1719308091.284838) can0 101#43067DE181004000
(1719308091.285129) can0 106#3586630000007B00
(1719308091.285377) can0 147#0000000000000000
(1719308091.285562) can0 09F#D63D6880010800F0
(1719308091.285826) can0 11D#9B0E00007E200000
(1719308091.286074) can0 23D#00001804027F8C7F
(1719308091.286323) can0 33C#0000F11F805B0000
(1719308091.293082) can0 107#0000FE0040000000
(1719308091.293288) can0 0A7#29E79E7BFDB9E71E
(1719308091.293543) can0 0A8#60D7BF078A640000
(1719308091.293781) can0 32F#007F000000000000
(1719308091.294005) can0 117#40050040680000FF
(1719308091.294241) can0 0B2#0000000000000000
(1719308091.294539) can0 086#AB0E9C2000000000
(1719308091.294722) can0 11E#A306000000000000
(1719308091.294971) can0 116#95060000000000FF
(1719308091.295221) can0 122#B20500FE07000020
(1719308091.295458) can0 31B#3106000000000000
(1719308091.295696) can0 09F#3B3E6880010700F0
(1719308091.295927) can0 12E#2AE57F000000C0FF
(1719308091.296178) can0 32A#A702000000020000
(1719308091.297251) can0 12B#794B802A00000000
(1719308091.299003) can0 3B5#80FE12020C002000
(1719308091.302840) can0 3DD#8A1C100000000000
(1719308091.303008) can0 120#4F0C00020008FF01
(1719308091.303303) can0 121#360C000030627EFE
(1719308091.303571) can0 0A8#42D8BF078A640000
(1719308091.303802) can0 380#E20E6000000000FF
(1719308091.304037) can0 147#0000000000000000
(1719308091.304277) can0 0B2#0000000000000000
(1719308091.304560) can0 086#CF0F9C2000000000
(1719308091.304779) can0 0FD#CDE73F8000000000
(1719308091.305010) can0 101#26077DE181030000
(1719308091.305255) can0 106#5187630000007B00
(1719308091.305504) can0 09F#5F3F6880010700F0
(1719308091.305720) can0 11D#FF0F00007E200000
(1719308091.305976) can0 3BE#982B070142C008C0
(1719308091.306244) can0 3D8#0000040000000000
(1719308091.306452) can0 040#660100054100007E
(1719308091.306712) can0 0A7#64E89E7BFDB9E71E
(1719308091.306994) can0 17F00076#2076000000000000
(1719308091.307201) can0 640#0281FE937E200300
(1719308091.307447) can0 647#B8FDFF7F00000062
(1719308091.307697) can0 391#00672D0000290000
(1719308091.307976) can0 2B7#4F0F0000000010FE
(1719308091.308838) can0 381#FFFFFFFFFF0000F0
(1719308091.309096) can0 382#FFFFFFFFFF0000F0
(1719308091.309372) can0 48E#0000000000000000
(1719308091.309602) can0 497#0000000041470020
(1719308091.313161) can0 31E#BDE23F0000000000
(1719308091.313428) can0 107#0000FE0040000000
(1719308091.313655) can0 0A7#B4E99E7BFDB9E71E
(1719308091.313895) can0 0A8#30D9BF078A640000
(1719308091.314136) can0 117#EC060040680000FF
(1719308091.314375) can0 0B2#0000000000000000
(1719308091.314634) can0 086#8D009C2000000000
(1719308091.314843) can0 11E#C707000000000000
(1719308091.315122) can0 116#F1070000000000FF
(1719308091.315330) can0 122#4B0600FE07000020
(1719308091.315566) can0 09F#5C306880010800F0
(1719308091.315819) can0 12E#60E67F000000C0FF
(1719308091.316095) can0 3C7#1410080000408300
(1719308091.316327) can0 365#910000000000003C
(1719308091.316574) can0 520#CA00000800AA0200
(1719308091.316759) can0 3D5#650C000400000000
(1719308091.317018) can0 545#0000500001000100
(1719308091.317256) can0 12B#3C4C802A00000000
(1719308091.322814) can0 1B000010#1000010505000000
(1719308091.323020) can0 120#FF0D00020008FF01
(1719308091.323243) can0 121#250D000030627EFE
(1719308091.323491) can0 0A7#B2EA9E7BFDB9E71E
(1719308091.323703) can0 0A8#6FDABF078A640000
(1719308091.323943) can0 3DB#501001050710019F
(1719308091.324198) can0 0B2#0000000000000000
(1719308091.324464) can0 0FD#0AE83F8000000000
(1719308091.324701) can0 086#E9019C2000000000
(1719308091.324954) can0 101#65087DE181004000
(1719308091.325210) can0 106#1388630000007B00
(1719308091.325428) can0 147#0000000000000000
(1719308091.325642) can0 09F#79316880010700F0
(1719308091.325916) can0 11D#BD0000007E200000
(1719308091.326125) can0 30B#7F18800008000000
(1719308091.326407) can0 3FB#0000000000000061
(1719308091.326645) can0 3D6#0000000000000000
(1719308091.326886) can0 6B4#0000000000575647
(1719308091.333159) can0 107#0000FE0040000000
(1719308091.333381) can0 0A7#DCEB9E7BFDB9E71E
(1719308091.333606) can0 0A8#A2DBBF078A640000
(1719308091.333815) can0 32C#0003000098240818
(1719308091.334092) can0 117#88070040680000FF
(1719308091.334323) can0 0B2#0000000000000000
(1719308091.334572) can0 086#45029C2000000000
(1719308091.334802) can0 11B#0000000000000000
(1719308091.335076) can0 11E#8508000000000000
(1719308091.335282) can0 116#B3080000000000FF
(1719308091.335551) can0 09F#D5326880010700F0
(1719308091.335784) can0 122#5C0700FE07000020
(1719308091.336006) can0 557#0000000000000000
(1719308091.336247) can0 12E#73E77F000000C0FF
(1719308091.336553) can0 3E5#6A24000000000000
(1719308091.342954) can0 120#940E00020008FF01
(1719308091.343166) can0 121#B60E000030627EFE
